Title: kicad schematic
Date: Sun Jun 14 12:24:57  2026
Plotname: Transient Analysis
Flags: real
No. Variables: 44
No. Points: 108     
Variables:
	0	time	time
	1	v(net-_qn11-pad2_)	voltage
	2	v(net-_qn11-pad1_)	voltage
	3	v(net-_qn2-pad3_)	voltage
	4	v(net-_qn6-pad2_)	voltage
	5	v(net-_c1-pad2_)	voltage
	6	v(output)	voltage
	7	v(net-_qn9-pad2_)	voltage
	8	v(net-_d2-pad1_)	voltage
	9	v(net-_qn15-pad3_)	voltage
	10	v(net-_qn13-pad1_)	voltage
	11	v(net-_qn8-pad2_)	voltage
	12	v(net-_qn10-pad1_)	voltage
	13	v(net-_qn10-pad3_)	voltage
	14	v(net-_qn1-pad1_)	voltage
	15	v(net-_d1-pad2_)	voltage
	16	v(net-_qn1-pad3_)	voltage
	17	v(net-_qn2-pad1_)	voltage
	18	v(net-_qp1-pad3_)	voltage
	19	v(vin)	voltage
	20	v(net-_qn3-pad1_)	voltage
	21	v(net-_qn2-pad2_)	voltage
	22	v(net-_c1-pad1_)	voltage
	23	v(net-_qn5-pad3_)	voltage
	24	v(net-_qp2-pad3_)	voltage
	25	v(net-_d2-pad2_)	voltage
	26	v(net-_qn7-pad3_)	voltage
	27	v(qp2#collCX)	voltage
	28	v(qp1#collCX)	voltage
	29	v(qn7#collCX)	voltage
	30	v(qn10#collCX)	voltage
	31	v(qn11#collCX)	voltage
	32	v(qn3#collCX)	voltage
	33	v(qn14#collCX)	voltage
	34	v(qn15#collCX)	voltage
	35	v(qn2#collCX)	voltage
	36	v(qn5#collCX)	voltage
	37	v(qn6#collCX)	voltage
	38	v(qn4#collCX)	voltage
	39	v(qn1#collCX)	voltage
	40	v(qn12#collCX)	voltage
	41	v(qn8#collCX)	voltage
	42	v(qn13#collCX)	voltage
	43	v(qn9#collCX)	voltage
Values:
0		0.000000000000000e+00
	4.669054128262962e-16
	4.669054140409969e-16
	5.876333601110289e-16
	5.876332550412406e-16
	5.876332785320282e-16
	7.049117182073623e-24
	6.917498539807186e-24
	7.800661902877402e-24
	7.049742727560475e-24
	-2.902372670503426e-19
	1.381554727277561e-24
	1.222706324718300e-16
	5.034063855503007e-24
	-7.428633043060340e-19
	-7.428634226529607e-19
	8.841726839557357e-24
	1.712137941620154e-15
	-7.428629003954239e-19
	-7.428633049744522e-19
	5.876333567389182e-16
	8.846665538575709e-24
	1.442475277583129e-23
	-1.960912640655787e-14
	-7.428629036947498e-19
	-7.429321669449885e-19
	3.552831392565542e-25
	4.669054140418782e-16
	1.712137941620114e-15
	5.876332785304377e-16
	1.222706324721573e-16
	4.669054140403715e-16
	5.876333567373289e-16
	-7.428633049734151e-19
	-7.428633049724307e-19
	1.712137941615684e-15
	1.712137941637340e-15
	-1.960912640654568e-14
	5.876333601101488e-16
	-7.428633043046971e-19
	1.222706324715026e-16
	-2.902372670509788e-19
	-2.902372670491449e-19
	7.049472522432491e-24
1		1.000000000000000e-10
	4.669054128167176e-16
	4.669054140022311e-16
	5.876333600308754e-16
	5.876332551396048e-16
	5.876332785111977e-16
	7.206723229562961e-24
	7.031812210636753e-24
	7.926825993610107e-24
	7.206546871223359e-24
	-2.902371726987840e-19
	1.402770678262956e-24
	1.222706324637281e-16
	5.024531255973258e-24
	-7.428632229665472e-19
	-7.428633417985850e-19
	8.922271400212171e-24
	1.712137941532911e-15
	-7.428629730100277e-19
	-7.428632037425916e-19
	5.876333567146918e-16
	8.765859259369503e-24
	1.440132442394442e-23
	-1.960912640602113e-14
	-7.428629509420473e-19
	-7.429316382442123e-19
	3.328156239546605e-25
	4.669054140017405e-16
	1.712137941533586e-15
	5.876332785095306e-16
	1.222706324637649e-16
	4.669054140035102e-16
	5.876333567140832e-16
	-7.428632028995192e-19
	-7.428632011585456e-19
	1.712137941529069e-15
	1.712137941544326e-15
	-1.960912640600308e-14
	5.876333600331323e-16
	-7.428632230049951e-19
	1.222706324636913e-16
	-2.902371776231557e-19
	-2.902371696983935e-19
	7.204001649102717e-24
2		2.000000000000001e-10
	4.669054127927341e-16
	4.669054139088247e-16
	5.876333598786115e-16
	5.876332553127154e-16
	5.876332784867398e-16
	7.558426130875851e-24
	7.255751295212743e-24
	8.206303195380463e-24
	7.557248203286892e-24
	-2.902369558560629e-19
	1.453401263526469e-24
	1.222706324484438e-16
	5.010826178251627e-24
	-7.428630583477888e-19
	-7.428631778326860e-19
	9.084626720299968e-24
	1.712137941367309e-15
	-7.428630892947168e-19
	-7.428630282694154e-19
	5.876333566632054e-16
	8.612762482116440e-24
	1.437323283478860e-23
	-1.960912640500487e-14
	-7.428630524570073e-19
	-7.429305590116305e-19
	3.051868381548801e-25
	4.669054139075832e-16
	1.712137941368631e-15
	5.876332784850607e-16
	1.222706324486040e-16
	4.669054139111191e-16
	5.876333566627455e-16
	-7.428630249499261e-19
	-7.428630224279217e-19
	1.712137941363530e-15
	1.712137941371925e-15
	-1.960912640498193e-14
	5.876333598817704e-16
	-7.428630584079456e-19
	1.222706324482836e-16
	-2.902369627975126e-19
	-2.902369526434652e-19
	7.552369075033829e-24
3		4.000000000000002e-10
	4.669054127315736e-16
	4.669054136747778e-16
	5.876333595132486e-16
	5.876332556933073e-16
	5.876332784380319e-16
	8.459866091000831e-24
	7.790800086582278e-24
	8.922327905244516e-24
	8.457376965044709e-24
	-2.902363994957979e-19
	1.582955433994308e-24
	1.222706324122548e-16
	4.983985876204774e-24
	-7.428626874341470e-19
	-7.428628064633923e-19
	9.449663224600202e-24
	1.712137940995839e-15
	-7.428633000555240e-19
	-7.428626944838044e-19
	5.876333565394533e-16
	8.253126694104724e-24
	1.431685077331107e-23
	-1.960912640255484e-14
	-7.428632716234716e-19
	-7.429278601719411e-19
	2.494287275066729e-25
	4.669054136737221e-16
	1.712137940997268e-15
	5.876332784363944e-16
	1.222706324125931e-16
	4.669054136767260e-16
	5.876333565386608e-16
	-7.428626861266984e-19
	-7.428626833915380e-19
	1.712137940990736e-15
	1.712137940991062e-15
	-1.960912640252679e-14
	5.876333595159116e-16
	-7.428626874200477e-19
	1.222706324119166e-16
	-2.902364066094491e-19
	-2.902363971827146e-19
	8.451465375454194e-24
4		8.000000000000003e-10
	4.669054126087136e-16
	4.669054132164758e-16
	5.876333587154862e-16
	5.876332565640418e-16
	5.876332783362308e-16
	1.062179274656270e-23
	9.075422569919389e-24
	1.062904942080847e-23
	1.061867561383780e-23
	-2.902351185272263e-19
	1.872478981057182e-24
	1.222706323308580e-16
	4.930196014875695e-24
	-7.428621191312475e-19
	-7.428622284175676e-19
	1.000735500189256e-23
	1.712137940329733e-15
	-7.428634966330904e-19
	-7.428622637071622e-19
	5.876333562723068e-16
	7.511771591862438e-24
	1.420038639232985e-23
	-1.960912639684933e-14
	-7.428635320104820e-19
	-7.429214910740247e-19
	1.357908582289241e-25
	4.669054132174230e-16
	1.712137940329083e-15
	5.876332783346944e-16
	1.222706323311824e-16
	4.669054132154549e-16
	5.876333562710959e-16
	-7.428622502408984e-19
	-7.428622468804494e-19
	1.712137940321929e-15
	1.712137940317275e-15
	-1.960912639681900e-14
	5.876333587162600e-16
	-7.428621188420957e-19
	1.222706323305336e-16
	-2.902351236188025e-19
	-2.902351162390818e-19
	1.061636442736670e-23
5		1.600000000000001e-09
	4.669054124022016e-16
	4.669054124849206e-16
	5.876333571093112e-16
	5.876332587609836e-16
	5.876332781139337e-16
	1.554890215129913e-23
	1.228992357700641e-23
	1.450268414768479e-23
	1.554643263574986e-23
	-2.902323650121883e-19
	2.450818425066330e-24
	1.222706321550410e-16
	4.813475119959256e-24
	-7.428617191200058e-19
	-7.428617931077973e-19
	1.038528975151242e-23
	1.712137939322203e-15
	-7.428633337765128e-19
	-7.428619293447046e-19
	5.876333557201971e-16
	6.136137953671018e-24
	1.395678406091733e-23
	-1.960912638374218e-14
	-7.428634309173653e-19
	-7.429072269078585e-19
	-9.388434544342794e-26
	4.669054124874282e-16
	1.712137939318770e-15
	5.876332781125377e-16
	1.222706321552815e-16
	4.669054124814548e-16
	5.876333557189182e-16
	-7.428619157506809e-19
	-7.428619111317405e-19
	1.712137939313988e-15
	1.712137939308290e-15
	-1.960912638371174e-14
	5.876333571080939e-16
	-7.428617186995564e-19
	1.222706321548005e-16
	-2.902323684869185e-19
	-2.902323618807728e-19
	1.555003858535972e-23
6		3.200000000000001e-09
	4.669054119862764e-16
	4.669054111216321e-16
	5.876333539418428e-16
	5.876332641983045e-16
	5.876332776245482e-16
	2.618131358155888e-23
	2.022505534814005e-23
	2.310421619586513e-23
	2.617976596939108e-23
	-2.902264230435367e-19
	3.525545265229014e-24
	1.222706317787283e-16
	4.557228643255410e-24
	-7.428616627591253e-19
	-7.428616815444640e-19
	1.031814237945034e-23
	1.712137937440910e-15
	-7.428625386782702e-19
	-7.428616431741580e-19
	5.876333545466841e-16
	3.578196397559062e-24
	1.343903337610602e-23
	-1.960912635420806e-14
	-7.428625963021332e-19
	-7.428771160172601e-19
	-5.491759733328085e-25
	4.669054111225587e-16
	1.712137937438462e-15
	5.876332776231511e-16
	1.222706317789418e-16
	4.669054111199039e-16
	5.876333545456468e-16
	-7.428616350802028e-19
	-7.428616308116408e-19
	1.712137937437240e-15
	1.712137937430815e-15
	-1.960912635417634e-14
	5.876333539398168e-16
	-7.428616627982954e-19
	1.222706317785148e-16
	-2.902264277469865e-19
	-2.902264200532564e-19
	2.618864459686959e-23
7		6.400000000000003e-09
	4.669054108999439e-16
	4.669054078593138e-16
	5.876333477611624e-16
	5.876332768586379e-16
	5.876332765596850e-16
	4.776095370753103e-23
	3.894956983313990e-23
	4.181441838908070e-23
	4.775952087398428e-23
	-2.902135351126198e-19
	5.235565264005766e-24
	1.222706309668779e-16
	4.005967169964437e-24
	-7.428610260902722e-19
	-7.428610611870989e-19
	1.032427111593253e-23
	1.712137932733922e-15
	-7.428611802497033e-19
	-7.428607293947406e-19
	5.876333519376459e-16
	-1.193526161142204e-24
	1.232844860329563e-23
	-1.960912628933975e-14
	-7.428611691216075e-19
	-7.428192861951378e-19
	-1.408235799485056e-24
	4.669054078578183e-16
	1.712137932734195e-15
	5.876332765581830e-16
	1.222706309670899e-16
	4.669054078598851e-16
	5.876333519369598e-16
	-7.428607264154870e-19
	-7.428607237011867e-19
	1.712137932735637e-15
	1.712137932724635e-15
	-1.960912628930507e-14
	5.876333477583381e-16
	-7.428610266836633e-19
	1.222706309666658e-16
	-2.902135417588229e-19
	-2.902135324712163e-19
	4.777339888244660e-23
8		1.280000000000001e-08
	4.669054079952217e-16
	4.669054003687119e-16
	5.876333359425802e-16
	5.876333040196355e-16
	5.876332741919967e-16
	8.909975128062491e-23
	7.961219524537404e-23
	8.095628789191082e-23
	8.909794015491099e-23
	-2.901867624902592e-19
	6.815670907015587e-24
	1.222706291741463e-16
	2.807460262993016e-24
	-7.428586494685990e-19
	-7.428589541849859e-19
	1.033202971548084e-23
	1.712137921241113e-15
	-7.428589050044937e-19
	-7.428583700244163e-19
	5.876333458197728e-16
	-9.272103373647904e-24
	9.870894107538097e-24
	-1.960912615035448e-14
	-7.428588925467378e-19
	-7.427266850989293e-19
	-2.897785713681282e-24
	4.669054003661112e-16
	1.712137921241659e-15
	5.876332741904362e-16
	1.222706291743065e-16
	4.669054003685360e-16
	5.876333458197197e-16
	-7.428583690775798e-19
	-7.428583671642243e-19
	1.712137921245059e-15
	1.712137921226379e-15
	-1.960912615031830e-14
	5.876333359383518e-16
	-7.428586500274874e-19
	1.222706291739861e-16
	-2.901867690871530e-19
	-2.901867602249373e-19
	8.911206913914312e-23
9		2.280000000000001e-08
	4.669054019554988e-16
	4.669053878939074e-16
	5.876333178574361e-16
	5.876333446773903e-16
	5.876332699107460e-16
	1.486730129320637e-22
	1.410085815168488e-22
	1.415614062014567e-22
	1.486711435803696e-22
	-2.901459596701741e-19
	5.645339867479318e-24
	1.222706259706337e-16
	7.154678503971908e-25
	-7.428552178394835e-19
	-7.428559940256820e-19
	8.155874591487134e-24
	1.712137900331285e-15
	-7.428558027370089e-19
	-7.428551892709217e-19
	5.876333339619484e-16
	-1.896678997346722e-23
	5.415057537548805e-24
	-1.960912592166872e-14
	-7.428558065635030e-19
	-7.426444964665070e-19
	-4.703973118768722e-24
	4.669053878901652e-16
	1.712137900331274e-15
	5.876332699091325e-16
	1.222706259706909e-16
	4.669053878921107e-16
	5.876333339628524e-16
	-7.428551900643310e-19
	-7.428551891345212e-19
	1.712137900335738e-15
	1.712137900312717e-15
	-1.960912592163526e-14
	5.876333178525779e-16
	-7.428552178966206e-19
	1.222706259705766e-16
	-2.901459636287349e-19
	-2.901459586809846e-19
	1.486777199282148e-22
10		3.280000000000002e-08
	4.669053939458057e-16
	4.669053745744579e-16
	5.876332995844309e-16
	5.876333801399089e-16
	5.876332649354444e-16
	2.024811377809387e-22
	1.954228853415226e-22
	1.985089646377598e-22
	2.024797378390858e-22
	-2.901083928685449e-19
	1.495969237620155e-24
	1.222706223004866e-16
	-1.607846732082990e-24
	-7.428536596329826e-19
	-7.428546818473483e-19
	2.390322554185456e-24
	1.712137875699092e-15
	-7.428543127666338e-19
	-7.428538390350583e-19
	5.876333192502181e-16
	-2.609293650715779e-23
	2.290817030318340e-25
	-1.960912568285611e-14
	-7.428543179051734e-19
	-7.426313733459844e-19
	-5.845388797403050e-24
	4.669053745692337e-16
	1.712137875699000e-15
	5.876332649338259e-16
	1.222706223004701e-16
	4.669053745720790e-16
	5.876333192517634e-16
	-7.428538411076961e-19
	-7.428538416136526e-19
	1.712137875704138e-15
	1.712137875680638e-15
	-1.960912568282574e-14
	5.876332995795986e-16
	-7.428536592741785e-19
	1.222706223005032e-16
	-2.901083926118535e-19
	-2.901083934018531e-19
	2.024795924344653e-22
11		4.280000000000003e-08
	4.669053834520329e-16
	4.669053598106417e-16
	5.876332808238845e-16
	5.876334085654342e-16
	5.876332592571437e-16
	2.498045292052465e-22
	2.409883900682574e-22
	2.490628792358537e-22
	2.498039689086512e-22
	-2.900759414680999e-19
	-4.183859937328489e-24
	1.222706181827240e-16
	-4.114781706458298e-24
	-7.428557608755412e-19
	-7.428566792784184e-19
	-8.262379786196319e-24
	1.712137845965175e-15
	-7.428563046278395e-19
	-7.428560333121591e-19
	5.876333015497761e-16
	-3.150041476791362e-23
	-5.649417493297440e-24
	-1.960912543488281e-14
	-7.428563077663777e-19
	-7.426772176288074e-19
	-6.204294704107461e-24
	4.669053598038007e-16
	1.712137845965127e-15
	5.876332592555913e-16
	1.222706181826659e-16
	4.669053598083890e-16
	5.876333015515723e-16
	-7.428560356204850e-19
	-7.428560375129146e-19
	1.712137845970985e-15
	1.712137845947766e-15
	-1.960912543485376e-14
	5.876332808192967e-16
	-7.428557603306679e-19
	1.222706181827821e-16
	-2.900759362925396e-19
	-2.900759433641987e-19
	2.498012305957343e-22
12		5.280000000000004e-08
	4.669053699786663e-16
	4.669053428228582e-16
	5.876332612800874e-16
	5.876334289952157e-16
	5.876332529276731e-16
	2.896013420581570e-22
	2.776069400093907e-22
	2.911642657412917e-22
	2.896017770916235e-22
	-2.900500262592715e-19
	-9.822153154998001e-24
	1.222706136855118e-16
	-6.722747329560426e-24
	-7.428633417625493e-19
	-7.428638264039857e-19
	-2.484096385365479e-23
	1.712137809605550e-15
	-7.428637057381610e-19
	-7.428635991168165e-19
	5.876332809810829e-16
	-3.642729841218317e-23
	-1.211996946699189e-23
	-1.960912517875733e-14
	-7.428637085751047e-19
	-7.427615244864073e-19
	-5.776738691922161e-24
	4.669053428144621e-16
	1.712137809605527e-15
	5.876332529261927e-16
	1.222706136854312e-16
	4.669053428210233e-16
	5.876332809828538e-16
	-7.428636008172430e-19
	-7.428636037048949e-19
	1.712137809611762e-15
	1.712137809588860e-15
	-1.960912517872816e-14
	5.876332612761102e-16
	-7.428633412478408e-19
	1.222706136855923e-16
	-2.900500166477724e-19
	-2.900500291322465e-19
	2.895994791519251e-22
13		6.280000000000005e-08
	4.669053531166143e-16
	4.669053229905910e-16
	5.876332404813489e-16
	5.876334407160324e-16
	5.876332460102978e-16
	3.208011832849392e-22
	3.056297057693583e-22
	3.236103444673903e-22
	3.208025493131662e-22
	-2.900314873104961e-19
	-1.424486930010056e-23
	1.222706088861204e-16
	-9.342740172542585e-24
	-7.428777602168410e-19
	-7.428775861774963e-19
	-4.764727292066693e-23
	1.712137765390277e-15
	-7.428779584402524e-19
	-7.428779376409019e-19
	5.876332577617966e-16
	-4.230435803307023e-23
	-1.908479273774853e-23
	-1.960912491545950e-14
	-7.428779625046747e-19
	-7.428605860975313e-19
	-4.706398713426366e-24
	4.669053229809107e-16
	1.712137765390264e-15
	5.876332460088703e-16
	1.222706088860211e-16
	4.669053229890672e-16
	5.876332577633947e-16
	-7.428779385074746e-19
	-7.428779419223389e-19
	1.712137765396177e-15
	1.712137765373807e-15
	-1.960912491542990e-14
	5.876332404783842e-16
	-7.428777598619929e-19
	1.222706088862198e-16
	-2.900314747061702e-19
	-2.900314907065120e-19
	3.208014852754960e-22
14		7.280000000000006e-08
	4.669053326135679e-16
	4.669053001131526e-16
	5.876332179296821e-16
	5.876334431108253e-16
	5.876332385709605e-16
	3.427239215961219e-22
	3.252725846731810e-22
	3.460300630580349e-22
	3.427259975803509e-22
	-2.900205799565556e-19
	-1.694754643120968e-23
	1.222706038621411e-16
	-1.188600086040054e-23
	-7.428995393034272e-19
	-7.428986103648655e-19
	-7.594545494339739e-23
	1.712137712744782e-15
	-7.428996379768962e-19
	-7.428996176462801e-19
	5.876332321576577e-16
	-5.034604047511220e-23
	-2.645467854543291e-23
	-1.960912464565428e-14
	-7.428996436850962e-19
	-7.429537542900925e-19
	-3.235761601659488e-24
	4.669053001026773e-16
	1.712137712744769e-15
	5.876332385695704e-16
	1.222706038620250e-16
	4.669053001115534e-16
	5.876332321589973e-16
	-7.428996180469345e-19
	-7.428996215977683e-19
	1.712137712749729e-15
	1.712137712728146e-15
	-1.960912464562457e-14
	5.876332179278408e-16
	-7.428995391467416e-19
	1.222706038622572e-16
	-2.900205662173637e-19
	-2.900205834908291e-19
	3.427255881007264e-22
15		8.280000000000007e-08
	4.669053084254834e-16
	4.669052744958941e-16
	5.876331934035641e-16
	5.876334358502698e-16
	5.876332306953414e-16
	3.553150492263600e-22
	3.366827669463171e-22
	3.587251776604372e-22
	3.553175455014930e-22
	-2.900170582591115e-19
	-1.808790961103509e-23
	1.222705987038817e-16
	-1.425681892095990e-23
	-7.429282408808457e-19
	-7.429265739243974e-19
	-1.079573878037915e-22
	1.712137651909923e-15
	-7.429283232070758e-19
	-7.429282308816313e-19
	5.876332045169513e-16
	-6.113696343509526e-23
	-3.411422551328917e-23
	-1.960912436946456e-14
	-7.429283301502338e-19
	-7.430274669849704e-19
	-1.615289772748820e-24
	4.669052744852748e-16
	1.712137651909908e-15
	5.876332306939981e-16
	1.222705987037580e-16
	4.669052744937818e-16
	5.876332045179485e-16
	-7.429282315188881e-19
	-7.429282349543943e-19
	1.712137651913651e-15
	1.712137651892853e-15
	-1.960912436943515e-14
	5.876331934025620e-16
	-7.429282409008441e-19
	1.222705987040053e-16
	-2.900170451122427e-19
	-2.900170616831321e-19
	3.553170230463809e-22
16		9.280000000000008e-08
	4.669052807350587e-16
	4.669052468469824e-16
	5.876331671562354e-16
	5.876334191055169e-16
	5.876332225130972e-16
	3.591371951814773e-22
	3.402144178113613e-22
	3.624735777850089e-22
	3.591398281877548e-22
	-2.900202895087280e-19
	-1.826260399611365e-23
	1.222705935322942e-16
	-1.634183957809061e-23
	-7.429625823076115e-19
	-7.429602760569778e-19
	-1.411220495181170e-22
	1.712137583865363e-15
	-7.429627235659929e-19
	-7.429625071768279e-19
	5.876331753164449e-16
	-7.443644682719817e-23
	-4.188857836787359e-23
	-1.960912408642500e-14
	-7.429627309825626e-19
	-7.430765830287685e-19
	-2.881462326201889e-26
	4.669052468369298e-16
	1.712137583865343e-15
	5.876332225118224e-16
	1.222705935321822e-16
	4.669052468440981e-16
	5.876331753169989e-16
	-7.429625087509314e-19
	-7.429625119541296e-19
	1.712137583868005e-15
	1.712137583847686e-15
	-1.960912408639602e-14
	5.876331671555628e-16
	-7.429625824578731e-19
	1.222705935324063e-16
	-2.900202781808913e-19
	-2.900202927058715e-19
	3.591388526114326e-22
17		1.028000000000001e-07
	4.669052499353131e-16
	4.669052180485131e-16
	5.876331398929311e-16
	5.876333935900515e-16
	5.876332142082769e-16
	3.552039996650874e-22
	3.365838167061356e-22
	3.583570896947771e-22
	3.552065385120754e-22
	-2.900293661707774e-19
	-1.819049535029335e-23
	1.222705885060705e-16
	-1.800722838839837e-23
	-7.430007302355856e-19
	-7.429979334551422e-19
	-1.725213257375924e-22
	1.712137510077045e-15
	-7.430009852379945e-19
	-7.430006142357888e-19
	5.876331451724431e-16
	-8.926518530760425e-23
	-4.953506346102434e-23
	-1.960912379559732e-14
	-7.430009923753243e-19
	-7.431033537216950e-19
	1.434776614454157e-24
	4.669052180396898e-16
	1.712137510077021e-15
	5.876332142070891e-16
	1.222705885059949e-16
	4.669052180449103e-16
	5.876331451724505e-16
	-7.430006171696107e-19
	-7.430006201124064e-19
	1.712137510078976e-15
	1.712137510058709e-15
	-1.960912379556868e-14
	5.876331398921277e-16
	-7.430007304675852e-19
	1.222705885061461e-16
	-2.900293572505676e-19
	-2.900293691115005e-19
	3.552052065892640e-22
18		1.128000000000001e-07
	4.669052165842516e-16
