             * c:\users\aditya\esim-workspace\sn74f521\sn74f521.cir
             Transient Analysis  Sat Aug 24 18:39:37  2024
--------------------------------------------------------------------------------
Index   time            v1#branch       v2#branch       v3#branch       
--------------------------------------------------------------------------------
0	0.000000e+00	0.000000e+00	-6.78603e-10	0.000000e+00	
1	1.000000e-05	6.281034e-14	6.005575e-06	-5.36546e-07	
2	2.000000e-05	-1.62565e-13	6.285877e-06	-5.38510e-07	
3	4.000000e-05	4.051283e-13	6.341221e-06	-5.33183e-07	
4	6.278409e-05	-6.90243e-13	6.033608e-06	-5.49053e-07	
5	8.518935e-05	8.446395e-13	2.326380e-06	-7.08203e-07	
6	1.090930e-04	-1.18049e-12	-3.10174e-05	-8.21393e-07	
7	1.459467e-04	1.564965e-12	-1.82180e-04	-8.54707e-07	
8	1.828959e-04	-2.09192e-12	-4.41438e-04	-9.52416e-07	
9	2.279139e-04	-9.43432e-12	-9.00957e-04	-1.00710e-06	
10	2.686554e-04	7.674194e-12	-1.50752e-03	-1.12328e-06	
11	3.192016e-04	2.004714e-11	-2.73441e-03	-1.13851e-06	
12	3.723533e-04	-1.41730e-07	-3.32819e-03	-4.49310e-07	
13	4.086670e-04	5.059834e-07	-1.81101e-03	-1.59517e-06	
14	4.183705e-04	-1.15133e-06	-2.26068e-03	6.174604e-07	
15	4.245017e-04	1.015138e-06	-1.93132e-03	-2.75519e-06	
16	4.276930e-04	-2.81410e-07	-1.97488e-03	1.200440e-06	
17	4.301193e-04	-1.53555e-07	-1.98503e-03	-2.83090e-06	
18	4.327872e-04	2.173149e-07	-1.90667e-03	1.141273e-06	
19	4.355801e-04	-2.44868e-07	-1.94615e-03	-2.81566e-06	
20	4.384799e-04	2.562451e-07	-1.85709e-03	1.144473e-06	
21	4.415579e-04	-2.61105e-07	-1.89990e-03	-2.80878e-06	
22	4.451035e-04	2.620111e-07	-1.80357e-03	1.142210e-06	
23	4.492338e-04	-2.60936e-07	-1.84033e-03	-2.79652e-06	
24	4.543624e-04	2.590533e-07	-1.73194e-03	1.139114e-06	
25	4.608791e-04	-2.56984e-07	-1.75230e-03	-2.78323e-06	
26	4.694564e-04	2.551140e-07	-1.61993e-03	1.139932e-06	
27	4.822079e-04	-2.53716e-07	-1.59856e-03	-2.76957e-06	
28	5.027095e-04	2.527934e-07	-1.38942e-03	1.148632e-06	
29	5.400534e-04	-2.52270e-07	-1.22344e-03	-2.75129e-06	
30	6.147410e-04	2.520040e-07	-7.50046e-04	1.169399e-06	
31	7.548874e-04	-2.51861e-07	-2.86319e-04	-2.72563e-06	
32	1.000000e-03	2.517790e-07	3.215212e-05	1.348554e-06	
33	1.007907e-03	6.396288e-10	-5.13958e-06	-2.41542e-09	
34	1.015644e-03	-7.27704e-10	-4.87992e-06	1.344381e-09	
35	1.024307e-03	7.968637e-10	-5.01386e-06	-6.78133e-10	
36	1.041633e-03	-8.28285e-10	-4.93472e-06	4.211940e-10	
37	1.076284e-03	8.428348e-10	-4.99475e-06	-3.06154e-10	
38	1.145586e-03	-8.50949e-10	-4.94273e-06	2.543124e-10	
39	1.284192e-03	8.542240e-10	-4.99106e-06	-2.27485e-10	
40	1.561402e-03	-8.56223e-10	-4.94453e-06	2.150872e-10	
41	2.115823e-03	8.570360e-10	-4.99016e-06	-2.08527e-10	
42	3.145735e-03	-8.57570e-10	-4.94496e-06	2.052215e-10	
43	5.073800e-03	8.578043e-10	-4.98991e-06	-2.03348e-10	
44	8.339387e-03	-8.57972e-10	-4.94508e-06	2.023073e-10	
45	1.218653e-02	8.580924e-10	-4.98981e-06	-2.01377e-10	
46	1.759057e-02	-8.58193e-10	-4.94514e-06	2.007468e-10	
47	2.533480e-02	8.582540e-10	-4.98975e-06	-2.00289e-10	
48	3.533480e-02	-8.58304e-10	-4.94518e-06	1.999395e-10	
49	4.533480e-02	8.583526e-10	-4.98972e-06	-1.99587e-10	
50	5.533480e-02	-8.58406e-10	-4.94521e-06	1.992449e-10	
51	6.533480e-02	8.584527e-10	-4.98969e-06	-1.98888e-10	
52	7.533480e-02	-8.58506e-10	-4.94524e-06	1.985470e-10	
53	8.533480e-02	8.585529e-10	-4.98966e-06	-1.98191e-10	
54	9.533480e-02	-8.58606e-10	-4.94527e-06	1.978494e-10	

Index   time            v1#branch       v2#branch       v3#branch       
--------------------------------------------------------------------------------
55	1.053348e-01	8.586530e-10	-4.98962e-06	-1.97493e-10	
56	1.153348e-01	-8.58706e-10	-4.94530e-06	1.971523e-10	
57	1.253348e-01	8.587531e-10	-4.98959e-06	-1.96796e-10	
58	1.353348e-01	-8.58807e-10	-4.94533e-06	1.964555e-10	
59	1.453348e-01	8.588532e-10	-4.98956e-06	-1.96100e-10	
60	1.553348e-01	-8.58907e-10	-4.94536e-06	1.957591e-10	
61	1.653348e-01	8.589533e-10	-4.98953e-06	-1.95404e-10	
62	1.753348e-01	-8.59007e-10	-4.94540e-06	1.950630e-10	
63	1.853348e-01	8.590534e-10	-4.98950e-06	-1.94708e-10	
64	1.953348e-01	-8.59107e-10	-4.94543e-06	1.943674e-10	
65	2.053348e-01	8.591535e-10	-4.98946e-06	-1.94012e-10	
66	2.153348e-01	-8.59207e-10	-4.94546e-06	1.936721e-10	
67	2.253348e-01	8.592535e-10	-4.98943e-06	-1.93317e-10	
68	2.353348e-01	-8.59307e-10	-4.94549e-06	1.929772e-10	
69	2.453348e-01	8.593535e-10	-4.98940e-06	-1.92623e-10	
70	2.553348e-01	-8.59407e-10	-4.94552e-06	1.922827e-10	
71	2.653348e-01	8.594535e-10	-4.98937e-06	-1.91928e-10	
72	2.753348e-01	-8.59507e-10	-4.94555e-06	1.915885e-10	
73	2.853348e-01	8.595535e-10	-4.98934e-06	-1.91234e-10	
74	2.953348e-01	-8.59607e-10	-4.94558e-06	1.908947e-10	
75	3.053348e-01	8.596535e-10	-4.98931e-06	-1.90541e-10	
76	3.153348e-01	-8.59707e-10	-4.94562e-06	1.902013e-10	
77	3.253348e-01	8.597534e-10	-4.98928e-06	-1.89847e-10	
78	3.353348e-01	-8.59807e-10	-4.94565e-06	1.895083e-10	
79	3.453348e-01	8.598533e-10	-4.98924e-06	-1.89155e-10	
80	3.553348e-01	-8.59907e-10	-4.94568e-06	1.888157e-10	
81	3.653348e-01	8.599533e-10	-4.98921e-06	-1.88462e-10	
82	3.753348e-01	-8.60007e-10	-4.94571e-06	1.881234e-10	
83	3.853348e-01	8.600531e-10	-4.98918e-06	-1.87770e-10	
84	3.953348e-01	-8.60106e-10	-4.94574e-06	1.874315e-10	
85	4.053348e-01	8.601530e-10	-4.98915e-06	-1.87078e-10	
86	4.153348e-01	-8.60206e-10	-4.94577e-06	1.867400e-10	
87	4.253348e-01	8.602529e-10	-4.98912e-06	-1.86387e-10	
88	4.353348e-01	-8.60306e-10	-4.94580e-06	1.860488e-10	
89	4.453348e-01	8.603527e-10	-4.98909e-06	-1.85696e-10	
90	4.553348e-01	-8.60406e-10	-4.94583e-06	1.853580e-10	
91	4.653348e-01	8.604526e-10	-4.98906e-06	-1.85005e-10	
92	4.753348e-01	-8.60506e-10	-4.94587e-06	1.846676e-10	
93	4.853348e-01	8.605524e-10	-4.98902e-06	-1.84315e-10	
94	4.953348e-01	-8.60606e-10	-4.94590e-06	1.839776e-10	
95	5.053348e-01	8.606522e-10	-4.98899e-06	-1.83625e-10	
96	5.153348e-01	-8.60705e-10	-4.94593e-06	1.832880e-10	
97	5.253348e-01	8.607520e-10	-4.98896e-06	-1.82936e-10	
98	5.353348e-01	-8.60805e-10	-4.94596e-06	1.825987e-10	
99	5.453348e-01	8.608517e-10	-4.98893e-06	-1.82247e-10	
100	5.553348e-01	-8.60905e-10	-4.94599e-06	1.819098e-10	
101	5.653348e-01	8.609515e-10	-4.98890e-06	-1.81558e-10	
102	5.753348e-01	-8.61005e-10	-4.94602e-06	1.812212e-10	
103	5.853348e-01	8.610512e-10	-4.98887e-06	-1.80870e-10	
104	5.953348e-01	-8.61104e-10	-4.94605e-06	1.805331e-10	
105	6.053348e-01	8.611509e-10	-4.98884e-06	-1.80182e-10	
106	6.153348e-01	-8.61204e-10	-4.94608e-06	1.798453e-10	
107	6.253348e-01	8.612506e-10	-4.98881e-06	-1.79494e-10	
108	6.353348e-01	-8.61304e-10	-4.94611e-06	1.791578e-10	
109	6.453348e-01	8.613503e-10	-4.98878e-06	-1.78807e-10	
110	6.553348e-01	-8.61404e-10	-4.94615e-06	1.784708e-10	
111	6.653348e-01	8.614500e-10	-4.98874e-06	-1.78120e-10	
112	6.753348e-01	-8.61503e-10	-4.94618e-06	1.777841e-10	

Index   time            v1#branch       v2#branch       v3#branch       
--------------------------------------------------------------------------------
113	6.853348e-01	8.615496e-10	-4.98871e-06	-1.77434e-10	
114	6.953348e-01	-8.61603e-10	-4.94621e-06	1.770978e-10	
115	7.053348e-01	8.616493e-10	-4.98868e-06	-1.76748e-10	
116	7.153348e-01	-8.61702e-10	-4.94624e-06	1.764119e-10	
117	7.253348e-01	8.617489e-10	-4.98865e-06	-1.76062e-10	
118	7.353348e-01	-8.61802e-10	-4.94627e-06	1.757263e-10	
119	7.453348e-01	8.618485e-10	-4.98862e-06	-1.75376e-10	
120	7.553348e-01	-8.61902e-10	-4.94630e-06	1.750411e-10	
121	7.653348e-01	8.619481e-10	-4.98859e-06	-1.74691e-10	
122	7.753348e-01	-8.62001e-10	-4.94633e-06	1.743563e-10	
123	7.853348e-01	8.620476e-10	-4.98856e-06	-1.74007e-10	
124	7.953348e-01	-8.62101e-10	-4.94636e-06	1.736719e-10	
125	8.053348e-01	8.621472e-10	-4.98853e-06	-1.73322e-10	
126	8.153348e-01	-8.62200e-10	-4.94639e-06	1.729878e-10	
127	8.253348e-01	8.622467e-10	-4.98850e-06	-1.72639e-10	
128	8.353348e-01	-8.62300e-10	-4.94642e-06	1.723041e-10	
129	8.453348e-01	8.623462e-10	-4.98847e-06	-1.71955e-10	
130	8.553348e-01	-8.62399e-10	-4.94645e-06	1.716207e-10	
131	8.653348e-01	8.624457e-10	-4.98844e-06	-1.71272e-10	
132	8.753348e-01	-8.62499e-10	-4.94648e-06	1.709377e-10	
133	8.853348e-01	8.625452e-10	-4.98841e-06	-1.70589e-10	
134	8.953348e-01	-8.62598e-10	-4.94652e-06	1.702551e-10	
135	9.053348e-01	8.626447e-10	-4.98837e-06	-1.69907e-10	
136	9.153348e-01	-8.62698e-10	-4.94655e-06	1.695729e-10	
137	9.253348e-01	8.627441e-10	-4.98834e-06	-1.69225e-10	
138	9.353348e-01	-8.62797e-10	-4.94658e-06	1.688910e-10	
139	9.453348e-01	8.628436e-10	-4.98831e-06	-1.68543e-10	
140	9.553348e-01	-8.62897e-10	-4.94661e-06	1.682095e-10	
141	9.653348e-01	8.629430e-10	-4.98828e-06	-1.67862e-10	
142	9.753348e-01	-8.62996e-10	-4.94664e-06	1.675284e-10	
143	9.853348e-01	8.630424e-10	-4.98825e-06	-1.67181e-10	
144	9.953348e-01	-8.63095e-10	-4.94667e-06	1.668477e-10	
145	1.005335e+00	8.631418e-10	-4.98822e-06	-1.66500e-10	
146	1.015335e+00	-8.63195e-10	-4.94670e-06	1.661673e-10	
147	1.025335e+00	8.632411e-10	-4.98819e-06	-1.65820e-10	
148	1.035335e+00	-8.63294e-10	-4.94673e-06	1.654872e-10	
149	1.045335e+00	8.633405e-10	-4.98816e-06	-1.65140e-10	
150	1.055335e+00	-8.63394e-10	-4.94676e-06	1.648076e-10	
151	1.065335e+00	8.634398e-10	-4.98813e-06	-1.64461e-10	
152	1.075335e+00	-8.63493e-10	-4.94679e-06	1.641283e-10	
153	1.085335e+00	8.635391e-10	-4.98810e-06	-1.63782e-10	
154	1.095335e+00	-8.63592e-10	-4.94682e-06	1.634494e-10	
155	1.105335e+00	8.636384e-10	-4.98807e-06	-1.63103e-10	
156	1.115335e+00	-8.63691e-10	-4.94685e-06	1.627708e-10	
157	1.125335e+00	8.637377e-10	-4.98804e-06	-1.62424e-10	
158	1.135335e+00	-8.63791e-10	-4.94688e-06	1.620926e-10	
159	1.145335e+00	8.638370e-10	-4.98801e-06	-1.61746e-10	
160	1.155335e+00	-8.63890e-10	-4.94691e-06	1.614148e-10	
161	1.165335e+00	8.639362e-10	-4.98798e-06	-1.61069e-10	
162	1.175335e+00	-8.63989e-10	-4.94694e-06	1.607373e-10	
163	1.185335e+00	8.640355e-10	-4.98795e-06	-1.60392e-10	
164	1.195335e+00	-8.64088e-10	-4.94697e-06	1.600602e-10	
165	1.205335e+00	8.641347e-10	-4.98792e-06	-1.59715e-10	
166	1.215335e+00	-8.64188e-10	-4.94700e-06	1.593835e-10	
167	1.225335e+00	8.642339e-10	-4.98789e-06	-1.59038e-10	
168	1.235335e+00	-8.64287e-10	-4.94703e-06	1.587072e-10	
169	1.245335e+00	8.643331e-10	-4.98786e-06	-1.58362e-10	
170	1.255335e+00	-8.64386e-10	-4.94706e-06	1.580312e-10	

Index   time            v1#branch       v2#branch       v3#branch       
--------------------------------------------------------------------------------
171	1.265335e+00	8.644323e-10	-4.98783e-06	-1.57686e-10	
172	1.275335e+00	-8.64485e-10	-4.94709e-06	1.573555e-10	
173	1.285335e+00	8.645314e-10	-4.98780e-06	-1.57011e-10	
174	1.295335e+00	-8.64584e-10	-4.94712e-06	1.566803e-10	
175	1.305335e+00	8.646306e-10	-4.98777e-06	-1.56336e-10	
176	1.315335e+00	-8.64683e-10	-4.94715e-06	1.560054e-10	
177	1.325335e+00	8.647297e-10	-4.98774e-06	-1.55661e-10	
178	1.335335e+00	-8.64783e-10	-4.94718e-06	1.553308e-10	
179	1.345335e+00	8.648288e-10	-4.98771e-06	-1.54987e-10	
180	1.355335e+00	-8.64882e-10	-4.94721e-06	1.546567e-10	
181	1.365335e+00	8.649279e-10	-4.98768e-06	-1.54313e-10	
182	1.375335e+00	-8.64981e-10	-4.94724e-06	1.539828e-10	
183	1.385335e+00	8.650270e-10	-4.98765e-06	-1.53639e-10	
184	1.395335e+00	-8.65080e-10	-4.94727e-06	1.533094e-10	
185	1.405335e+00	8.651260e-10	-4.98762e-06	-1.52966e-10	
186	1.415335e+00	-8.65179e-10	-4.94730e-06	1.526363e-10	
187	1.425335e+00	8.652251e-10	-4.98759e-06	-1.52293e-10	
188	1.435335e+00	-8.65278e-10	-4.94733e-06	1.519636e-10	
189	1.445335e+00	8.653241e-10	-4.98756e-06	-1.51620e-10	
190	1.455335e+00	-8.65377e-10	-4.94736e-06	1.512912e-10	
191	1.465335e+00	8.654231e-10	-4.98753e-06	-1.50948e-10	
192	1.475335e+00	-8.65476e-10	-4.94739e-06	1.506193e-10	
193	1.485335e+00	8.655221e-10	-4.98750e-06	-1.50276e-10	
194	1.495335e+00	-8.65575e-10	-4.94742e-06	1.499476e-10	
195	1.505335e+00	8.656211e-10	-4.98747e-06	-1.49605e-10	
196	1.515335e+00	-8.65674e-10	-4.94745e-06	1.492764e-10	
197	1.525335e+00	8.657200e-10	-4.98744e-06	-1.48934e-10	
198	1.535335e+00	-8.65773e-10	-4.94748e-06	1.486054e-10	
199	1.545335e+00	8.658190e-10	-4.98741e-06	-1.48263e-10	
200	1.555335e+00	-8.65872e-10	-4.94751e-06	1.479349e-10	
201	1.565335e+00	8.659179e-10	-4.98738e-06	-1.47593e-10	
202	1.575335e+00	-8.65971e-10	-4.94754e-06	1.472647e-10	
203	1.585335e+00	8.660168e-10	-4.98735e-06	-1.46923e-10	
204	1.595335e+00	-8.66070e-10	-4.94757e-06	1.465949e-10	
205	1.605335e+00	8.661157e-10	-4.98732e-06	-1.46253e-10	
206	1.615335e+00	-8.66168e-10	-4.94760e-06	1.459254e-10	
207	1.625335e+00	8.662146e-10	-4.98729e-06	-1.45584e-10	
208	1.635335e+00	-8.66267e-10	-4.94763e-06	1.452563e-10	
209	1.645335e+00	8.663134e-10	-4.98726e-06	-1.44915e-10	
210	1.655335e+00	-8.66366e-10	-4.94766e-06	1.445876e-10	
211	1.665335e+00	8.664123e-10	-4.98723e-06	-1.44246e-10	
212	1.675335e+00	-8.66465e-10	-4.94769e-06	1.439192e-10	
213	1.685335e+00	8.665111e-10	-4.98720e-06	-1.43578e-10	
214	1.695335e+00	-8.66564e-10	-4.94772e-06	1.432512e-10	
215	1.705335e+00	8.666099e-10	-4.98717e-06	-1.42910e-10	
216	1.715335e+00	-8.66663e-10	-4.94775e-06	1.425836e-10	
217	1.725335e+00	8.667087e-10	-4.98714e-06	-1.42243e-10	
218	1.735335e+00	-8.66761e-10	-4.94778e-06	1.419163e-10	
219	1.745335e+00	8.668075e-10	-4.98711e-06	-1.41576e-10	
220	1.755335e+00	-8.66860e-10	-4.94781e-06	1.412493e-10	
221	1.765335e+00	8.669063e-10	-4.98708e-06	-1.40909e-10	
222	1.775335e+00	-8.66959e-10	-4.94784e-06	1.405827e-10	
223	1.785335e+00	8.670050e-10	-4.98705e-06	-1.40243e-10	
224	1.795335e+00	-8.67058e-10	-4.94787e-06	1.399165e-10	
225	1.805335e+00	8.671038e-10	-4.98702e-06	-1.39576e-10	
226	1.815335e+00	-8.67156e-10	-4.94790e-06	1.392507e-10	
227	1.825335e+00	8.672025e-10	-4.98699e-06	-1.38911e-10	
228	1.835335e+00	-8.67255e-10	-4.94793e-06	1.385852e-10	

Index   time            v1#branch       v2#branch       v3#branch       
--------------------------------------------------------------------------------
229	1.845335e+00	8.673012e-10	-4.98696e-06	-1.38245e-10	
230	1.855335e+00	-8.67354e-10	-4.94796e-06	1.379200e-10	
231	1.865335e+00	8.673999e-10	-4.98693e-06	-1.37581e-10	
232	1.875335e+00	-8.67453e-10	-4.94799e-06	1.372553e-10	
233	1.885335e+00	8.674985e-10	-4.98690e-06	-1.36916e-10	
234	1.895335e+00	-8.67551e-10	-4.94802e-06	1.365908e-10	
235	1.905335e+00	8.675972e-10	-4.98687e-06	-1.36252e-10	
236	1.915335e+00	-8.67650e-10	-4.94805e-06	1.359268e-10	
237	1.925335e+00	8.676958e-10	-4.98684e-06	-1.35588e-10	
238	1.935335e+00	-8.67748e-10	-4.94808e-06	1.352631e-10	
239	1.945335e+00	8.677945e-10	-4.98681e-06	-1.34924e-10	
240	1.955335e+00	-8.67847e-10	-4.94810e-06	1.345997e-10	
241	1.965335e+00	8.678931e-10	-4.98679e-06	-1.34261e-10	
242	1.975335e+00	-8.67946e-10	-4.94813e-06	1.339367e-10	
243	1.985335e+00	8.679917e-10	-4.98676e-06	-1.33598e-10	
244	1.995335e+00	-8.68044e-10	-4.94816e-06	1.332741e-10	
245	2.005335e+00	8.680902e-10	-4.98673e-06	-1.32936e-10	
246	2.015335e+00	-8.68143e-10	-4.94819e-06	1.326118e-10	
247	2.025335e+00	8.681888e-10	-4.98670e-06	-1.32274e-10	
248	2.035335e+00	-8.68241e-10	-4.94822e-06	1.319499e-10	
249	2.045335e+00	8.682873e-10	-4.98667e-06	-1.31612e-10	
250	2.055335e+00	-8.68340e-10	-4.94825e-06	1.312883e-10	
251	2.065335e+00	8.683859e-10	-4.98664e-06	-1.30951e-10	
252	2.075335e+00	-8.68438e-10	-4.94828e-06	1.306271e-10	
253	2.085335e+00	8.684844e-10	-4.98661e-06	-1.30290e-10	
254	2.095335e+00	-8.68537e-10	-4.94831e-06	1.299663e-10	
255	2.105335e+00	8.685829e-10	-4.98658e-06	-1.29629e-10	
256	2.115335e+00	-8.68635e-10	-4.94834e-06	1.293058e-10	
257	2.125335e+00	8.686814e-10	-4.98655e-06	-1.28969e-10	
258	2.135335e+00	-8.68734e-10	-4.94837e-06	1.286456e-10	
259	2.145335e+00	8.687798e-10	-4.98652e-06	-1.28309e-10	
260	2.155335e+00	-8.68832e-10	-4.94840e-06	1.279858e-10	
261	2.165335e+00	8.688783e-10	-4.98649e-06	-1.27649e-10	
262	2.175335e+00	-8.68931e-10	-4.94843e-06	1.273264e-10	
263	2.185335e+00	8.689767e-10	-4.98646e-06	-1.26990e-10	
264	2.195335e+00	-8.69029e-10	-4.94845e-06	1.266673e-10	
265	2.205335e+00	8.690751e-10	-4.98644e-06	-1.26331e-10	
266	2.215335e+00	-8.69128e-10	-4.94848e-06	1.260086e-10	
267	2.225335e+00	8.691735e-10	-4.98641e-06	-1.25672e-10	
268	2.235335e+00	-8.69226e-10	-4.94851e-06	1.253502e-10	
269	2.245335e+00	8.692719e-10	-4.98638e-06	-1.25014e-10	
270	2.255335e+00	-8.69324e-10	-4.94854e-06	1.246922e-10	
271	2.265335e+00	8.693703e-10	-4.98635e-06	-1.24356e-10	
272	2.275335e+00	-8.69423e-10	-4.94857e-06	1.240346e-10	
273	2.285335e+00	8.694686e-10	-4.98632e-06	-1.23699e-10	
274	2.295335e+00	-8.69521e-10	-4.94860e-06	1.233773e-10	
275	2.305335e+00	8.695670e-10	-4.98629e-06	-1.23042e-10	
276	2.315335e+00	-8.69619e-10	-4.94863e-06	1.227203e-10	
277	2.325335e+00	8.696653e-10	-4.98626e-06	-1.22385e-10	
278	2.335335e+00	-8.69718e-10	-4.94866e-06	1.220637e-10	
279	2.345335e+00	8.697636e-10	-4.98623e-06	-1.21729e-10	
280	2.355335e+00	-8.69816e-10	-4.94869e-06	1.214075e-10	
281	2.365335e+00	8.698619e-10	-4.98620e-06	-1.21073e-10	
282	2.375335e+00	-8.69914e-10	-4.94872e-06	1.207516e-10	
283	2.385335e+00	8.699602e-10	-4.98617e-06	-1.20417e-10	
284	2.395335e+00	-8.70013e-10	-4.94874e-06	1.200961e-10	
285	2.405335e+00	8.700584e-10	-4.98615e-06	-1.19761e-10	
286	2.415335e+00	-8.70111e-10	-4.94877e-06	1.194409e-10	

Index   time            v1#branch       v2#branch       v3#branch       
--------------------------------------------------------------------------------
287	2.425335e+00	8.701567e-10	-4.98612e-06	-1.19106e-10	
288	2.435335e+00	-8.70209e-10	-4.94880e-06	1.187860e-10	
289	2.445335e+00	8.702549e-10	-4.98609e-06	-1.18452e-10	
290	2.455335e+00	-8.70307e-10	-4.94883e-06	1.181316e-10	
291	2.465335e+00	8.703531e-10	-4.98606e-06	-1.17797e-10	
292	2.475335e+00	-8.70406e-10	-4.94886e-06	1.174774e-10	
293	2.485335e+00	8.704513e-10	-4.98603e-06	-1.17144e-10	
294	2.495335e+00	-8.70504e-10	-4.94889e-06	1.168237e-10	
295	2.505335e+00	8.705495e-10	-4.98600e-06	-1.16490e-10	
296	2.515335e+00	-8.70602e-10	-4.94892e-06	1.161702e-10	
297	2.525335e+00	8.706476e-10	-4.98597e-06	-1.15837e-10	
298	2.535335e+00	-8.70700e-10	-4.94894e-06	1.155172e-10	
299	2.545335e+00	8.707458e-10	-4.98595e-06	-1.15184e-10	
300	2.555335e+00	-8.70798e-10	-4.94897e-06	1.148644e-10	
301	2.565335e+00	8.708439e-10	-4.98592e-06	-1.14531e-10	
302	2.575335e+00	-8.70896e-10	-4.94900e-06	1.142121e-10	
303	2.585335e+00	8.709420e-10	-4.98589e-06	-1.13879e-10	
304	2.595335e+00	-8.70994e-10	-4.94903e-06	1.135601e-10	
305	2.605335e+00	8.710401e-10	-4.98586e-06	-1.13227e-10	
306	2.615335e+00	-8.71093e-10	-4.94906e-06	1.129084e-10	
307	2.625335e+00	8.711382e-10	-4.98583e-06	-1.12576e-10	
308	2.635335e+00	-8.71191e-10	-4.94909e-06	1.122571e-10	
309	2.645335e+00	8.712363e-10	-4.98580e-06	-1.11925e-10	
310	2.655335e+00	-8.71289e-10	-4.94912e-06	1.116061e-10	
311	2.665335e+00	8.713344e-10	-4.98577e-06	-1.11274e-10	
312	2.675335e+00	-8.71387e-10	-4.94914e-06	1.109555e-10	
313	2.685335e+00	8.714324e-10	-4.98575e-06	-1.10623e-10	
314	2.695335e+00	-8.71485e-10	-4.94917e-06	1.103052e-10	
315	2.705335e+00	8.715304e-10	-4.98572e-06	-1.09973e-10	
316	2.715335e+00	-8.71583e-10	-4.94920e-06	1.096553e-10	
317	2.725335e+00	8.716284e-10	-4.98569e-06	-1.09324e-10	
318	2.735335e+00	-8.71681e-10	-4.94923e-06	1.090057e-10	
319	2.745335e+00	8.717264e-10	-4.98566e-06	-1.08674e-10	
320	2.755335e+00	-8.71779e-10	-4.94926e-06	1.083565e-10	
321	2.765335e+00	8.718244e-10	-4.98563e-06	-1.08025e-10	
322	2.775335e+00	-8.71877e-10	-4.94929e-06	1.077076e-10	
323	2.785335e+00	8.719224e-10	-4.98560e-06	-1.07376e-10	
324	2.795335e+00	-8.71975e-10	-4.94931e-06	1.070591e-10	
325	2.805335e+00	8.720203e-10	-4.98558e-06	-1.06728e-10	
