       * /home/saurabh/esim-workspace/pwm_incremental/pwm_incremental.cir
       Transient Analysis  Wed Nov 27 14:26:42  2019
--------------------------------------------------------------------------------
Index   time            ?               d               net-_u4-pad1_   
--------------------------------------------------------------------------------
0	0.000000e+00	-8.99056e+00	8.993290e+00	0.000000e+00	
1	1.000000e-07	-8.99056e+00	8.993290e+00	0.000000e+00	
2	2.000000e-07	-8.99056e+00	8.993290e+00	0.000000e+00	
3	4.000000e-07	-8.99056e+00	8.993290e+00	0.000000e+00	
4	8.000000e-07	-8.99056e+00	8.993290e+00	0.000000e+00	
5	1.600000e-06	-8.99056e+00	8.993290e+00	0.000000e+00	
6	3.200000e-06	-8.99056e+00	8.993290e+00	0.000000e+00	
7	6.400000e-06	-8.99056e+00	8.993290e+00	0.000000e+00	
8	1.000000e-05	-8.99056e+00	8.993290e+00	0.000000e+00	
9	1.064000e-05	-8.99056e+00	8.993290e+00	3.200000e-01	
10	1.192000e-05	-8.99056e+00	8.993290e+00	9.600000e-01	
11	1.448000e-05	-8.99056e+00	8.993290e+00	2.240000e+00	
12	1.960000e-05	-8.99056e+00	8.993290e+00	4.800000e+00	
13	2.000000e-05	-8.99056e+00	8.993290e+00	5.000000e+00	
14	2.080000e-05	-8.99056e+00	8.993290e+00	5.000000e+00	
15	2.240000e-05	-8.99056e+00	8.993290e+00	5.000000e+00	
16	2.560000e-05	-8.99056e+00	8.993290e+00	5.000000e+00	
17	3.200000e-05	-8.99056e+00	8.993290e+00	5.000000e+00	
18	4.480000e-05	-8.99056e+00	8.993290e+00	5.000000e+00	
19	7.040000e-05	-8.99056e+00	8.993290e+00	5.000000e+00	
20	1.216000e-04	-8.99056e+00	8.993290e+00	5.000000e+00	
21	2.240000e-04	-8.99056e+00	8.993290e+00	5.000000e+00	
22	4.288000e-04	-8.99056e+00	8.993290e+00	5.000000e+00	
23	5.200000e-04	-8.99056e+00	8.993290e+00	5.000000e+00	
24	5.220000e-04	-8.99056e+00	8.993290e+00	4.500000e+00	
25	5.260000e-04	-8.99056e+00	8.993290e+00	3.500000e+00	
26	5.340000e-04	-8.99056e+00	8.993290e+00	1.500000e+00	
27	5.400000e-04	-8.99056e+00	8.993290e+00	0.000000e+00	
28	5.416000e-04	-8.99056e+00	8.993290e+00	0.000000e+00	
29	5.448000e-04	-8.99056e+00	8.993290e+00	0.000000e+00	
30	5.512000e-04	-8.99056e+00	8.993290e+00	0.000000e+00	
31	5.640000e-04	-8.99056e+00	8.993290e+00	0.000000e+00	
32	5.896000e-04	-8.99056e+00	8.993290e+00	0.000000e+00	
33	6.408000e-04	-8.99056e+00	8.993290e+00	0.000000e+00	
34	7.432000e-04	-8.99056e+00	8.993290e+00	0.000000e+00	
35	9.480000e-04	-8.99056e+00	8.993290e+00	0.000000e+00	
36	1.010000e-03	-8.99056e+00	8.993290e+00	0.000000e+00	
37	1.011000e-03	-8.99056e+00	8.993290e+00	5.000000e-01	
38	1.013000e-03	-8.99056e+00	8.993290e+00	1.500000e+00	
39	1.017000e-03	-8.99056e+00	8.993290e+00	3.500000e+00	
40	1.020000e-03	-8.99056e+00	8.993290e+00	5.000000e+00	
41	1.020800e-03	-8.99056e+00	8.993290e+00	5.000000e+00	
42	1.022400e-03	-8.99056e+00	8.993290e+00	5.000000e+00	
43	1.025600e-03	-8.99056e+00	8.993290e+00	5.000000e+00	
44	1.032000e-03	-8.99056e+00	8.993290e+00	5.000000e+00	
45	1.044800e-03	-8.99056e+00	8.993290e+00	5.000000e+00	
46	1.070400e-03	-8.99056e+00	8.993290e+00	5.000000e+00	
47	1.121600e-03	-8.99056e+00	8.993290e+00	5.000000e+00	
48	1.224000e-03	-8.99056e+00	8.993290e+00	5.000000e+00	
49	1.428800e-03	-8.99056e+00	8.993290e+00	5.000000e+00	
50	1.520000e-03	-8.99056e+00	8.993290e+00	5.000000e+00	
51	1.522000e-03	-8.99056e+00	8.993290e+00	4.500000e+00	
52	1.526000e-03	-8.99056e+00	8.993290e+00	3.500000e+00	
53	1.534000e-03	-8.99056e+00	8.993290e+00	1.500000e+00	
54	1.540000e-03	-8.99056e+00	8.993290e+00	0.000000e+00	

Index   time            ?               d               net-_u4-pad1_   
--------------------------------------------------------------------------------
55	1.541600e-03	-8.99056e+00	8.993290e+00	0.000000e+00	
56	1.544800e-03	-8.99056e+00	8.993290e+00	0.000000e+00	
57	1.551200e-03	-8.99056e+00	8.993290e+00	0.000000e+00	
58	1.564000e-03	-8.99056e+00	8.993290e+00	0.000000e+00	
59	1.589600e-03	-8.99056e+00	8.993290e+00	0.000000e+00	
60	1.640800e-03	-8.99056e+00	8.993290e+00	0.000000e+00	
61	1.743200e-03	-8.99056e+00	8.993290e+00	0.000000e+00	
62	1.948000e-03	-8.99056e+00	8.993290e+00	0.000000e+00	
63	2.010000e-03	-8.99056e+00	8.993290e+00	0.000000e+00	
64	2.011000e-03	-8.99056e+00	8.993290e+00	5.000000e-01	
65	2.013000e-03	-8.99056e+00	8.993290e+00	1.500000e+00	
66	2.017000e-03	-8.99056e+00	8.993290e+00	3.500000e+00	
67	2.020000e-03	-8.99056e+00	8.993290e+00	5.000000e+00	
68	2.020800e-03	-8.99056e+00	8.993290e+00	5.000000e+00	
69	2.022400e-03	-8.99056e+00	8.993290e+00	5.000000e+00	
70	2.025600e-03	-8.99056e+00	8.993290e+00	5.000000e+00	
71	2.032000e-03	-8.99056e+00	8.993290e+00	5.000000e+00	
72	2.044800e-03	-8.99056e+00	8.993290e+00	5.000000e+00	
73	2.070400e-03	-8.99056e+00	8.993290e+00	5.000000e+00	
74	2.121600e-03	-8.99056e+00	8.993290e+00	5.000000e+00	
75	2.224000e-03	-8.99056e+00	8.993290e+00	5.000000e+00	
76	2.428800e-03	-8.99056e+00	8.993290e+00	5.000000e+00	
77	2.520000e-03	-8.99056e+00	8.993290e+00	5.000000e+00	
78	2.522000e-03	-8.99056e+00	8.993290e+00	4.500000e+00	
79	2.526000e-03	-8.99056e+00	8.993290e+00	3.500000e+00	
80	2.534000e-03	-8.99056e+00	8.993290e+00	1.500000e+00	
81	2.540000e-03	-8.99056e+00	8.993290e+00	0.000000e+00	
82	2.541600e-03	-8.99056e+00	8.993290e+00	0.000000e+00	
83	2.544800e-03	-8.99056e+00	8.993290e+00	0.000000e+00	
84	2.551200e-03	-8.99056e+00	8.993290e+00	0.000000e+00	
85	2.564000e-03	-8.99056e+00	8.993290e+00	0.000000e+00	
86	2.589600e-03	-8.99056e+00	8.993290e+00	0.000000e+00	
87	2.640800e-03	-8.99056e+00	8.993290e+00	0.000000e+00	
88	2.743200e-03	-8.99056e+00	8.993290e+00	0.000000e+00	
89	2.948000e-03	-8.99056e+00	8.993290e+00	0.000000e+00	
90	3.010000e-03	-8.99056e+00	8.993290e+00	0.000000e+00	
91	3.011000e-03	-8.99056e+00	8.993290e+00	5.000000e-01	
92	3.013000e-03	-8.99056e+00	8.993290e+00	1.500000e+00	
93	3.017000e-03	-8.99056e+00	8.993290e+00	3.500000e+00	
94	3.020000e-03	-8.99056e+00	8.993290e+00	5.000000e+00	
95	3.020800e-03	-8.99056e+00	8.993290e+00	5.000000e+00	
96	3.022400e-03	-8.99056e+00	8.993290e+00	5.000000e+00	
97	3.025600e-03	-8.99056e+00	8.993290e+00	5.000000e+00	
98	3.032000e-03	-8.99056e+00	8.993290e+00	5.000000e+00	
99	3.044800e-03	-8.99056e+00	8.993290e+00	5.000000e+00	
100	3.070400e-03	-8.99056e+00	8.993290e+00	5.000000e+00	
101	3.121600e-03	-8.99056e+00	8.993290e+00	5.000000e+00	
102	3.224000e-03	-8.99056e+00	8.993290e+00	5.000000e+00	
103	3.428800e-03	-8.99056e+00	8.993290e+00	5.000000e+00	
104	3.520000e-03	-8.99056e+00	8.993290e+00	5.000000e+00	
105	3.522000e-03	-8.99056e+00	8.993290e+00	4.500000e+00	
106	3.526000e-03	-8.99056e+00	8.993290e+00	3.500000e+00	
107	3.534000e-03	-8.99056e+00	8.993290e+00	1.500000e+00	
108	3.540000e-03	-8.99056e+00	8.993290e+00	0.000000e+00	
109	3.541600e-03	-8.99056e+00	8.993290e+00	0.000000e+00	
110	3.544800e-03	-8.99056e+00	8.993290e+00	0.000000e+00	
111	3.551200e-03	-8.99056e+00	8.993290e+00	0.000000e+00	
112	3.564000e-03	-8.99056e+00	8.993290e+00	0.000000e+00	

Index   time            ?               d               net-_u4-pad1_   
--------------------------------------------------------------------------------
113	3.589600e-03	-8.99056e+00	8.993290e+00	0.000000e+00	
114	3.640800e-03	-8.99056e+00	8.993290e+00	0.000000e+00	
115	3.743200e-03	-8.99056e+00	8.993290e+00	0.000000e+00	
116	3.948000e-03	-8.99056e+00	8.993290e+00	0.000000e+00	
117	4.010000e-03	-8.99056e+00	8.993290e+00	0.000000e+00	
118	4.011000e-03	-8.99056e+00	8.993290e+00	5.000000e-01	
119	4.013000e-03	-8.99056e+00	8.993290e+00	1.500000e+00	
120	4.017000e-03	-8.99056e+00	8.993290e+00	3.500000e+00	
121	4.020000e-03	-8.99056e+00	8.993290e+00	5.000000e+00	
122	4.020800e-03	-8.99056e+00	8.993290e+00	5.000000e+00	
123	4.022400e-03	-8.99056e+00	8.993290e+00	5.000000e+00	
124	4.025600e-03	-8.99056e+00	8.993290e+00	5.000000e+00	
125	4.032000e-03	-8.99056e+00	8.993290e+00	5.000000e+00	
126	4.044800e-03	-8.99056e+00	8.993290e+00	5.000000e+00	
127	4.070400e-03	-8.99056e+00	8.993290e+00	5.000000e+00	
128	4.121600e-03	-8.99056e+00	8.993290e+00	5.000000e+00	
129	4.224000e-03	-8.99056e+00	8.993290e+00	5.000000e+00	
130	4.428800e-03	-8.99056e+00	8.993290e+00	5.000000e+00	
131	4.520000e-03	-8.99056e+00	8.993290e+00	5.000000e+00	
132	4.522000e-03	-8.99056e+00	8.993290e+00	4.500000e+00	
133	4.526000e-03	-8.99056e+00	8.993290e+00	3.500000e+00	
134	4.534000e-03	-8.99056e+00	8.993290e+00	1.500000e+00	
135	4.540000e-03	-8.99056e+00	8.993290e+00	0.000000e+00	
136	4.541600e-03	-8.99056e+00	8.993290e+00	0.000000e+00	
137	4.544800e-03	-8.99056e+00	8.993290e+00	0.000000e+00	
138	4.551200e-03	-8.99056e+00	8.993290e+00	0.000000e+00	
139	4.564000e-03	-8.99056e+00	8.993290e+00	0.000000e+00	
140	4.589600e-03	-8.99056e+00	8.993290e+00	0.000000e+00	
141	4.640800e-03	-8.99056e+00	8.993290e+00	0.000000e+00	
142	4.743200e-03	-8.99056e+00	8.993290e+00	0.000000e+00	
143	4.948000e-03	-8.99056e+00	8.993290e+00	0.000000e+00	
144	5.010000e-03	-8.99056e+00	8.993290e+00	0.000000e+00	
145	5.011000e-03	-8.99056e+00	8.993290e+00	5.000000e-01	
146	5.013000e-03	-8.99056e+00	8.993290e+00	1.500000e+00	
147	5.017000e-03	-8.99056e+00	8.993290e+00	3.500000e+00	
148	5.020000e-03	-8.99056e+00	8.993290e+00	5.000000e+00	
149	5.020800e-03	-8.99056e+00	8.993290e+00	5.000000e+00	
150	5.022400e-03	-8.99056e+00	8.993290e+00	5.000000e+00	
151	5.025600e-03	-8.99056e+00	8.993290e+00	5.000000e+00	
152	5.032000e-03	-8.99056e+00	8.993290e+00	5.000000e+00	
153	5.044800e-03	-8.99056e+00	8.993290e+00	5.000000e+00	
154	5.070400e-03	-8.99056e+00	8.993290e+00	5.000000e+00	
155	5.121600e-03	-8.99056e+00	8.993290e+00	5.000000e+00	
156	5.224000e-03	-8.99056e+00	8.993290e+00	5.000000e+00	
157	5.428800e-03	-8.99056e+00	8.993290e+00	5.000000e+00	
158	5.520000e-03	-8.99056e+00	8.993290e+00	5.000000e+00	
159	5.522000e-03	-8.99056e+00	8.993290e+00	4.500000e+00	
160	5.526000e-03	-8.99056e+00	8.993290e+00	3.500000e+00	
161	5.534000e-03	-8.99056e+00	8.993290e+00	1.500000e+00	
162	5.540000e-03	-8.99056e+00	8.993290e+00	2.033929e-13	
163	5.541600e-03	-8.99056e+00	8.993290e+00	0.000000e+00	
164	5.544800e-03	-8.99056e+00	8.993290e+00	0.000000e+00	
165	5.551200e-03	-8.99056e+00	8.993290e+00	0.000000e+00	
166	5.564000e-03	-8.99056e+00	8.993290e+00	0.000000e+00	
167	5.589600e-03	-8.99056e+00	8.993290e+00	0.000000e+00	
168	5.640800e-03	-8.99056e+00	8.993290e+00	0.000000e+00	
169	5.743200e-03	-8.99056e+00	8.993290e+00	0.000000e+00	
170	5.948000e-03	-8.99056e+00	8.993290e+00	0.000000e+00	

Index   time            ?               d               net-_u4-pad1_   
--------------------------------------------------------------------------------
171	6.010000e-03	-8.99056e+00	8.993290e+00	0.000000e+00	
172	6.011000e-03	-8.99056e+00	8.993290e+00	5.000000e-01	
173	6.013000e-03	-8.99056e+00	8.993290e+00	1.500000e+00	
174	6.017000e-03	-8.99056e+00	8.993290e+00	3.500000e+00	
175	6.020000e-03	-8.99056e+00	8.993290e+00	5.000000e+00	
176	6.020800e-03	-8.99056e+00	8.993290e+00	5.000000e+00	
177	6.022400e-03	-8.99056e+00	8.993290e+00	5.000000e+00	
178	6.025600e-03	-8.99056e+00	8.993290e+00	5.000000e+00	
179	6.032000e-03	-8.99056e+00	8.993290e+00	5.000000e+00	
180	6.044800e-03	-8.99056e+00	8.993290e+00	5.000000e+00	
181	6.070400e-03	-8.99056e+00	8.993290e+00	5.000000e+00	
182	6.121600e-03	-8.99056e+00	8.993290e+00	5.000000e+00	
183	6.224000e-03	-8.99056e+00	8.993290e+00	5.000000e+00	
184	6.428800e-03	-8.99056e+00	8.993290e+00	5.000000e+00	
185	6.520000e-03	-8.99056e+00	8.993290e+00	5.000000e+00	
186	6.522000e-03	-8.99056e+00	8.993290e+00	4.500000e+00	
187	6.526000e-03	-8.99056e+00	8.993290e+00	3.500000e+00	
188	6.534000e-03	-8.99056e+00	8.993290e+00	1.500000e+00	
189	6.540000e-03	-8.99056e+00	8.993290e+00	0.000000e+00	
190	6.541600e-03	-8.99056e+00	8.993290e+00	0.000000e+00	
191	6.544800e-03	-8.99056e+00	8.993290e+00	0.000000e+00	
192	6.551200e-03	-8.99056e+00	8.993290e+00	0.000000e+00	
193	6.564000e-03	-8.99056e+00	8.993290e+00	0.000000e+00	
194	6.589600e-03	-8.99056e+00	8.993290e+00	0.000000e+00	
195	6.640800e-03	-8.99056e+00	8.993290e+00	0.000000e+00	
196	6.743200e-03	-8.99056e+00	8.993290e+00	0.000000e+00	
197	6.948000e-03	-8.99056e+00	8.993290e+00	0.000000e+00	
198	7.010000e-03	-8.99056e+00	8.993290e+00	0.000000e+00	
199	7.011000e-03	-8.99056e+00	8.993290e+00	5.000000e-01	
200	7.013000e-03	-8.99056e+00	8.993290e+00	1.500000e+00	
201	7.017000e-03	-8.99056e+00	8.993290e+00	3.500000e+00	
202	7.020000e-03	-8.99056e+00	8.993290e+00	5.000000e+00	
203	7.020800e-03	-8.99056e+00	8.993290e+00	5.000000e+00	
204	7.022400e-03	-8.99056e+00	8.993290e+00	5.000000e+00	
205	7.025600e-03	-8.99056e+00	8.993290e+00	5.000000e+00	
206	7.032000e-03	-8.99056e+00	8.993290e+00	5.000000e+00	
207	7.044800e-03	-8.99056e+00	8.993290e+00	5.000000e+00	
208	7.070400e-03	-8.99056e+00	8.993290e+00	5.000000e+00	
209	7.121600e-03	-8.99056e+00	8.993290e+00	5.000000e+00	
210	7.224000e-03	-8.99056e+00	8.993290e+00	5.000000e+00	
211	7.428800e-03	-8.99056e+00	8.993290e+00	5.000000e+00	
212	7.520000e-03	-8.99056e+00	8.993290e+00	5.000000e+00	
213	7.522000e-03	-8.99056e+00	8.993290e+00	4.500000e+00	
214	7.526000e-03	-8.99056e+00	8.993290e+00	3.500000e+00	
215	7.534000e-03	-8.99056e+00	8.993290e+00	1.500000e+00	
216	7.540000e-03	-8.99056e+00	8.993290e+00	2.033929e-13	
217	7.541600e-03	-8.99056e+00	8.993290e+00	0.000000e+00	
218	7.544800e-03	-8.99056e+00	8.993290e+00	0.000000e+00	
219	7.551200e-03	-8.99056e+00	8.993290e+00	0.000000e+00	
220	7.564000e-03	-8.99056e+00	8.993290e+00	0.000000e+00	
221	7.589600e-03	-8.99056e+00	8.993290e+00	0.000000e+00	
222	7.640800e-03	-8.99056e+00	8.993290e+00	0.000000e+00	
223	7.743200e-03	-8.99056e+00	8.993290e+00	0.000000e+00	
224	7.948000e-03	-8.99056e+00	8.993290e+00	0.000000e+00	
225	8.010000e-03	-8.99056e+00	8.993290e+00	0.000000e+00	
226	8.011000e-03	-8.99056e+00	8.993290e+00	5.000000e-01	
227	8.013000e-03	-8.99056e+00	8.993290e+00	1.500000e+00	
228	8.017000e-03	-8.99056e+00	8.993290e+00	3.500000e+00	

Index   time            ?               d               net-_u4-pad1_   
--------------------------------------------------------------------------------
229	8.020000e-03	-8.99056e+00	8.993290e+00	5.000000e+00	
230	8.020800e-03	-8.99056e+00	8.993290e+00	5.000000e+00	
231	8.022400e-03	-8.99056e+00	8.993290e+00	5.000000e+00	
232	8.025600e-03	-8.99056e+00	8.993290e+00	5.000000e+00	
233	8.032000e-03	-8.99056e+00	8.993290e+00	5.000000e+00	
234	8.044800e-03	-8.99056e+00	8.993290e+00	5.000000e+00	
235	8.070400e-03	-8.99056e+00	8.993290e+00	5.000000e+00	
236	8.121600e-03	-8.99056e+00	8.993290e+00	5.000000e+00	
237	8.224000e-03	-8.99056e+00	8.993290e+00	5.000000e+00	
238	8.428800e-03	-8.99056e+00	8.993290e+00	5.000000e+00	
239	8.520000e-03	-8.99056e+00	8.993290e+00	5.000000e+00	
240	8.522000e-03	-8.99056e+00	8.993290e+00	4.500000e+00	
241	8.526000e-03	-8.99056e+00	8.993290e+00	3.500000e+00	
242	8.534000e-03	-8.99056e+00	8.993290e+00	1.500000e+00	
243	8.540000e-03	-8.99056e+00	8.993290e+00	2.033929e-13	
244	8.541600e-03	-8.99056e+00	8.993290e+00	0.000000e+00	
245	8.544800e-03	-8.99056e+00	8.993290e+00	0.000000e+00	
246	8.551200e-03	-8.99056e+00	8.993290e+00	0.000000e+00	
247	8.564000e-03	-8.99056e+00	8.993290e+00	0.000000e+00	
248	8.589600e-03	-8.99056e+00	8.993290e+00	0.000000e+00	
249	8.640800e-03	-8.99056e+00	8.993290e+00	0.000000e+00	
250	8.743200e-03	-8.99056e+00	8.993290e+00	0.000000e+00	
251	8.948000e-03	-8.99056e+00	8.993290e+00	0.000000e+00	
252	9.010000e-03	-8.99056e+00	8.993290e+00	0.000000e+00	
253	9.011000e-03	-8.99056e+00	8.993290e+00	5.000000e-01	
254	9.013000e-03	-8.99056e+00	8.993290e+00	1.500000e+00	
255	9.013002e-03	-8.99056e+00	8.993290e+00	1.501000e+00	
256	9.013002e-03	-8.99056e+00	8.993290e+00	1.501002e+00	
257	9.013002e-03	-8.99056e+00	8.993290e+00	1.501007e+00	
258	9.013002e-03	-8.99056e+00	8.993290e+00	1.501016e+00	
259	9.013002e-03	-8.99056e+00	8.993290e+00	1.501025e+00	
260	9.013002e-03	-8.99056e+00	8.993290e+00	1.501043e+00	
261	9.013002e-03	-8.99056e+00	8.993290e+00	1.501079e+00	
262	9.013002e-03	-8.99056e+00	8.993290e+00	1.501151e+00	
263	9.013003e-03	-8.99056e+00	8.993290e+00	1.501295e+00	
264	9.013003e-03	-8.99056e+00	8.993290e+00	1.501500e+00	
265	9.013003e-03	-8.99056e+00	8.993290e+00	1.501522e+00	
266	9.013003e-03	-8.99056e+00	8.993290e+00	1.501567e+00	
267	9.013003e-03	-8.99056e+00	8.993290e+00	1.501655e+00	
268	9.013004e-03	-8.99056e+00	8.993290e+00	1.501833e+00	
269	9.013004e-03	-8.99056e+00	8.993290e+00	1.502187e+00	
270	9.013006e-03	-8.99056e+00	8.993290e+00	1.502897e+00	
271	9.013009e-03	-8.99056e+00	8.993290e+00	1.504316e+00	
272	9.013014e-03	-8.99056e+00	8.993290e+00	1.507155e+00	
273	9.013026e-03	-8.99056e+00	8.993290e+00	1.512832e+00	
274	9.013048e-03	-8.99056e+00	8.993290e+00	1.524186e+00	
275	9.013094e-03	-8.99056e+00	8.993290e+00	1.546894e+00	
276	9.013185e-03	-8.99056e+00	8.993290e+00	1.592311e+00	
277	9.013366e-03	-8.99056e+00	8.993290e+00	1.683144e+00	
278	9.013730e-03	-8.99056e+00	8.993290e+00	1.864810e+00	
279	9.014456e-03	-8.99056e+00	8.993290e+00	2.228142e+00	
280	9.015910e-03	-8.99056e+00	8.993290e+00	2.954806e+00	
281	9.018816e-03	-8.99056e+00	8.993290e+00	4.408134e+00	
282	9.020000e-03	-8.99056e+00	8.993290e+00	5.000000e+00	
283	9.020581e-03	-8.99056e+00	8.993290e+00	5.000000e+00	
284	9.021744e-03	-8.99056e+00	8.993290e+00	5.000000e+00	
285	9.024069e-03	-8.99056e+00	8.993290e+00	5.000000e+00	
286	9.028720e-03	-8.99056e+00	8.993290e+00	5.000000e+00	

Index   time            ?               d               net-_u4-pad1_   
--------------------------------------------------------------------------------
287	9.038021e-03	-8.99056e+00	8.993290e+00	5.000000e+00	
288	9.056624e-03	-8.99056e+00	8.993290e+00	5.000000e+00	
289	9.093829e-03	-8.99056e+00	8.993290e+00	5.000000e+00	
290	9.168239e-03	-8.99056e+00	8.993290e+00	5.000000e+00	
291	9.317060e-03	-8.99056e+00	8.993290e+00	5.000000e+00	
292	9.520000e-03	-8.99056e+00	8.993290e+00	5.000000e+00	
293	9.522000e-03	-8.99056e+00	8.993290e+00	4.500000e+00	
294	9.526000e-03	-8.99056e+00	8.993290e+00	3.500000e+00	
295	9.534000e-03	-8.99056e+00	8.993290e+00	1.500000e+00	
296	9.540000e-03	-8.99056e+00	8.993290e+00	2.033929e-13	
297	9.541600e-03	-8.99056e+00	8.993290e+00	0.000000e+00	
298	9.544800e-03	-8.99056e+00	8.993290e+00	0.000000e+00	
299	9.551200e-03	-8.99056e+00	8.993290e+00	0.000000e+00	
300	9.564000e-03	-8.99056e+00	8.993290e+00	0.000000e+00	
301	9.589600e-03	-8.99056e+00	8.993290e+00	0.000000e+00	
302	9.619487e-03	-8.99056e+00	8.993290e+00	0.000000e+00	
303	9.653083e-03	-8.99056e+00	8.993290e+00	0.000000e+00	
304	9.695274e-03	-8.99056e+00	8.993290e+00	0.000000e+00	
305	9.730595e-03	-8.99056e+00	8.993290e+00	0.000000e+00	
306	9.770277e-03	-8.99056e+00	8.993290e+00	0.000000e+00	
307	9.808502e-03	-8.99058e+00	8.993290e+00	0.000000e+00	
308	9.853211e-03	-8.99067e+00	8.993290e+00	0.000000e+00	
309	9.877956e-03	-8.99085e+00	8.993291e+00	0.000000e+00	
310	9.900905e-03	-8.99118e+00	8.993292e+00	0.000000e+00	
311	9.912036e-03	-8.99141e+00	8.993294e+00	0.000000e+00	
312	9.918586e-03	-8.99158e+00	8.993298e+00	0.000000e+00	
313	9.922622e-03	-8.99169e+00	8.993304e+00	0.000000e+00	
314	9.925201e-03	-8.99179e+00	8.993314e+00	0.000000e+00	
315	9.927113e-03	-8.99190e+00	8.993329e+00	0.000000e+00	
316	9.928962e-03	-8.99206e+00	8.993357e+00	0.000000e+00	
317	9.930828e-03	-8.99230e+00	8.993406e+00	0.000000e+00	
318	9.932819e-03	-8.99261e+00	8.993469e+00	0.000000e+00	
319	9.934828e-03	-8.99292e+00	8.993484e+00	0.000000e+00	
320	9.935446e-03	-8.99301e+00	8.993174e+00	0.000000e+00	
321	9.935844e-03	-8.99307e+00	8.992661e+00	0.000000e+00	
322	9.936266e-03	-8.99314e+00	8.991732e+00	0.000000e+00	
323	9.936745e-03	-8.99321e+00	8.990243e+00	0.000000e+00	
324	9.937436e-03	-8.99331e+00	8.987528e+00	0.000000e+00	
325	9.938232e-03	-8.99343e+00	8.983772e+00	0.000000e+00	
326	9.939531e-03	-8.99362e+00	8.976626e+00	0.000000e+00	
327	9.940551e-03	-8.99376e+00	8.969865e+00	0.000000e+00	
328	9.941120e-03	-8.99384e+00	8.961806e+00	0.000000e+00	
329	9.941390e-03	-8.99388e+00	8.949297e+00	0.000000e+00	
330	9.941558e-03	-8.99391e+00	8.931482e+00	0.000000e+00	
331	9.941708e-03	-8.99393e+00	8.901866e+00	0.000000e+00	
