          * c:\users\aditya\esim-workspace\logic_gates\logic_gates.cir
          Transient Analysis  Tue May 28 11:41:47  2024
--------------------------------------------------------------------------------
Index   time            a               b               outa            
--------------------------------------------------------------------------------
0	0.000000e+00	0.000000e+00	1.800000e+00	1.776126e+00	
1	1.000000e-05	1.800000e-02	1.782000e+00	1.776893e+00	
2	2.000000e-05	3.600000e-02	1.764000e+00	1.776711e+00	
3	4.000000e-05	7.200000e-02	1.728000e+00	1.776249e+00	
4	8.000000e-05	1.440000e-01	1.656000e+00	1.775230e+00	
5	1.497967e-04	2.696341e-01	1.530366e+00	1.773009e+00	
6	2.202053e-04	3.963696e-01	1.403630e+00	1.767256e+00	
7	2.892425e-04	5.206366e-01	1.279363e+00	1.727886e+00	
8	3.747361e-04	6.745250e-01	1.125475e+00	1.469006e+00	
9	4.617489e-04	8.311480e-01	9.688520e-01	7.661239e-02	
10	5.219355e-04	9.394838e-01	8.605162e-01	3.941810e-02	
11	5.770727e-04	1.038731e+00	7.612692e-01	2.097592e-02	
12	6.325808e-04	1.138645e+00	6.613546e-01	1.042149e-02	
13	6.453073e-04	1.161553e+00	6.384468e-01	8.437995e-03	
14	6.577040e-04	1.183867e+00	6.161327e-01	7.127559e-03	
15	6.704836e-04	1.206871e+00	5.931295e-01	5.585724e-03	
16	6.952657e-04	1.251478e+00	5.485218e-01	3.669201e-03	
17	7.416389e-04	1.334950e+00	4.650500e-01	1.255922e-03	
18	7.970681e-04	1.434723e+00	3.652774e-01	5.121070e-04	
19	8.611754e-04	1.550116e+00	2.498843e-01	1.796100e-04	
20	9.066181e-04	1.631913e+00	1.680873e-01	3.211882e-04	
21	9.506107e-04	1.711099e+00	8.890083e-02	1.570038e-04	
22	1.000000e-03	1.800000e+00	0.000000e+00	2.932105e-04	
23	1.008018e-03	1.800000e+00	0.000000e+00	3.451718e-06	
24	1.024055e-03	1.800000e+00	0.000000e+00	-3.44710e-06	
25	1.056129e-03	1.800000e+00	0.000000e+00	3.346732e-06	
26	1.120276e-03	1.800000e+00	0.000000e+00	-3.30119e-06	
27	1.248569e-03	1.800000e+00	0.000000e+00	3.321299e-06	
28	1.505157e-03	1.800000e+00	0.000000e+00	-3.28852e-06	
29	2.018333e-03	1.800000e+00	0.000000e+00	3.314972e-06	
30	3.044685e-03	1.800000e+00	0.000000e+00	-3.28535e-06	
31	5.097387e-03	1.800000e+00	0.000000e+00	3.313392e-06	
32	9.202793e-03	1.800000e+00	0.000000e+00	-3.28457e-06	
33	1.741360e-02	1.800000e+00	0.000000e+00	3.312997e-06	
34	2.741360e-02	1.800000e+00	0.000000e+00	-3.28433e-06	
35	3.741360e-02	1.800000e+00	0.000000e+00	3.312747e-06	
36	4.741360e-02	1.800000e+00	0.000000e+00	-3.28416e-06	
37	5.741360e-02	1.800000e+00	0.000000e+00	3.312530e-06	
38	6.741360e-02	1.800000e+00	0.000000e+00	-3.28395e-06	
39	7.741360e-02	1.800000e+00	0.000000e+00	3.312314e-06	
40	8.741360e-02	1.800000e+00	0.000000e+00	-3.28373e-06	
41	9.741360e-02	1.800000e+00	0.000000e+00	3.312098e-06	
42	1.074136e-01	1.800000e+00	0.000000e+00	-3.28352e-06	
43	1.174136e-01	1.800000e+00	0.000000e+00	3.311882e-06	
44	1.274136e-01	1.800000e+00	0.000000e+00	-3.28330e-06	
45	1.374136e-01	1.800000e+00	0.000000e+00	3.311666e-06	
46	1.474136e-01	1.800000e+00	0.000000e+00	-3.28308e-06	
47	1.574136e-01	1.800000e+00	0.000000e+00	3.311450e-06	
48	1.674136e-01	1.800000e+00	0.000000e+00	-3.28287e-06	
49	1.774136e-01	1.800000e+00	0.000000e+00	3.311234e-06	
50	1.874136e-01	1.800000e+00	0.000000e+00	-3.28265e-06	
51	1.974136e-01	1.800000e+00	0.000000e+00	3.311018e-06	
52	2.074136e-01	1.800000e+00	0.000000e+00	-3.28244e-06	
53	2.174136e-01	1.800000e+00	0.000000e+00	3.310802e-06	
54	2.274136e-01	1.800000e+00	0.000000e+00	-3.28222e-06	

Index   time            a               b               outa            
--------------------------------------------------------------------------------
55	2.374136e-01	1.800000e+00	0.000000e+00	3.310586e-06	
56	2.474136e-01	1.800000e+00	0.000000e+00	-3.28200e-06	
57	2.574136e-01	1.800000e+00	0.000000e+00	3.310370e-06	
58	2.674136e-01	1.800000e+00	0.000000e+00	-3.28179e-06	
59	2.774136e-01	1.800000e+00	0.000000e+00	3.310155e-06	
60	2.874136e-01	1.800000e+00	0.000000e+00	-3.28157e-06	
61	2.974136e-01	1.800000e+00	0.000000e+00	3.309939e-06	
62	3.074136e-01	1.800000e+00	0.000000e+00	-3.28136e-06	
63	3.174136e-01	1.800000e+00	0.000000e+00	3.309723e-06	
64	3.274136e-01	1.800000e+00	0.000000e+00	-3.28114e-06	
65	3.374136e-01	1.800000e+00	0.000000e+00	3.309507e-06	
66	3.474136e-01	1.800000e+00	0.000000e+00	-3.28092e-06	
67	3.574136e-01	1.800000e+00	0.000000e+00	3.309291e-06	
68	3.674136e-01	1.800000e+00	0.000000e+00	-3.28071e-06	
69	3.774136e-01	1.800000e+00	0.000000e+00	3.309075e-06	
70	3.874136e-01	1.800000e+00	0.000000e+00	-3.28049e-06	
71	3.974136e-01	1.800000e+00	0.000000e+00	3.308859e-06	
72	4.074136e-01	1.800000e+00	0.000000e+00	-3.28028e-06	
73	4.174136e-01	1.800000e+00	0.000000e+00	3.308643e-06	
74	4.274136e-01	1.800000e+00	0.000000e+00	-3.28006e-06	
75	4.374136e-01	1.800000e+00	0.000000e+00	3.308428e-06	
76	4.474136e-01	1.800000e+00	0.000000e+00	-3.27985e-06	
77	4.574136e-01	1.800000e+00	0.000000e+00	3.308212e-06	
78	4.674136e-01	1.800000e+00	0.000000e+00	-3.27963e-06	
79	4.774136e-01	1.800000e+00	0.000000e+00	3.307996e-06	
80	4.874136e-01	1.800000e+00	0.000000e+00	-3.27941e-06	
81	4.974136e-01	1.800000e+00	0.000000e+00	3.307780e-06	
82	5.074136e-01	1.800000e+00	0.000000e+00	-3.27920e-06	
83	5.174136e-01	1.800000e+00	0.000000e+00	3.307565e-06	
84	5.274136e-01	1.800000e+00	0.000000e+00	-3.27898e-06	
85	5.374136e-01	1.800000e+00	0.000000e+00	3.307349e-06	
86	5.474136e-01	1.800000e+00	0.000000e+00	-3.27877e-06	
87	5.574136e-01	1.800000e+00	0.000000e+00	3.307133e-06	
88	5.674136e-01	1.800000e+00	0.000000e+00	-3.27855e-06	
89	5.774136e-01	1.800000e+00	0.000000e+00	3.306917e-06	
90	5.874136e-01	1.800000e+00	0.000000e+00	-3.27834e-06	
91	5.974136e-01	1.800000e+00	0.000000e+00	3.306702e-06	
92	6.074136e-01	1.800000e+00	0.000000e+00	-3.27812e-06	
93	6.174136e-01	1.800000e+00	0.000000e+00	3.306486e-06	
94	6.274136e-01	1.800000e+00	0.000000e+00	-3.27790e-06	
95	6.374136e-01	1.800000e+00	0.000000e+00	3.306270e-06	
96	6.474136e-01	1.800000e+00	0.000000e+00	-3.27769e-06	
97	6.574136e-01	1.800000e+00	0.000000e+00	3.306055e-06	
98	6.674136e-01	1.800000e+00	0.000000e+00	-3.27747e-06	
99	6.774136e-01	1.800000e+00	0.000000e+00	3.305839e-06	
100	6.874136e-01	1.800000e+00	0.000000e+00	-3.27726e-06	
101	6.974136e-01	1.800000e+00	0.000000e+00	3.305623e-06	
102	7.074136e-01	1.800000e+00	0.000000e+00	-3.27704e-06	
103	7.174136e-01	1.800000e+00	0.000000e+00	3.305408e-06	
104	7.274136e-01	1.800000e+00	0.000000e+00	-3.27683e-06	
105	7.374136e-01	1.800000e+00	0.000000e+00	3.305192e-06	
106	7.474136e-01	1.800000e+00	0.000000e+00	-3.27661e-06	
107	7.574136e-01	1.800000e+00	0.000000e+00	3.304977e-06	
108	7.674136e-01	1.800000e+00	0.000000e+00	-3.27639e-06	
109	7.774136e-01	1.800000e+00	0.000000e+00	3.304761e-06	
110	7.874136e-01	1.800000e+00	0.000000e+00	-3.27618e-06	
111	7.974136e-01	1.800000e+00	0.000000e+00	3.304545e-06	
112	8.074136e-01	1.800000e+00	0.000000e+00	-3.27596e-06	

Index   time            a               b               outa            
--------------------------------------------------------------------------------
113	8.174136e-01	1.800000e+00	0.000000e+00	3.304330e-06	
114	8.274136e-01	1.800000e+00	0.000000e+00	-3.27575e-06	
115	8.374136e-01	1.800000e+00	0.000000e+00	3.304114e-06	
116	8.474136e-01	1.800000e+00	0.000000e+00	-3.27553e-06	
117	8.574136e-01	1.800000e+00	0.000000e+00	3.303899e-06	
118	8.674136e-01	1.800000e+00	0.000000e+00	-3.27532e-06	
119	8.774136e-01	1.800000e+00	0.000000e+00	3.303683e-06	
120	8.874136e-01	1.800000e+00	0.000000e+00	-3.27510e-06	
121	8.974136e-01	1.800000e+00	0.000000e+00	3.303468e-06	
122	9.074136e-01	1.800000e+00	0.000000e+00	-3.27489e-06	
123	9.174136e-01	1.800000e+00	0.000000e+00	3.303252e-06	
124	9.274136e-01	1.800000e+00	0.000000e+00	-3.27467e-06	
125	9.374136e-01	1.800000e+00	0.000000e+00	3.303037e-06	
126	9.474136e-01	1.800000e+00	0.000000e+00	-3.27445e-06	
127	9.574136e-01	1.800000e+00	0.000000e+00	3.302822e-06	
128	9.674136e-01	1.800000e+00	0.000000e+00	-3.27424e-06	
129	9.774136e-01	1.800000e+00	0.000000e+00	3.302606e-06	
130	9.874136e-01	1.800000e+00	0.000000e+00	-3.27402e-06	
131	9.974136e-01	1.800000e+00	0.000000e+00	3.302391e-06	
132	1.007414e+00	1.800000e+00	0.000000e+00	-3.27381e-06	
133	1.017414e+00	1.800000e+00	0.000000e+00	3.302175e-06	
134	1.027414e+00	1.800000e+00	0.000000e+00	-3.27359e-06	
135	1.037414e+00	1.800000e+00	0.000000e+00	3.301960e-06	
136	1.047414e+00	1.800000e+00	0.000000e+00	-3.27338e-06	
137	1.057414e+00	1.800000e+00	0.000000e+00	3.301744e-06	
138	1.067414e+00	1.800000e+00	0.000000e+00	-3.27316e-06	
139	1.077414e+00	1.800000e+00	0.000000e+00	3.301529e-06	
140	1.087414e+00	1.800000e+00	0.000000e+00	-3.27295e-06	
141	1.097414e+00	1.800000e+00	0.000000e+00	3.301314e-06	
142	1.107414e+00	1.800000e+00	0.000000e+00	-3.27273e-06	
143	1.117414e+00	1.800000e+00	0.000000e+00	3.301098e-06	
144	1.127414e+00	1.800000e+00	0.000000e+00	-3.27252e-06	
145	1.137414e+00	1.800000e+00	0.000000e+00	3.300883e-06	
146	1.147414e+00	1.800000e+00	0.000000e+00	-3.27230e-06	
147	1.157414e+00	1.800000e+00	0.000000e+00	3.300668e-06	
148	1.167414e+00	1.800000e+00	0.000000e+00	-3.27209e-06	
149	1.177414e+00	1.800000e+00	0.000000e+00	3.300453e-06	
150	1.187414e+00	1.800000e+00	0.000000e+00	-3.27187e-06	
151	1.197414e+00	1.800000e+00	0.000000e+00	3.300237e-06	
152	1.207414e+00	1.800000e+00	0.000000e+00	-3.27165e-06	
153	1.217414e+00	1.800000e+00	0.000000e+00	3.300022e-06	
154	1.227414e+00	1.800000e+00	0.000000e+00	-3.27144e-06	
155	1.237414e+00	1.800000e+00	0.000000e+00	3.299807e-06	
156	1.247414e+00	1.800000e+00	0.000000e+00	-3.27122e-06	
157	1.257414e+00	1.800000e+00	0.000000e+00	3.299592e-06	
158	1.267414e+00	1.800000e+00	0.000000e+00	-3.27101e-06	
159	1.277414e+00	1.800000e+00	0.000000e+00	3.299376e-06	
160	1.287414e+00	1.800000e+00	0.000000e+00	-3.27079e-06	
161	1.297414e+00	1.800000e+00	0.000000e+00	3.299161e-06	
162	1.307414e+00	1.800000e+00	0.000000e+00	-3.27058e-06	
163	1.317414e+00	1.800000e+00	0.000000e+00	3.298946e-06	
164	1.327414e+00	1.800000e+00	0.000000e+00	-3.27036e-06	
165	1.337414e+00	1.800000e+00	0.000000e+00	3.298731e-06	
166	1.347414e+00	1.800000e+00	0.000000e+00	-3.27015e-06	
167	1.357414e+00	1.800000e+00	0.000000e+00	3.298516e-06	
168	1.367414e+00	1.800000e+00	0.000000e+00	-3.26993e-06	
169	1.377414e+00	1.800000e+00	0.000000e+00	3.298300e-06	
170	1.387414e+00	1.800000e+00	0.000000e+00	-3.26972e-06	

Index   time            a               b               outa            
--------------------------------------------------------------------------------
171	1.397414e+00	1.800000e+00	0.000000e+00	3.298085e-06	
172	1.407414e+00	1.800000e+00	0.000000e+00	-3.26950e-06	
173	1.417414e+00	1.800000e+00	0.000000e+00	3.297870e-06	
174	1.427414e+00	1.800000e+00	0.000000e+00	-3.26929e-06	
175	1.437414e+00	1.800000e+00	0.000000e+00	3.297655e-06	
176	1.447414e+00	1.800000e+00	0.000000e+00	-3.26907e-06	
177	1.457414e+00	1.800000e+00	0.000000e+00	3.297440e-06	
178	1.467414e+00	1.800000e+00	0.000000e+00	-3.26886e-06	
179	1.477414e+00	1.800000e+00	0.000000e+00	3.297225e-06	
180	1.487414e+00	1.800000e+00	0.000000e+00	-3.26864e-06	
181	1.497414e+00	1.800000e+00	0.000000e+00	3.297010e-06	
182	1.507414e+00	1.800000e+00	0.000000e+00	-3.26843e-06	
183	1.517414e+00	1.800000e+00	0.000000e+00	3.296795e-06	
184	1.527414e+00	1.800000e+00	0.000000e+00	-3.26821e-06	
185	1.537414e+00	1.800000e+00	0.000000e+00	3.296580e-06	
186	1.547414e+00	1.800000e+00	0.000000e+00	-3.26800e-06	
187	1.557414e+00	1.800000e+00	0.000000e+00	3.296365e-06	
188	1.567414e+00	1.800000e+00	0.000000e+00	-3.26778e-06	
189	1.577414e+00	1.800000e+00	0.000000e+00	3.296150e-06	
190	1.587414e+00	1.800000e+00	0.000000e+00	-3.26757e-06	
191	1.597414e+00	1.800000e+00	0.000000e+00	3.295935e-06	
192	1.607414e+00	1.800000e+00	0.000000e+00	-3.26735e-06	
193	1.617414e+00	1.800000e+00	0.000000e+00	3.295720e-06	
194	1.627414e+00	1.800000e+00	0.000000e+00	-3.26714e-06	
195	1.637414e+00	1.800000e+00	0.000000e+00	3.295505e-06	
196	1.647414e+00	1.800000e+00	0.000000e+00	-3.26692e-06	
197	1.657414e+00	1.800000e+00	0.000000e+00	3.295290e-06	
198	1.667414e+00	1.800000e+00	0.000000e+00	-3.26671e-06	
199	1.677414e+00	1.800000e+00	0.000000e+00	3.295075e-06	
200	1.687414e+00	1.800000e+00	0.000000e+00	-3.26649e-06	
201	1.697414e+00	1.800000e+00	0.000000e+00	3.294860e-06	
202	1.707414e+00	1.800000e+00	0.000000e+00	-3.26628e-06	
203	1.717414e+00	1.800000e+00	0.000000e+00	3.294645e-06	
204	1.727414e+00	1.800000e+00	0.000000e+00	-3.26606e-06	
205	1.737414e+00	1.800000e+00	0.000000e+00	3.294430e-06	
206	1.747414e+00	1.800000e+00	0.000000e+00	-3.26585e-06	
207	1.757414e+00	1.800000e+00	0.000000e+00	3.294215e-06	
208	1.767414e+00	1.800000e+00	0.000000e+00	-3.26563e-06	
209	1.777414e+00	1.800000e+00	0.000000e+00	3.294000e-06	
210	1.787414e+00	1.800000e+00	0.000000e+00	-3.26542e-06	
211	1.797414e+00	1.800000e+00	0.000000e+00	3.293786e-06	
212	1.807414e+00	1.800000e+00	0.000000e+00	-3.26520e-06	
213	1.817414e+00	1.800000e+00	0.000000e+00	3.293571e-06	
214	1.827414e+00	1.800000e+00	0.000000e+00	-3.26499e-06	
215	1.837414e+00	1.800000e+00	0.000000e+00	3.293356e-06	
216	1.847414e+00	1.800000e+00	0.000000e+00	-3.26477e-06	
217	1.857414e+00	1.800000e+00	0.000000e+00	3.293141e-06	
218	1.867414e+00	1.800000e+00	0.000000e+00	-3.26456e-06	
219	1.877414e+00	1.800000e+00	0.000000e+00	3.292926e-06	
220	1.887414e+00	1.800000e+00	0.000000e+00	-3.26434e-06	
221	1.897414e+00	1.800000e+00	0.000000e+00	3.292712e-06	
222	1.907414e+00	1.800000e+00	0.000000e+00	-3.26413e-06	
223	1.917414e+00	1.800000e+00	0.000000e+00	3.292497e-06	
224	1.927414e+00	1.800000e+00	0.000000e+00	-3.26391e-06	
225	1.937414e+00	1.800000e+00	0.000000e+00	3.292282e-06	
226	1.947414e+00	1.800000e+00	0.000000e+00	-3.26370e-06	
227	1.957414e+00	1.800000e+00	0.000000e+00	3.292067e-06	
228	1.967414e+00	1.800000e+00	0.000000e+00	-3.26348e-06	

Index   time            a               b               outa            
--------------------------------------------------------------------------------
229	1.977414e+00	1.800000e+00	0.000000e+00	3.291853e-06	
230	1.987414e+00	1.800000e+00	0.000000e+00	-3.26327e-06	
231	1.997414e+00	1.800000e+00	0.000000e+00	3.291638e-06	
232	2.007414e+00	1.800000e+00	0.000000e+00	-3.26306e-06	
233	2.017414e+00	1.800000e+00	0.000000e+00	3.291423e-06	
234	2.027414e+00	1.800000e+00	0.000000e+00	-3.26284e-06	
235	2.037414e+00	1.800000e+00	0.000000e+00	3.291208e-06	
236	2.047414e+00	1.800000e+00	0.000000e+00	-3.26263e-06	
237	2.057414e+00	1.800000e+00	0.000000e+00	3.290994e-06	
238	2.067414e+00	1.800000e+00	0.000000e+00	-3.26241e-06	
239	2.077414e+00	1.800000e+00	0.000000e+00	3.290779e-06	
240	2.087414e+00	1.800000e+00	0.000000e+00	-3.26220e-06	
241	2.097414e+00	1.800000e+00	0.000000e+00	3.290564e-06	
242	2.107414e+00	1.800000e+00	0.000000e+00	-3.26198e-06	
243	2.117414e+00	1.800000e+00	0.000000e+00	3.290350e-06	
244	2.127414e+00	1.800000e+00	0.000000e+00	-3.26177e-06	
245	2.137414e+00	1.800000e+00	0.000000e+00	3.290135e-06	
246	2.147414e+00	1.800000e+00	0.000000e+00	-3.26155e-06	
247	2.157414e+00	1.800000e+00	0.000000e+00	3.289921e-06	
248	2.167414e+00	1.800000e+00	0.000000e+00	-3.26134e-06	
249	2.177414e+00	1.800000e+00	0.000000e+00	3.289706e-06	
250	2.187414e+00	1.800000e+00	0.000000e+00	-3.26112e-06	
251	2.197414e+00	1.800000e+00	0.000000e+00	3.289491e-06	
252	2.207414e+00	1.800000e+00	0.000000e+00	-3.26091e-06	
253	2.217414e+00	1.800000e+00	0.000000e+00	3.289277e-06	
254	2.227414e+00	1.800000e+00	0.000000e+00	-3.26069e-06	
255	2.237414e+00	1.800000e+00	0.000000e+00	3.289062e-06	
256	2.247414e+00	1.800000e+00	0.000000e+00	-3.26048e-06	
257	2.257414e+00	1.800000e+00	0.000000e+00	3.288848e-06	
258	2.267414e+00	1.800000e+00	0.000000e+00	-3.26026e-06	
259	2.277414e+00	1.800000e+00	0.000000e+00	3.288633e-06	
260	2.287414e+00	1.800000e+00	0.000000e+00	-3.26005e-06	
261	2.297414e+00	1.800000e+00	0.000000e+00	3.288419e-06	
262	2.307414e+00	1.800000e+00	0.000000e+00	-3.25984e-06	
263	2.317414e+00	1.800000e+00	0.000000e+00	3.288204e-06	
264	2.327414e+00	1.800000e+00	0.000000e+00	-3.25962e-06	
265	2.337414e+00	1.800000e+00	0.000000e+00	3.287990e-06	
266	2.347414e+00	1.800000e+00	0.000000e+00	-3.25941e-06	
267	2.357414e+00	1.800000e+00	0.000000e+00	3.287775e-06	
268	2.367414e+00	1.800000e+00	0.000000e+00	-3.25919e-06	
269	2.377414e+00	1.800000e+00	0.000000e+00	3.287561e-06	
270	2.387414e+00	1.800000e+00	0.000000e+00	-3.25898e-06	
271	2.397414e+00	1.800000e+00	0.000000e+00	3.287347e-06	
272	2.407414e+00	1.800000e+00	0.000000e+00	-3.25876e-06	
273	2.417414e+00	1.800000e+00	0.000000e+00	3.287132e-06	
274	2.427414e+00	1.800000e+00	0.000000e+00	-3.25855e-06	
275	2.437414e+00	1.800000e+00	0.000000e+00	3.286918e-06	
276	2.447414e+00	1.800000e+00	0.000000e+00	-3.25833e-06	
277	2.457414e+00	1.800000e+00	0.000000e+00	3.286703e-06	
278	2.467414e+00	1.800000e+00	0.000000e+00	-3.25812e-06	
279	2.477414e+00	1.800000e+00	0.000000e+00	3.286489e-06	
280	2.487414e+00	1.800000e+00	0.000000e+00	-3.25791e-06	
281	2.497414e+00	1.800000e+00	0.000000e+00	3.286275e-06	
282	2.507414e+00	1.800000e+00	0.000000e+00	-3.25769e-06	
283	2.517414e+00	1.800000e+00	0.000000e+00	3.286060e-06	
284	2.527414e+00	1.800000e+00	0.000000e+00	-3.25748e-06	
285	2.537414e+00	1.800000e+00	0.000000e+00	3.285846e-06	
286	2.547414e+00	1.800000e+00	0.000000e+00	-3.25726e-06	

Index   time            a               b               outa            
--------------------------------------------------------------------------------
287	2.557414e+00	1.800000e+00	0.000000e+00	3.285632e-06	
288	2.567414e+00	1.800000e+00	0.000000e+00	-3.25705e-06	
289	2.577414e+00	1.800000e+00	0.000000e+00	3.285417e-06	
290	2.587414e+00	1.800000e+00	0.000000e+00	-3.25683e-06	
291	2.597414e+00	1.800000e+00	0.000000e+00	3.285203e-06	
292	2.607414e+00	1.800000e+00	0.000000e+00	-3.25662e-06	
293	2.617414e+00	1.800000e+00	0.000000e+00	3.284989e-06	
294	2.627414e+00	1.800000e+00	0.000000e+00	-3.25641e-06	
295	2.637414e+00	1.800000e+00	0.000000e+00	3.284774e-06	
296	2.647414e+00	1.800000e+00	0.000000e+00	-3.25619e-06	
297	2.657414e+00	1.800000e+00	0.000000e+00	3.284560e-06	
298	2.667414e+00	1.800000e+00	0.000000e+00	-3.25598e-06	
299	2.677414e+00	1.800000e+00	0.000000e+00	3.284346e-06	
300	2.687414e+00	1.800000e+00	0.000000e+00	-3.25576e-06	
301	2.697414e+00	1.800000e+00	0.000000e+00	3.284132e-06	
302	2.707414e+00	1.800000e+00	0.000000e+00	-3.25555e-06	
303	2.717414e+00	1.800000e+00	0.000000e+00	3.283918e-06	
304	2.727414e+00	1.800000e+00	0.000000e+00	-3.25533e-06	
305	2.737414e+00	1.800000e+00	0.000000e+00	3.283703e-06	
306	2.747414e+00	1.800000e+00	0.000000e+00	-3.25512e-06	
307	2.757414e+00	1.800000e+00	0.000000e+00	3.283489e-06	
308	2.767414e+00	1.800000e+00	0.000000e+00	-3.25491e-06	
309	2.777414e+00	1.800000e+00	0.000000e+00	3.283275e-06	
310	2.787414e+00	1.800000e+00	0.000000e+00	-3.25469e-06	
311	2.797414e+00	1.800000e+00	0.000000e+00	3.283061e-06	
312	2.807414e+00	1.800000e+00	0.000000e+00	-3.25448e-06	
313	2.817414e+00	1.800000e+00	0.000000e+00	3.282847e-06	
314	2.827414e+00	1.800000e+00	0.000000e+00	-3.25426e-06	
315	2.837414e+00	1.800000e+00	0.000000e+00	3.282633e-06	
316	2.847414e+00	1.800000e+00	0.000000e+00	-3.25405e-06	
317	2.857414e+00	1.800000e+00	0.000000e+00	3.282418e-06	
318	2.867414e+00	1.800000e+00	0.000000e+00	-3.25384e-06	
319	2.877414e+00	1.800000e+00	0.000000e+00	3.282204e-06	
320	2.887414e+00	1.800000e+00	0.000000e+00	-3.25362e-06	
321	2.897414e+00	1.800000e+00	0.000000e+00	3.281990e-06	
322	2.907414e+00	1.800000e+00	0.000000e+00	-3.25341e-06	
323	2.917414e+00	1.800000e+00	0.000000e+00	3.281776e-06	
324	2.927414e+00	1.800000e+00	0.000000e+00	-3.25319e-06	
325	2.937414e+00	1.800000e+00	0.000000e+00	3.281562e-06	
