    * /home/fossee/downloads/labmigration/lm_solve/basicgates/basicgates.cir
    Transient Analysis  Thu Mar  3 18:27:58  2016
--------------------------------------------------------------------------------
Index   time            a7#branch_1_0   v1#branch       v2#branch       
--------------------------------------------------------------------------------
0	0.000000e+00	0.000000e+00	-5.00000e-03	0.000000e+00	
1	1.000000e-09	0.000000e+00	-5.00000e-03	0.000000e+00	
2	2.000000e-09	0.000000e+00	-5.00000e-03	0.000000e+00	
3	4.000000e-09	0.000000e+00	-5.00000e-03	0.000000e+00	
4	8.000000e-09	0.000000e+00	-5.00000e-03	0.000000e+00	
5	1.600000e-08	0.000000e+00	-5.00000e-03	0.000000e+00	
6	3.200000e-08	0.000000e+00	-5.00000e-03	0.000000e+00	
7	6.400000e-08	0.000000e+00	-5.00000e-03	0.000000e+00	
8	1.000000e-07	0.000000e+00	-5.00000e-03	0.000000e+00	
9	1.064000e-07	0.000000e+00	-4.68000e-03	-3.20000e-04	
10	1.192000e-07	0.000000e+00	-4.04000e-03	-9.60000e-04	
11	1.448000e-07	0.000000e+00	-2.76000e-03	-2.24000e-03	
12	1.488000e-07	0.000000e+00	-2.56000e-03	-2.44000e-03	
13	1.489000e-07	-5.00000e-04	-2.55500e-03	-2.44500e-03	
14	1.491000e-07	-1.50000e-03	-2.54500e-03	-2.45500e-03	
15	1.495000e-07	-3.50000e-03	-2.52500e-03	-2.47500e-03	
16	1.498000e-07	-5.00000e-03	-2.51000e-03	-2.49000e-03	
17	1.498800e-07	-5.00000e-03	-2.50600e-03	-2.49400e-03	
18	1.500400e-07	-5.00000e-03	-2.49800e-03	-2.50200e-03	
19	1.503600e-07	-5.00000e-03	-2.48200e-03	-2.51800e-03	
20	1.510000e-07	-5.00000e-03	-2.45000e-03	-2.55000e-03	
21	1.522800e-07	-5.00000e-03	-2.38600e-03	-2.61400e-03	
22	1.548400e-07	-5.00000e-03	-2.25800e-03	-2.74200e-03	
23	1.599600e-07	-5.00000e-03	-2.00200e-03	-2.99800e-03	
24	1.702000e-07	-5.00000e-03	-1.49000e-03	-3.51000e-03	
25	1.742000e-07	-5.00000e-03	-1.29000e-03	-3.71000e-03	
26	1.742900e-07	-4.55000e-03	-1.28550e-03	-3.71450e-03	
27	1.744700e-07	-3.65000e-03	-1.27650e-03	-3.72350e-03	
28	1.748300e-07	-1.85000e-03	-1.25850e-03	-3.74150e-03	
29	1.751000e-07	-5.00000e-04	-1.24500e-03	-3.75500e-03	
30	1.751720e-07	-5.00000e-04	-1.24140e-03	-3.75860e-03	
31	1.753160e-07	-5.00000e-04	-1.23420e-03	-3.76580e-03	
32	1.756040e-07	-5.00000e-04	-1.21980e-03	-3.78020e-03	
33	1.761800e-07	-5.00000e-04	-1.19100e-03	-3.80900e-03	
34	1.773320e-07	-5.00000e-04	-1.13340e-03	-3.86660e-03	
35	1.796360e-07	-5.00000e-04	-1.01820e-03	-3.98180e-03	
36	1.842440e-07	-5.00000e-04	-7.87800e-04	-4.21220e-03	
37	1.882440e-07	-5.00000e-04	-5.87800e-04	-4.41220e-03	
38	1.882540e-07	-4.50000e-04	-5.87300e-04	-4.41270e-03	
39	1.882740e-07	-3.50000e-04	-5.86300e-04	-4.41370e-03	
40	1.883140e-07	-1.50000e-04	-5.84300e-04	-4.41570e-03	
41	1.883440e-07	0.000000e+00	-5.82800e-04	-4.41720e-03	
42	1.883520e-07	0.000000e+00	-5.82400e-04	-4.41760e-03	
43	1.883680e-07	0.000000e+00	-5.81600e-04	-4.41840e-03	
44	1.884000e-07	0.000000e+00	-5.80000e-04	-4.42000e-03	
45	1.884640e-07	0.000000e+00	-5.76800e-04	-4.42320e-03	
46	1.885920e-07	0.000000e+00	-5.70400e-04	-4.42960e-03	
47	1.888480e-07	0.000000e+00	-5.57600e-04	-4.44240e-03	
48	1.893600e-07	0.000000e+00	-5.32000e-04	-4.46800e-03	
49	1.903840e-07	0.000000e+00	-4.80800e-04	-4.51920e-03	
50	1.924320e-07	0.000000e+00	-3.78400e-04	-4.62160e-03	
51	1.965280e-07	0.000000e+00	-1.73600e-04	-4.82640e-03	
52	2.000000e-07	0.000000e+00	0.000000e+00	-5.00000e-03	
53	2.008192e-07	0.000000e+00	0.000000e+00	-5.00000e-03	
54	2.024576e-07	0.000000e+00	0.000000e+00	-5.00000e-03	

Index   time            a7#branch_1_0   v1#branch       v2#branch       
--------------------------------------------------------------------------------
55	2.057344e-07	0.000000e+00	0.000000e+00	-5.00000e-03	
56	2.122880e-07	0.000000e+00	0.000000e+00	-5.00000e-03	
57	2.253952e-07	0.000000e+00	0.000000e+00	-5.00000e-03	
58	2.516096e-07	0.000000e+00	0.000000e+00	-5.00000e-03	
59	3.040384e-07	0.000000e+00	0.000000e+00	-5.00000e-03	
60	4.088960e-07	0.000000e+00	0.000000e+00	-5.00000e-03	
61	6.186112e-07	0.000000e+00	0.000000e+00	-5.00000e-03	
62	1.038042e-06	0.000000e+00	0.000000e+00	-5.00000e-03	
63	1.638042e-06	0.000000e+00	0.000000e+00	-5.00000e-03	
64	2.200000e-06	0.000000e+00	-2.11758e-17	-5.00000e-03	
65	2.210000e-06	0.000000e+00	-5.00000e-04	-4.50000e-03	
66	2.230000e-06	0.000000e+00	-1.50000e-03	-3.50000e-03	
67	2.234000e-06	0.000000e+00	-1.70000e-03	-3.30000e-03	
68	2.234010e-06	-5.00000e-05	-1.70050e-03	-3.29950e-03	
69	2.234030e-06	-1.50000e-04	-1.70150e-03	-3.29850e-03	
70	2.234070e-06	-3.50000e-04	-1.70350e-03	-3.29650e-03	
71	2.234100e-06	-5.00000e-04	-1.70500e-03	-3.29500e-03	
72	2.234108e-06	-5.00000e-04	-1.70540e-03	-3.29460e-03	
73	2.234124e-06	-5.00000e-04	-1.70620e-03	-3.29380e-03	
74	2.234156e-06	-5.00000e-04	-1.70780e-03	-3.29220e-03	
75	2.234220e-06	-5.00000e-04	-1.71100e-03	-3.28900e-03	
76	2.234348e-06	-5.00000e-04	-1.71740e-03	-3.28260e-03	
77	2.234604e-06	-5.00000e-04	-1.73020e-03	-3.26980e-03	
78	2.235116e-06	-5.00000e-04	-1.75580e-03	-3.24420e-03	
79	2.236140e-06	-5.00000e-04	-1.80700e-03	-3.19300e-03	
80	2.238188e-06	-5.00000e-04	-1.90940e-03	-3.09060e-03	
81	2.242284e-06	-5.00000e-04	-2.11420e-03	-2.88580e-03	
82	2.246284e-06	-5.00000e-04	-2.31420e-03	-2.68580e-03	
83	2.246374e-06	-9.50000e-04	-2.31870e-03	-2.68130e-03	
84	2.246554e-06	-1.85000e-03	-2.32770e-03	-2.67230e-03	
85	2.246914e-06	-3.65000e-03	-2.34570e-03	-2.65430e-03	
86	2.247184e-06	-5.00000e-03	-2.35920e-03	-2.64080e-03	
87	2.247256e-06	-5.00000e-03	-2.36280e-03	-2.63720e-03	
88	2.247400e-06	-5.00000e-03	-2.37000e-03	-2.63000e-03	
89	2.247688e-06	-5.00000e-03	-2.38440e-03	-2.61560e-03	
90	2.248264e-06	-5.00000e-03	-2.41320e-03	-2.58680e-03	
91	2.249416e-06	-5.00000e-03	-2.47080e-03	-2.52920e-03	
92	2.251720e-06	-5.00000e-03	-2.58600e-03	-2.41400e-03	
93	2.256328e-06	-5.00000e-03	-2.81640e-03	-2.18360e-03	
94	2.265544e-06	-5.00000e-03	-3.27720e-03	-1.72280e-03	
95	2.269544e-06	-5.00000e-03	-3.47720e-03	-1.52280e-03	
96	2.269634e-06	-4.55000e-03	-3.48170e-03	-1.51830e-03	
97	2.269814e-06	-3.65000e-03	-3.49070e-03	-1.50930e-03	
98	2.270174e-06	-1.85000e-03	-3.50870e-03	-1.49130e-03	
99	2.270444e-06	-5.00000e-04	-3.52220e-03	-1.47780e-03	
100	2.270516e-06	-5.00000e-04	-3.52580e-03	-1.47420e-03	
101	2.270660e-06	-5.00000e-04	-3.53300e-03	-1.46700e-03	
102	2.270948e-06	-5.00000e-04	-3.54740e-03	-1.45260e-03	
103	2.271524e-06	-5.00000e-04	-3.57620e-03	-1.42380e-03	
104	2.272676e-06	-5.00000e-04	-3.63380e-03	-1.36620e-03	
105	2.274980e-06	-5.00000e-04	-3.74900e-03	-1.25100e-03	
106	2.279588e-06	-5.00000e-04	-3.97940e-03	-1.02060e-03	
107	2.288804e-06	-5.00000e-04	-4.44020e-03	-5.59800e-04	
108	2.292804e-06	-5.00000e-04	-4.64020e-03	-3.59800e-04	
109	2.292814e-06	-4.50000e-04	-4.64070e-03	-3.59300e-04	
110	2.292834e-06	-3.50000e-04	-4.64170e-03	-3.58300e-04	
111	2.292874e-06	-1.50000e-04	-4.64370e-03	-3.56300e-04	
112	2.292904e-06	-1.02124e-15	-4.64520e-03	-3.54800e-04	

Index   time            a7#branch_1_0   v1#branch       v2#branch       
--------------------------------------------------------------------------------
113	2.292912e-06	0.000000e+00	-4.64560e-03	-3.54400e-04	
114	2.292928e-06	0.000000e+00	-4.64640e-03	-3.53600e-04	
115	2.292960e-06	0.000000e+00	-4.64800e-03	-3.52000e-04	
116	2.293024e-06	0.000000e+00	-4.65120e-03	-3.48800e-04	
117	2.293152e-06	0.000000e+00	-4.65760e-03	-3.42400e-04	
118	2.293408e-06	0.000000e+00	-4.67040e-03	-3.29600e-04	
119	2.293920e-06	0.000000e+00	-4.69600e-03	-3.04000e-04	
120	2.294944e-06	0.000000e+00	-4.74720e-03	-2.52800e-04	
121	2.296992e-06	0.000000e+00	-4.84960e-03	-1.50400e-04	
122	2.300000e-06	0.000000e+00	-5.00000e-03	0.000000e+00	
123	2.300410e-06	0.000000e+00	-5.00000e-03	0.000000e+00	
124	2.301229e-06	0.000000e+00	-5.00000e-03	0.000000e+00	
125	2.302867e-06	0.000000e+00	-5.00000e-03	0.000000e+00	
126	2.306144e-06	0.000000e+00	-5.00000e-03	0.000000e+00	
127	2.312698e-06	0.000000e+00	-5.00000e-03	0.000000e+00	
128	2.325805e-06	0.000000e+00	-5.00000e-03	0.000000e+00	
129	2.352019e-06	0.000000e+00	-5.00000e-03	0.000000e+00	
130	2.404448e-06	0.000000e+00	-5.00000e-03	0.000000e+00	
131	2.509306e-06	0.000000e+00	-5.00000e-03	0.000000e+00	
132	2.719021e-06	0.000000e+00	-5.00000e-03	0.000000e+00	
133	3.138451e-06	0.000000e+00	-5.00000e-03	0.000000e+00	
134	3.738451e-06	0.000000e+00	-5.00000e-03	0.000000e+00	
135	4.338451e-06	0.000000e+00	-5.00000e-03	0.000000e+00	
136	4.938451e-06	0.000000e+00	-5.00000e-03	0.000000e+00	
137	5.538451e-06	0.000000e+00	-5.00000e-03	0.000000e+00	
138	6.138451e-06	0.000000e+00	-5.00000e-03	0.000000e+00	
139	6.738451e-06	0.000000e+00	-5.00000e-03	0.000000e+00	
140	7.338451e-06	0.000000e+00	-5.00000e-03	0.000000e+00	
141	7.938451e-06	0.000000e+00	-5.00000e-03	0.000000e+00	
142	8.538451e-06	0.000000e+00	-5.00000e-03	0.000000e+00	
143	9.138451e-06	0.000000e+00	-5.00000e-03	0.000000e+00	
144	9.738451e-06	0.000000e+00	-5.00000e-03	0.000000e+00	
145	1.033845e-05	0.000000e+00	-5.00000e-03	0.000000e+00	
146	1.093845e-05	0.000000e+00	-5.00000e-03	0.000000e+00	
147	1.153845e-05	0.000000e+00	-5.00000e-03	0.000000e+00	
148	1.213845e-05	0.000000e+00	-5.00000e-03	0.000000e+00	
149	1.273845e-05	0.000000e+00	-5.00000e-03	0.000000e+00	
150	1.333845e-05	0.000000e+00	-5.00000e-03	0.000000e+00	
151	1.393845e-05	0.000000e+00	-5.00000e-03	0.000000e+00	
152	1.453845e-05	0.000000e+00	-5.00000e-03	0.000000e+00	
153	1.513845e-05	0.000000e+00	-5.00000e-03	0.000000e+00	
154	1.573845e-05	0.000000e+00	-5.00000e-03	0.000000e+00	
155	1.633845e-05	0.000000e+00	-5.00000e-03	0.000000e+00	
156	1.693845e-05	0.000000e+00	-5.00000e-03	0.000000e+00	
157	1.753845e-05	0.000000e+00	-5.00000e-03	0.000000e+00	
158	1.813845e-05	0.000000e+00	-5.00000e-03	0.000000e+00	
159	1.873845e-05	0.000000e+00	-5.00000e-03	0.000000e+00	
160	1.933845e-05	0.000000e+00	-5.00000e-03	0.000000e+00	
161	1.993845e-05	0.000000e+00	-5.00000e-03	0.000000e+00	
162	2.010000e-05	0.000000e+00	-5.00000e-03	0.000000e+00	
163	2.011000e-05	0.000000e+00	-4.50000e-03	-5.00000e-04	
164	2.013000e-05	0.000000e+00	-3.50000e-03	-1.50000e-03	
165	2.013400e-05	0.000000e+00	-3.30000e-03	-1.70000e-03	
166	2.013401e-05	-5.00000e-05	-3.29950e-03	-1.70050e-03	
167	2.013403e-05	-1.50000e-04	-3.29850e-03	-1.70150e-03	
168	2.013407e-05	-3.50000e-04	-3.29650e-03	-1.70350e-03	
169	2.013410e-05	-5.00000e-04	-3.29500e-03	-1.70500e-03	
170	2.013411e-05	-5.00000e-04	-3.29460e-03	-1.70540e-03	

Index   time            a7#branch_1_0   v1#branch       v2#branch       
--------------------------------------------------------------------------------
171	2.013412e-05	-5.00000e-04	-3.29380e-03	-1.70620e-03	
172	2.013416e-05	-5.00000e-04	-3.29220e-03	-1.70780e-03	
173	2.013422e-05	-5.00000e-04	-3.28900e-03	-1.71100e-03	
174	2.013435e-05	-5.00000e-04	-3.28260e-03	-1.71740e-03	
175	2.013460e-05	-5.00000e-04	-3.26980e-03	-1.73020e-03	
176	2.013512e-05	-5.00000e-04	-3.24420e-03	-1.75580e-03	
177	2.013614e-05	-5.00000e-04	-3.19300e-03	-1.80700e-03	
178	2.013819e-05	-5.00000e-04	-3.09060e-03	-1.90940e-03	
179	2.014228e-05	-5.00000e-04	-2.88580e-03	-2.11420e-03	
180	2.014628e-05	-5.00000e-04	-2.68580e-03	-2.31420e-03	
181	2.014637e-05	-9.50000e-04	-2.68130e-03	-2.31870e-03	
182	2.014655e-05	-1.85000e-03	-2.67230e-03	-2.32770e-03	
183	2.014691e-05	-3.65000e-03	-2.65430e-03	-2.34570e-03	
184	2.014718e-05	-5.00000e-03	-2.64080e-03	-2.35920e-03	
185	2.014726e-05	-5.00000e-03	-2.63720e-03	-2.36280e-03	
186	2.014740e-05	-5.00000e-03	-2.63000e-03	-2.37000e-03	
187	2.014769e-05	-5.00000e-03	-2.61560e-03	-2.38440e-03	
188	2.014826e-05	-5.00000e-03	-2.58680e-03	-2.41320e-03	
189	2.014942e-05	-5.00000e-03	-2.52920e-03	-2.47080e-03	
190	2.015172e-05	-5.00000e-03	-2.41400e-03	-2.58600e-03	
191	2.015633e-05	-5.00000e-03	-2.18360e-03	-2.81640e-03	
192	2.016554e-05	-5.00000e-03	-1.72280e-03	-3.27720e-03	
193	2.016954e-05	-5.00000e-03	-1.52280e-03	-3.47720e-03	
194	2.016963e-05	-4.55000e-03	-1.51830e-03	-3.48170e-03	
195	2.016981e-05	-3.65000e-03	-1.50930e-03	-3.49070e-03	
196	2.017017e-05	-1.85000e-03	-1.49130e-03	-3.50870e-03	
197	2.017044e-05	-5.00000e-04	-1.47780e-03	-3.52220e-03	
198	2.017052e-05	-5.00000e-04	-1.47420e-03	-3.52580e-03	
199	2.017066e-05	-5.00000e-04	-1.46700e-03	-3.53300e-03	
200	2.017095e-05	-5.00000e-04	-1.45260e-03	-3.54740e-03	
201	2.017152e-05	-5.00000e-04	-1.42380e-03	-3.57620e-03	
202	2.017268e-05	-5.00000e-04	-1.36620e-03	-3.63380e-03	
203	2.017498e-05	-5.00000e-04	-1.25100e-03	-3.74900e-03	
204	2.017959e-05	-5.00000e-04	-1.02060e-03	-3.97940e-03	
205	2.018880e-05	-5.00000e-04	-5.59800e-04	-4.44020e-03	
206	2.019280e-05	-5.00000e-04	-3.59800e-04	-4.64020e-03	
207	2.019281e-05	-4.50000e-04	-3.59300e-04	-4.64070e-03	
208	2.019283e-05	-3.50000e-04	-3.58300e-04	-4.64170e-03	
209	2.019287e-05	-1.50000e-04	-3.56300e-04	-4.64370e-03	
210	2.019290e-05	0.000000e+00	-3.54800e-04	-4.64520e-03	
211	2.019291e-05	0.000000e+00	-3.54400e-04	-4.64560e-03	
212	2.019293e-05	0.000000e+00	-3.53600e-04	-4.64640e-03	
213	2.019296e-05	0.000000e+00	-3.52000e-04	-4.64800e-03	
214	2.019302e-05	0.000000e+00	-3.48800e-04	-4.65120e-03	
215	2.019315e-05	0.000000e+00	-3.42400e-04	-4.65760e-03	
216	2.019341e-05	0.000000e+00	-3.29600e-04	-4.67040e-03	
217	2.019392e-05	0.000000e+00	-3.04000e-04	-4.69600e-03	
218	2.019494e-05	0.000000e+00	-2.52800e-04	-4.74720e-03	
219	2.019699e-05	0.000000e+00	-1.50400e-04	-4.84960e-03	
220	2.020000e-05	0.000000e+00	-4.79616e-17	-5.00000e-03	
221	2.020041e-05	0.000000e+00	0.000000e+00	-5.00000e-03	
222	2.020123e-05	0.000000e+00	0.000000e+00	-5.00000e-03	
223	2.020287e-05	0.000000e+00	0.000000e+00	-5.00000e-03	
224	2.020614e-05	0.000000e+00	0.000000e+00	-5.00000e-03	
225	2.021270e-05	0.000000e+00	0.000000e+00	-5.00000e-03	
226	2.022580e-05	0.000000e+00	0.000000e+00	-5.00000e-03	
227	2.025202e-05	0.000000e+00	0.000000e+00	-5.00000e-03	
228	2.030445e-05	0.000000e+00	0.000000e+00	-5.00000e-03	

Index   time            a7#branch_1_0   v1#branch       v2#branch       
--------------------------------------------------------------------------------
229	2.040931e-05	0.000000e+00	0.000000e+00	-5.00000e-03	
230	2.061902e-05	0.000000e+00	0.000000e+00	-5.00000e-03	
231	2.103845e-05	0.000000e+00	0.000000e+00	-5.00000e-03	
232	2.163845e-05	0.000000e+00	0.000000e+00	-5.00000e-03	
233	2.220000e-05	0.000000e+00	-2.11758e-17	-5.00000e-03	
234	2.221000e-05	0.000000e+00	-5.00000e-04	-4.50000e-03	
235	2.223000e-05	0.000000e+00	-1.50000e-03	-3.50000e-03	
236	2.223400e-05	0.000000e+00	-1.70000e-03	-3.30000e-03	
237	2.223401e-05	-5.00000e-05	-1.70050e-03	-3.29950e-03	
238	2.223403e-05	-1.50000e-04	-1.70150e-03	-3.29850e-03	
239	2.223407e-05	-3.50000e-04	-1.70350e-03	-3.29650e-03	
240	2.223410e-05	-5.00000e-04	-1.70500e-03	-3.29500e-03	
241	2.223411e-05	-5.00000e-04	-1.70540e-03	-3.29460e-03	
242	2.223412e-05	-5.00000e-04	-1.70620e-03	-3.29380e-03	
243	2.223416e-05	-5.00000e-04	-1.70780e-03	-3.29220e-03	
244	2.223422e-05	-5.00000e-04	-1.71100e-03	-3.28900e-03	
245	2.223435e-05	-5.00000e-04	-1.71740e-03	-3.28260e-03	
246	2.223460e-05	-5.00000e-04	-1.73020e-03	-3.26980e-03	
247	2.223512e-05	-5.00000e-04	-1.75580e-03	-3.24420e-03	
248	2.223614e-05	-5.00000e-04	-1.80700e-03	-3.19300e-03	
249	2.223819e-05	-5.00000e-04	-1.90940e-03	-3.09060e-03	
250	2.224228e-05	-5.00000e-04	-2.11420e-03	-2.88580e-03	
251	2.224628e-05	-5.00000e-04	-2.31420e-03	-2.68580e-03	
252	2.224637e-05	-9.50000e-04	-2.31870e-03	-2.68130e-03	
253	2.224655e-05	-1.85000e-03	-2.32770e-03	-2.67230e-03	
254	2.224691e-05	-3.65000e-03	-2.34570e-03	-2.65430e-03	
255	2.224718e-05	-5.00000e-03	-2.35920e-03	-2.64080e-03	
256	2.224726e-05	-5.00000e-03	-2.36280e-03	-2.63720e-03	
257	2.224740e-05	-5.00000e-03	-2.37000e-03	-2.63000e-03	
258	2.224769e-05	-5.00000e-03	-2.38440e-03	-2.61560e-03	
259	2.224826e-05	-5.00000e-03	-2.41320e-03	-2.58680e-03	
260	2.224942e-05	-5.00000e-03	-2.47080e-03	-2.52920e-03	
261	2.225172e-05	-5.00000e-03	-2.58600e-03	-2.41400e-03	
262	2.225633e-05	-5.00000e-03	-2.81640e-03	-2.18360e-03	
263	2.226554e-05	-5.00000e-03	-3.27720e-03	-1.72280e-03	
264	2.226954e-05	-5.00000e-03	-3.47720e-03	-1.52280e-03	
265	2.226963e-05	-4.55000e-03	-3.48170e-03	-1.51830e-03	
266	2.226981e-05	-3.65000e-03	-3.49070e-03	-1.50930e-03	
267	2.227017e-05	-1.85000e-03	-3.50870e-03	-1.49130e-03	
268	2.227044e-05	-5.00000e-04	-3.52220e-03	-1.47780e-03	
269	2.227052e-05	-5.00000e-04	-3.52580e-03	-1.47420e-03	
270	2.227066e-05	-5.00000e-04	-3.53300e-03	-1.46700e-03	
271	2.227095e-05	-5.00000e-04	-3.54740e-03	-1.45260e-03	
272	2.227152e-05	-5.00000e-04	-3.57620e-03	-1.42380e-03	
273	2.227268e-05	-5.00000e-04	-3.63380e-03	-1.36620e-03	
274	2.227498e-05	-5.00000e-04	-3.74900e-03	-1.25100e-03	
275	2.227959e-05	-5.00000e-04	-3.97940e-03	-1.02060e-03	
276	2.228880e-05	-5.00000e-04	-4.44020e-03	-5.59800e-04	
277	2.229280e-05	-5.00000e-04	-4.64020e-03	-3.59800e-04	
278	2.229281e-05	-4.50000e-04	-4.64070e-03	-3.59300e-04	
279	2.229283e-05	-3.50000e-04	-4.64170e-03	-3.58300e-04	
280	2.229287e-05	-1.50000e-04	-4.64370e-03	-3.56300e-04	
281	2.229290e-05	0.000000e+00	-4.64520e-03	-3.54800e-04	
282	2.229291e-05	0.000000e+00	-4.64560e-03	-3.54400e-04	
283	2.229293e-05	0.000000e+00	-4.64640e-03	-3.53600e-04	
284	2.229296e-05	0.000000e+00	-4.64800e-03	-3.52000e-04	
285	2.229302e-05	0.000000e+00	-4.65120e-03	-3.48800e-04	
286	2.229315e-05	0.000000e+00	-4.65760e-03	-3.42400e-04	

Index   time            a7#branch_1_0   v1#branch       v2#branch       
--------------------------------------------------------------------------------
287	2.229341e-05	0.000000e+00	-4.67040e-03	-3.29600e-04	
288	2.229392e-05	0.000000e+00	-4.69600e-03	-3.04000e-04	
289	2.229494e-05	0.000000e+00	-4.74720e-03	-2.52800e-04	
290	2.229699e-05	0.000000e+00	-4.84960e-03	-1.50400e-04	
291	2.230000e-05	0.000000e+00	-5.00000e-03	-2.66454e-17	
292	2.230041e-05	0.000000e+00	-5.00000e-03	0.000000e+00	
293	2.230123e-05	0.000000e+00	-5.00000e-03	0.000000e+00	
294	2.230287e-05	0.000000e+00	-5.00000e-03	0.000000e+00	
295	2.230614e-05	0.000000e+00	-5.00000e-03	0.000000e+00	
296	2.231270e-05	0.000000e+00	-5.00000e-03	0.000000e+00	
297	2.232580e-05	0.000000e+00	-5.00000e-03	0.000000e+00	
298	2.235202e-05	0.000000e+00	-5.00000e-03	0.000000e+00	
299	2.240445e-05	0.000000e+00	-5.00000e-03	0.000000e+00	
300	2.250931e-05	0.000000e+00	-5.00000e-03	0.000000e+00	
301	2.271902e-05	0.000000e+00	-5.00000e-03	0.000000e+00	
302	2.313845e-05	0.000000e+00	-5.00000e-03	0.000000e+00	
303	2.373845e-05	0.000000e+00	-5.00000e-03	0.000000e+00	
304	2.433845e-05	0.000000e+00	-5.00000e-03	0.000000e+00	
305	2.493845e-05	0.000000e+00	-5.00000e-03	0.000000e+00	
306	2.553845e-05	0.000000e+00	-5.00000e-03	0.000000e+00	
307	2.613845e-05	0.000000e+00	-5.00000e-03	0.000000e+00	
308	2.673845e-05	0.000000e+00	-5.00000e-03	0.000000e+00	
309	2.733845e-05	0.000000e+00	-5.00000e-03	0.000000e+00	
310	2.793845e-05	0.000000e+00	-5.00000e-03	0.000000e+00	
311	2.853845e-05	0.000000e+00	-5.00000e-03	0.000000e+00	
312	2.913845e-05	0.000000e+00	-5.00000e-03	0.000000e+00	
313	2.973845e-05	0.000000e+00	-5.00000e-03	0.000000e+00	
314	3.000000e-05	0.000000e+00	-5.00000e-03	0.000000e+00	
