    * /home/fossee/downloads/labmigration/lm_solve/basicgates/basicgates.cir
    Transient Analysis  Tue Aug 29 19:41:41  2017
--------------------------------------------------------------------------------
Index   time            a               b               out             
--------------------------------------------------------------------------------
0	0.000000e+00	0.000000e+00	0.000000e+00	5.000000e+00	
1	1.000000e-09	0.000000e+00	0.000000e+00	5.000000e+00	
2	2.000000e-09	0.000000e+00	0.000000e+00	5.000000e+00	
3	4.000000e-09	0.000000e+00	0.000000e+00	5.000000e+00	
4	8.000000e-09	0.000000e+00	0.000000e+00	5.000000e+00	
5	1.600000e-08	0.000000e+00	0.000000e+00	5.000000e+00	
6	3.200000e-08	0.000000e+00	0.000000e+00	5.000000e+00	
7	6.400000e-08	0.000000e+00	0.000000e+00	5.000000e+00	
8	1.000000e-07	0.000000e+00	0.000000e+00	5.000000e+00	
9	1.064000e-07	3.200000e-01	3.200000e-01	5.000000e+00	
10	1.192000e-07	9.600000e-01	9.600000e-01	5.000000e+00	
11	1.448000e-07	2.240000e+00	2.240000e+00	5.000000e+00	
12	1.488000e-07	2.440000e+00	2.440000e+00	5.000000e+00	
13	1.489000e-07	2.445000e+00	2.445000e+00	4.500000e+00	
14	1.491000e-07	2.455000e+00	2.455000e+00	3.500000e+00	
15	1.495000e-07	2.475000e+00	2.475000e+00	1.500000e+00	
16	1.498000e-07	2.490000e+00	2.490000e+00	2.198242e-14	
17	1.498800e-07	2.494000e+00	2.494000e+00	4.000000e-01	
18	1.500400e-07	2.502000e+00	2.502000e+00	1.200000e+00	
19	1.503600e-07	2.518000e+00	2.518000e+00	2.800000e+00	
20	1.508000e-07	2.540000e+00	2.540000e+00	5.000000e+00	
21	1.508640e-07	2.543200e+00	2.543200e+00	5.000000e+00	
22	1.509920e-07	2.549600e+00	2.549600e+00	5.000000e+00	
23	1.512480e-07	2.562400e+00	2.562400e+00	5.000000e+00	
24	1.517600e-07	2.588000e+00	2.588000e+00	5.000000e+00	
25	1.527840e-07	2.639200e+00	2.639200e+00	5.000000e+00	
26	1.548320e-07	2.741600e+00	2.741600e+00	5.000000e+00	
27	1.589280e-07	2.946400e+00	2.946400e+00	5.000000e+00	
28	1.671200e-07	3.356000e+00	3.356000e+00	5.000000e+00	
29	1.835040e-07	4.175200e+00	4.175200e+00	5.000000e+00	
30	2.000000e-07	5.000000e+00	5.000000e+00	5.000000e+00	
31	2.032768e-07	5.000000e+00	5.000000e+00	5.000000e+00	
32	2.098304e-07	5.000000e+00	5.000000e+00	5.000000e+00	
33	2.229376e-07	5.000000e+00	5.000000e+00	5.000000e+00	
34	2.491520e-07	5.000000e+00	5.000000e+00	5.000000e+00	
35	3.015808e-07	5.000000e+00	5.000000e+00	5.000000e+00	
36	4.064384e-07	5.000000e+00	5.000000e+00	5.000000e+00	
37	6.161536e-07	5.000000e+00	5.000000e+00	5.000000e+00	
38	1.035584e-06	5.000000e+00	5.000000e+00	5.000000e+00	
39	1.635584e-06	5.000000e+00	5.000000e+00	5.000000e+00	
40	2.200000e-06	5.000000e+00	5.000000e+00	5.000000e+00	
41	2.210000e-06	4.500000e+00	4.500000e+00	5.000000e+00	
42	2.230000e-06	3.500000e+00	3.500000e+00	5.000000e+00	
43	2.270000e-06	1.500000e+00	1.500000e+00	5.000000e+00	
44	2.274000e-06	1.300000e+00	1.300000e+00	5.000000e+00	
45	2.274090e-06	1.295500e+00	1.295500e+00	4.550000e+00	
46	2.274270e-06	1.286500e+00	1.286500e+00	3.650000e+00	
47	2.274630e-06	1.268500e+00	1.268500e+00	1.850000e+00	
48	2.274900e-06	1.255000e+00	1.255000e+00	5.000000e-01	
49	2.274972e-06	1.251400e+00	1.251400e+00	5.000000e-01	
50	2.275116e-06	1.244200e+00	1.244200e+00	5.000000e-01	
51	2.275404e-06	1.229800e+00	1.229800e+00	5.000000e-01	
52	2.275980e-06	1.201000e+00	1.201000e+00	5.000000e-01	
53	2.277132e-06	1.143400e+00	1.143400e+00	5.000000e-01	
54	2.279436e-06	1.028200e+00	1.028200e+00	5.000000e-01	

Index   time            a               b               out             
--------------------------------------------------------------------------------
55	2.284044e-06	7.978000e-01	7.978000e-01	5.000000e-01	
56	2.289044e-06	5.478000e-01	5.478000e-01	5.000000e-01	
57	2.289134e-06	5.433000e-01	5.433000e-01	9.500000e-01	
58	2.289314e-06	5.343000e-01	5.343000e-01	1.850000e+00	
59	2.289674e-06	5.163000e-01	5.163000e-01	3.650000e+00	
60	2.289944e-06	5.028000e-01	5.028000e-01	5.000000e+00	
61	2.290016e-06	4.992000e-01	4.992000e-01	5.000000e+00	
62	2.290160e-06	4.920000e-01	4.920000e-01	5.000000e+00	
63	2.290448e-06	4.776000e-01	4.776000e-01	5.000000e+00	
64	2.291024e-06	4.488000e-01	4.488000e-01	5.000000e+00	
65	2.292176e-06	3.912000e-01	3.912000e-01	5.000000e+00	
66	2.294480e-06	2.760000e-01	2.760000e-01	5.000000e+00	
67	2.299088e-06	4.560000e-02	4.560000e-02	5.000000e+00	
68	2.300000e-06	0.000000e+00	0.000000e+00	5.000000e+00	
69	2.300922e-06	0.000000e+00	0.000000e+00	5.000000e+00	
70	2.302765e-06	0.000000e+00	0.000000e+00	5.000000e+00	
71	2.306451e-06	0.000000e+00	0.000000e+00	5.000000e+00	
72	2.313824e-06	0.000000e+00	0.000000e+00	5.000000e+00	
73	2.328570e-06	0.000000e+00	0.000000e+00	5.000000e+00	
74	2.358061e-06	0.000000e+00	0.000000e+00	5.000000e+00	
75	2.417043e-06	0.000000e+00	0.000000e+00	5.000000e+00	
76	2.535008e-06	0.000000e+00	0.000000e+00	5.000000e+00	
77	2.770938e-06	0.000000e+00	0.000000e+00	5.000000e+00	
78	3.242797e-06	0.000000e+00	0.000000e+00	5.000000e+00	
79	3.842797e-06	0.000000e+00	0.000000e+00	5.000000e+00	
80	4.442797e-06	0.000000e+00	0.000000e+00	5.000000e+00	
81	5.042797e-06	0.000000e+00	0.000000e+00	5.000000e+00	
82	5.642797e-06	0.000000e+00	0.000000e+00	5.000000e+00	
83	6.242797e-06	0.000000e+00	0.000000e+00	5.000000e+00	
84	6.842797e-06	0.000000e+00	0.000000e+00	5.000000e+00	
85	7.442797e-06	0.000000e+00	0.000000e+00	5.000000e+00	
86	8.042797e-06	0.000000e+00	0.000000e+00	5.000000e+00	
87	8.642797e-06	0.000000e+00	0.000000e+00	5.000000e+00	
88	9.242797e-06	0.000000e+00	0.000000e+00	5.000000e+00	
89	9.842797e-06	0.000000e+00	0.000000e+00	5.000000e+00	
90	1.044280e-05	0.000000e+00	0.000000e+00	5.000000e+00	
91	1.104280e-05	0.000000e+00	0.000000e+00	5.000000e+00	
92	1.164280e-05	0.000000e+00	0.000000e+00	5.000000e+00	
93	1.224280e-05	0.000000e+00	0.000000e+00	5.000000e+00	
94	1.284280e-05	0.000000e+00	0.000000e+00	5.000000e+00	
95	1.344280e-05	0.000000e+00	0.000000e+00	5.000000e+00	
96	1.404280e-05	0.000000e+00	0.000000e+00	5.000000e+00	
97	1.464280e-05	0.000000e+00	0.000000e+00	5.000000e+00	
98	1.524280e-05	0.000000e+00	0.000000e+00	5.000000e+00	
99	1.584280e-05	0.000000e+00	0.000000e+00	5.000000e+00	
100	1.644280e-05	0.000000e+00	0.000000e+00	5.000000e+00	
101	1.704280e-05	0.000000e+00	0.000000e+00	5.000000e+00	
102	1.764280e-05	0.000000e+00	0.000000e+00	5.000000e+00	
103	1.824280e-05	0.000000e+00	0.000000e+00	5.000000e+00	
104	1.884280e-05	0.000000e+00	0.000000e+00	5.000000e+00	
105	1.944280e-05	0.000000e+00	0.000000e+00	5.000000e+00	
106	2.004280e-05	0.000000e+00	0.000000e+00	5.000000e+00	
107	2.010000e-05	0.000000e+00	0.000000e+00	5.000000e+00	
108	2.011000e-05	5.000000e-01	5.000000e-01	5.000000e+00	
109	2.013000e-05	1.500000e+00	1.500000e+00	5.000000e+00	
110	2.013400e-05	1.700000e+00	1.700000e+00	5.000000e+00	
111	2.013409e-05	1.704500e+00	1.704500e+00	4.550000e+00	
112	2.013427e-05	1.713500e+00	1.713500e+00	3.650000e+00	

Index   time            a               b               out             
--------------------------------------------------------------------------------
113	2.013463e-05	1.731500e+00	1.731500e+00	1.850000e+00	
114	2.013490e-05	1.745000e+00	1.745000e+00	5.000000e-01	
115	2.013497e-05	1.748600e+00	1.748600e+00	5.000000e-01	
116	2.013512e-05	1.755800e+00	1.755800e+00	5.000000e-01	
117	2.013540e-05	1.770200e+00	1.770200e+00	5.000000e-01	
118	2.013598e-05	1.799000e+00	1.799000e+00	5.000000e-01	
119	2.013713e-05	1.856600e+00	1.856600e+00	5.000000e-01	
120	2.013944e-05	1.971800e+00	1.971800e+00	5.000000e-01	
121	2.014404e-05	2.202200e+00	2.202200e+00	5.000000e-01	
122	2.014904e-05	2.452200e+00	2.452200e+00	5.000000e-01	
123	2.014913e-05	2.456700e+00	2.456700e+00	9.500000e-01	
124	2.014931e-05	2.465700e+00	2.465700e+00	1.850000e+00	
125	2.014967e-05	2.483700e+00	2.483700e+00	3.650000e+00	
126	2.014994e-05	2.497200e+00	2.497200e+00	5.000000e+00	
127	2.015002e-05	2.500800e+00	2.500800e+00	5.000000e+00	
128	2.015016e-05	2.508000e+00	2.508000e+00	5.000000e+00	
129	2.015045e-05	2.522400e+00	2.522400e+00	5.000000e+00	
130	2.015102e-05	2.551200e+00	2.551200e+00	5.000000e+00	
131	2.015218e-05	2.608800e+00	2.608800e+00	5.000000e+00	
132	2.015448e-05	2.724000e+00	2.724000e+00	5.000000e+00	
133	2.015909e-05	2.954400e+00	2.954400e+00	5.000000e+00	
134	2.016830e-05	3.415200e+00	3.415200e+00	5.000000e+00	
135	2.018674e-05	4.336800e+00	4.336800e+00	5.000000e+00	
136	2.020000e-05	5.000000e+00	5.000000e+00	5.000000e+00	
137	2.020369e-05	5.000000e+00	5.000000e+00	5.000000e+00	
138	2.021106e-05	5.000000e+00	5.000000e+00	5.000000e+00	
139	2.022580e-05	5.000000e+00	5.000000e+00	5.000000e+00	
140	2.025530e-05	5.000000e+00	5.000000e+00	5.000000e+00	
141	2.031428e-05	5.000000e+00	5.000000e+00	5.000000e+00	
142	2.043224e-05	5.000000e+00	5.000000e+00	5.000000e+00	
143	2.066817e-05	5.000000e+00	5.000000e+00	5.000000e+00	
144	2.114003e-05	5.000000e+00	5.000000e+00	5.000000e+00	
145	2.174003e-05	5.000000e+00	5.000000e+00	5.000000e+00	
146	2.220000e-05	5.000000e+00	5.000000e+00	5.000000e+00	
147	2.221000e-05	4.500000e+00	4.500000e+00	5.000000e+00	
148	2.223000e-05	3.500000e+00	3.500000e+00	5.000000e+00	
149	2.227000e-05	1.500000e+00	1.500000e+00	5.000000e+00	
150	2.227400e-05	1.300000e+00	1.300000e+00	5.000000e+00	
151	2.227409e-05	1.295500e+00	1.295500e+00	4.550000e+00	
152	2.227427e-05	1.286500e+00	1.286500e+00	3.650000e+00	
153	2.227463e-05	1.268500e+00	1.268500e+00	1.850000e+00	
154	2.227490e-05	1.255000e+00	1.255000e+00	5.000000e-01	
155	2.227497e-05	1.251400e+00	1.251400e+00	5.000000e-01	
156	2.227512e-05	1.244200e+00	1.244200e+00	5.000000e-01	
157	2.227540e-05	1.229800e+00	1.229800e+00	5.000000e-01	
158	2.227598e-05	1.201000e+00	1.201000e+00	5.000000e-01	
159	2.227713e-05	1.143400e+00	1.143400e+00	5.000000e-01	
160	2.227944e-05	1.028200e+00	1.028200e+00	5.000000e-01	
161	2.228404e-05	7.978000e-01	7.978000e-01	5.000000e-01	
162	2.228904e-05	5.478000e-01	5.478000e-01	5.000000e-01	
163	2.228913e-05	5.433000e-01	5.433000e-01	9.500000e-01	
164	2.228931e-05	5.343000e-01	5.343000e-01	1.850000e+00	
165	2.228967e-05	5.163000e-01	5.163000e-01	3.650000e+00	
166	2.228994e-05	5.028000e-01	5.028000e-01	5.000000e+00	
167	2.229002e-05	4.992000e-01	4.992000e-01	5.000000e+00	
168	2.229016e-05	4.920000e-01	4.920000e-01	5.000000e+00	
169	2.229045e-05	4.776000e-01	4.776000e-01	5.000000e+00	
170	2.229102e-05	4.488000e-01	4.488000e-01	5.000000e+00	

Index   time            a               b               out             
--------------------------------------------------------------------------------
171	2.229218e-05	3.912000e-01	3.912000e-01	5.000000e+00	
172	2.229448e-05	2.760000e-01	2.760000e-01	5.000000e+00	
173	2.229909e-05	4.560000e-02	4.560000e-02	5.000000e+00	
174	2.230000e-05	2.664535e-14	2.664535e-14	5.000000e+00	
175	2.230092e-05	0.000000e+00	0.000000e+00	5.000000e+00	
176	2.230276e-05	0.000000e+00	0.000000e+00	5.000000e+00	
177	2.230645e-05	0.000000e+00	0.000000e+00	5.000000e+00	
178	2.231382e-05	0.000000e+00	0.000000e+00	5.000000e+00	
179	2.232857e-05	0.000000e+00	0.000000e+00	5.000000e+00	
180	2.235806e-05	0.000000e+00	0.000000e+00	5.000000e+00	
181	2.241704e-05	0.000000e+00	0.000000e+00	5.000000e+00	
182	2.253501e-05	0.000000e+00	0.000000e+00	5.000000e+00	
183	2.277094e-05	0.000000e+00	0.000000e+00	5.000000e+00	
184	2.324280e-05	0.000000e+00	0.000000e+00	5.000000e+00	
185	2.384280e-05	0.000000e+00	0.000000e+00	5.000000e+00	
186	2.444280e-05	0.000000e+00	0.000000e+00	5.000000e+00	
187	2.504280e-05	0.000000e+00	0.000000e+00	5.000000e+00	
188	2.564280e-05	0.000000e+00	0.000000e+00	5.000000e+00	
189	2.624280e-05	0.000000e+00	0.000000e+00	5.000000e+00	
190	2.684280e-05	0.000000e+00	0.000000e+00	5.000000e+00	
191	2.744280e-05	0.000000e+00	0.000000e+00	5.000000e+00	
192	2.804280e-05	0.000000e+00	0.000000e+00	5.000000e+00	
193	2.864280e-05	0.000000e+00	0.000000e+00	5.000000e+00	
194	2.924280e-05	0.000000e+00	0.000000e+00	5.000000e+00	
195	2.984280e-05	0.000000e+00	0.000000e+00	5.000000e+00	
196	3.000000e-05	0.000000e+00	0.000000e+00	5.000000e+00	
