            * /home/fossee/updatedexamples/diac_triac/diac_triac.cir
            Transient Analysis  Thu Mar  3 18:25:52  2016
--------------------------------------------------------------------------------
Index   time            in              net-_c1-pad1_   net-_c2-pad1_   
--------------------------------------------------------------------------------
0	0.000000e+00	0.000000e+00	0.000000e+00	0.000000e+00	
1	2.000000e-07	1.256637e-02	2.492990e-06	1.978556e-08	
2	2.020379e-07	1.269442e-02	2.518651e-06	1.998924e-08	
3	2.061138e-07	1.295051e-02	2.570492e-06	2.040080e-08	
4	2.142655e-07	1.346270e-02	2.677278e-06	2.124957e-08	
5	2.305689e-07	1.448707e-02	2.903266e-06	2.305476e-08	
6	2.631757e-07	1.653582e-02	3.404861e-06	2.713578e-08	
7	3.283894e-07	2.063332e-02	4.606204e-06	3.750005e-08	
8	4.588168e-07	2.882831e-02	7.798889e-06	6.957987e-08	
9	6.039989e-07	3.795037e-02	1.258633e-05	1.281967e-07	
10	7.721973e-07	4.851859e-02	1.974803e-05	2.357436e-07	
11	9.761298e-07	6.133204e-02	3.074077e-05	4.389168e-07	
12	1.230181e-06	7.729458e-02	4.794658e-05	8.322679e-07	
13	1.546281e-06	9.715566e-02	7.473869e-05	1.592545e-06	
14	1.942878e-06	1.220746e-01	1.166925e-04	3.073937e-06	
15	2.440339e-06	1.533310e-01	1.822356e-04	5.958133e-06	
16	3.068528e-06	1.928012e-01	2.851554e-04	1.160951e-05	
17	3.863297e-06	2.427378e-01	4.468508e-04	2.269942e-05	
18	4.875532e-06	3.063383e-01	7.022654e-04	4.459986e-05	
19	6.170784e-06	3.877208e-01	1.107147e-03	8.803522e-05	
20	7.842642e-06	4.927657e-01	1.753906e-03	1.749047e-04	
21	1.002036e-05	6.295934e-01	2.795753e-03	3.501815e-04	
22	1.289609e-05	8.102765e-01	4.497067e-03	7.086967e-04	
23	1.675927e-05	1.052997e+00	7.326920e-03	1.455007e-03	
24	2.207857e-05	1.387193e+00	1.217014e-02	3.049755e-03	
25	2.965883e-05	1.863412e+00	2.082455e-02	6.589833e-03	
26	4.103489e-05	2.578013e+00	3.740573e-02	1.493812e-02	
27	5.956594e-05	3.741764e+00	7.312575e-02	3.674109e-02	
28	7.956594e-05	4.997193e+00	1.233915e-01	7.187953e-02	
29	9.956594e-05	6.251832e+00	1.855787e-01	1.190573e-01	
30	1.195659e-04	7.505485e+00	2.595406e-01	1.781618e-01	
31	1.395659e-04	8.757952e+00	3.451446e-01	2.490648e-01	
32	1.595659e-04	1.000904e+01	4.422591e-01	3.316356e-01	
33	1.795659e-04	1.125854e+01	5.507516e-01	4.257422e-01	
34	1.995659e-04	1.250626e+01	6.704886e-01	5.312515e-01	
35	2.195659e-04	1.375202e+01	8.013356e-01	6.480286e-01	
36	2.395659e-04	1.499559e+01	9.431562e-01	7.759368e-01	
37	2.595659e-04	1.623681e+01	1.095813e+00	9.148372e-01	
38	2.795659e-04	1.747545e+01	1.259165e+00	1.064588e+00	
39	2.995659e-04	1.871134e+01	1.433069e+00	1.225043e+00	
40	3.195659e-04	1.994427e+01	1.617379e+00	1.396052e+00	
41	3.395659e-04	2.117406e+01	1.811944e+00	1.577459e+00	
42	3.595659e-04	2.240050e+01	2.016608e+00	1.769101e+00	
43	3.795659e-04	2.362340e+01	2.231205e+00	1.970803e+00	
44	3.995659e-04	2.484257e+01	2.455563e+00	2.182380e+00	
45	4.195659e-04	2.605782e+01	2.689496e+00	2.403627e+00	
46	4.395659e-04	2.726896e+01	2.932801e+00	2.634319e+00	
47	4.595659e-04	2.847578e+01	3.185254e+00	2.874202e+00	
48	4.795659e-04	2.967811e+01	3.446605e+00	3.122982e+00	
49	4.995659e-04	3.087576e+01	3.716563e+00	3.380314e+00	
50	5.195659e-04	3.206853e+01	3.994790e+00	3.645783e+00	
51	5.395659e-04	3.325623e+01	4.280881e+00	3.918887e+00	
52	5.595659e-04	3.443869e+01	4.574343e+00	4.198999e+00	
53	5.795659e-04	3.561570e+01	4.874568e+00	4.485339e+00	
54	5.995659e-04	3.678710e+01	5.180800e+00	4.776921e+00	

Index   time            in              net-_c1-pad1_   net-_c2-pad1_   
--------------------------------------------------------------------------------
55	6.195659e-04	3.795268e+01	5.492084e+00	5.072500e+00	
56	6.395659e-04	3.911227e+01	5.807221e+00	5.370507e+00	
57	6.595659e-04	4.026568e+01	6.124707e+00	5.668986e+00	
58	6.795659e-04	4.141274e+01	6.442674e+00	5.965536e+00	
59	6.995659e-04	4.255325e+01	6.758843e+00	6.257293e+00	
60	7.195659e-04	4.368705e+01	7.070513e+00	6.540964e+00	
61	7.395659e-04	4.481394e+01	7.374595e+00	6.812953e+00	
62	7.595659e-04	4.593376e+01	7.667738e+00	7.069603e+00	
63	7.795659e-04	4.704633e+01	7.946539e+00	7.307533e+00	
64	7.995659e-04	4.815147e+01	8.207845e+00	7.524031e+00	
65	8.195659e-04	4.924900e+01	8.449079e+00	7.717390e+00	
66	8.395659e-04	5.033876e+01	8.668533e+00	7.887104e+00	
67	8.595659e-04	5.142056e+01	8.865537e+00	8.033845e+00	
68	8.795659e-04	5.249425e+01	9.040465e+00	8.159256e+00	
69	8.820659e-04	5.262788e+01	9.060655e+00	8.173377e+00	
70	8.870659e-04	5.289476e+01	9.100396e+00	8.201044e+00	
71	8.945205e-04	5.329167e+01	9.157314e+00	8.240216e+00	
72	8.960392e-04	5.337239e+01	9.168518e+00	8.247852e+00	
73	8.990766e-04	5.353368e+01	9.190705e+00	8.262930e+00	
74	8.998359e-04	5.357397e+01	9.196169e+00	8.266628e+00	
75	9.013546e-04	5.365452e+01	9.207044e+00	8.273976e+00	
76	9.017343e-04	5.367465e+01	9.209742e+00	8.275796e+00	
77	9.024936e-04	5.371490e+01	9.215126e+00	8.279424e+00	
78	9.026835e-04	5.372496e+01	9.216466e+00	8.280326e+00	
79	9.030632e-04	5.374508e+01	9.219145e+00	8.282129e+00	
80	9.033623e-04	5.376093e+01	9.221250e+00	8.283544e+00	
81	9.036833e-04	5.377794e+01	9.223505e+00	8.285060e+00	
82	9.041052e-04	5.380028e+01	9.226461e+00	8.287045e+00	
83	9.045059e-04	5.382151e+01	9.229261e+00	8.288925e+00	
84	9.049423e-04	5.384461e+01	9.232302e+00	8.290964e+00	
85	9.054180e-04	5.386980e+01	9.235607e+00	8.293179e+00	
86	9.063695e-04	5.392015e+01	9.242187e+00	8.297582e+00	
87	9.082724e-04	5.402081e+01	9.255224e+00	8.306284e+00	
88	9.120783e-04	5.422189e+01	9.280814e+00	8.323275e+00	
89	9.164663e-04	5.445334e+01	9.309534e+00	8.342212e+00	
90	9.219772e-04	5.474344e+01	9.344454e+00	8.365029e+00	
91	9.279739e-04	5.505836e+01	9.381050e+00	8.388700e+00	
92	9.357077e-04	5.546335e+01	9.426194e+00	8.417547e+00	
93	9.447892e-04	5.593725e+01	9.476428e+00	8.449197e+00	
94	9.570960e-04	5.657653e+01	9.540118e+00	8.488677e+00	
95	9.730132e-04	5.739835e+01	9.615804e+00	8.534521e+00	
96	9.930132e-04	5.842281e+01	9.701690e+00	8.585098e+00	
97	1.013013e-03	5.943804e+01	9.778949e+00	8.629183e+00	
98	1.033013e-03	6.044389e+01	9.849155e+00	8.668090e+00	
99	1.053013e-03	6.144019e+01	9.913660e+00	8.702956e+00	
100	1.073013e-03	6.242679e+01	9.973587e+00	8.734617e+00	
101	1.093013e-03	6.340353e+01	1.002983e+01	8.763722e+00	
102	1.113013e-03	6.437026e+01	1.008305e+01	8.790694e+00	
103	1.133013e-03	6.532683e+01	1.013381e+01	8.816044e+00	
104	1.153013e-03	6.627308e+01	1.018255e+01	8.840084e+00	
105	1.173013e-03	6.720887e+01	1.022959e+01	8.862904e+00	
106	1.193013e-03	6.813404e+01	1.027513e+01	8.884723e+00	
107	1.213013e-03	6.904845e+01	1.031937e+01	8.905667e+00	
108	1.233013e-03	6.995196e+01	1.036243e+01	8.925834e+00	
109	1.253013e-03	7.084442e+01	1.040444e+01	8.945301e+00	
110	1.273013e-03	7.172570e+01	1.044545e+01	8.964128e+00	
111	1.293013e-03	7.259565e+01	1.048555e+01	8.982363e+00	
112	1.313013e-03	7.345413e+01	1.052478e+01	9.000042e+00	

Index   time            in              net-_c1-pad1_   net-_c2-pad1_   
--------------------------------------------------------------------------------
113	1.333013e-03	7.430102e+01	1.056317e+01	9.017197e+00	
114	1.353013e-03	7.513617e+01	1.060075e+01	9.033854e+00	
115	1.373013e-03	7.595946e+01	1.063756e+01	9.050035e+00	
116	1.393013e-03	7.677076e+01	1.067359e+01	9.065729e+00	
117	1.413013e-03	7.756993e+01	1.070888e+01	9.081007e+00	
118	1.433013e-03	7.835685e+01	1.074345e+01	9.095890e+00	
119	1.453013e-03	7.913140e+01	1.077731e+01	9.110339e+00	
120	1.473013e-03	7.989345e+01	1.081046e+01	9.124388e+00	
121	1.493013e-03	8.064289e+01	1.084292e+01	9.138048e+00	
122	1.513013e-03	8.137959e+01	1.087468e+01	9.151329e+00	
123	1.533013e-03	8.210344e+01	1.090576e+01	9.164242e+00	
124	1.553013e-03	8.281432e+01	1.093616e+01	9.176795e+00	
125	1.573013e-03	8.351213e+01	1.096590e+01	9.188998e+00	
126	1.593013e-03	8.419675e+01	1.099497e+01	9.200858e+00	
127	1.613013e-03	8.486808e+01	1.102339e+01	9.212384e+00	
128	1.633013e-03	8.552600e+01	1.105115e+01	9.223582e+00	
129	1.653013e-03	8.617042e+01	1.107827e+01	9.234459e+00	
130	1.673013e-03	8.680123e+01	1.110474e+01	9.245007e+00	
131	1.693013e-03	8.741834e+01	1.113057e+01	9.255260e+00	
132	1.713013e-03	8.802164e+01	1.115576e+01	9.265225e+00	
133	1.733013e-03	8.861104e+01	1.118033e+01	9.274882e+00	
134	1.753013e-03	8.918644e+01	1.120427e+01	9.284248e+00	
135	1.773013e-03	8.974777e+01	1.122758e+01	9.293327e+00	
136	1.793013e-03	9.029492e+01	1.125027e+01	9.302124e+00	
137	1.813013e-03	9.082781e+01	1.127234e+01	9.310644e+00	
138	1.833013e-03	9.134636e+01	1.129378e+01	9.318891e+00	
139	1.853013e-03	9.185049e+01	1.131461e+01	9.326870e+00	
140	1.873013e-03	9.234011e+01	1.133483e+01	9.334584e+00	
141	1.893013e-03	9.281515e+01	1.135443e+01	9.342037e+00	
142	1.913013e-03	9.327553e+01	1.137343e+01	9.349233e+00	
143	1.933013e-03	9.372118e+01	1.139181e+01	9.356175e+00	
144	1.953013e-03	9.415204e+01	1.140959e+01	9.362866e+00	
145	1.973013e-03	9.456803e+01	1.142676e+01	9.369310e+00	
146	1.993013e-03	9.496908e+01	1.144332e+01	9.375509e+00	
147	2.013013e-03	9.535513e+01	1.145929e+01	9.381467e+00	
148	2.033013e-03	9.572613e+01	1.147465e+01	9.387185e+00	
149	2.053013e-03	9.608202e+01	1.148941e+01	9.392666e+00	
150	2.073013e-03	9.642273e+01	1.150357e+01	9.397913e+00	
151	2.093013e-03	9.674821e+01	1.151713e+01	9.402929e+00	
152	2.113013e-03	9.705842e+01	1.153009e+01	9.407714e+00	
153	2.133013e-03	9.735329e+01	1.154246e+01	9.412272e+00	
154	2.153013e-03	9.763280e+01	1.155423e+01	9.416604e+00	
155	2.173013e-03	9.789689e+01	1.156540e+01	9.420712e+00	
156	2.193013e-03	9.814552e+01	1.157598e+01	9.424597e+00	
157	2.213013e-03	9.837865e+01	1.158597e+01	9.428262e+00	
158	2.233013e-03	9.859625e+01	1.159536e+01	9.431708e+00	
159	2.253013e-03	9.879827e+01	1.160416e+01	9.434936e+00	
160	2.273013e-03	9.898470e+01	1.161237e+01	9.437948e+00	
161	2.293013e-03	9.915549e+01	1.161998e+01	9.440745e+00	
162	2.313013e-03	9.931063e+01	1.162701e+01	9.443328e+00	
163	2.333013e-03	9.945008e+01	1.163344e+01	9.445698e+00	
164	2.353013e-03	9.957383e+01	1.163928e+01	9.447856e+00	
165	2.373013e-03	9.968186e+01	1.164454e+01	9.449803e+00	
166	2.393013e-03	9.977415e+01	1.164920e+01	9.451540e+00	
167	2.413013e-03	9.985068e+01	1.165328e+01	9.453068e+00	
168	2.433013e-03	9.991144e+01	1.165676e+01	9.454387e+00	
169	2.453013e-03	9.995642e+01	1.165966e+01	9.455498e+00	
170	2.473013e-03	9.998562e+01	1.166197e+01	9.456401e+00	

Index   time            in              net-_c1-pad1_   net-_c2-pad1_   
--------------------------------------------------------------------------------
171	2.493013e-03	9.999904e+01	1.166369e+01	9.457098e+00	
172	2.513013e-03	9.999666e+01	1.166483e+01	9.457587e+00	
173	2.533013e-03	9.997849e+01	1.166538e+01	9.457871e+00	
174	2.553013e-03	9.994453e+01	1.166534e+01	9.457948e+00	
175	2.573013e-03	9.989479e+01	1.166472e+01	9.457819e+00	
176	2.593013e-03	9.982928e+01	1.166351e+01	9.457484e+00	
177	2.613013e-03	9.974800e+01	1.166171e+01	9.456944e+00	
178	2.633013e-03	9.965097e+01	1.165933e+01	9.456197e+00	
179	2.653013e-03	9.953820e+01	1.165636e+01	9.455245e+00	
180	2.673013e-03	9.940972e+01	1.165281e+01	9.454086e+00	
181	2.693013e-03	9.926553e+01	1.164868e+01	9.452721e+00	
182	2.713013e-03	9.910568e+01	1.164396e+01	9.451148e+00	
183	2.733013e-03	9.893017e+01	1.163865e+01	9.449369e+00	
184	2.753013e-03	9.873904e+01	1.163276e+01	9.447382e+00	
185	2.773013e-03	9.853232e+01	1.162629e+01	9.445187e+00	
186	2.793013e-03	9.831004e+01	1.161924e+01	9.442782e+00	
187	2.813013e-03	9.807223e+01	1.161160e+01	9.440168e+00	
188	2.833013e-03	9.781894e+01	1.160338e+01	9.437344e+00	
189	2.853013e-03	9.755020e+01	1.159457e+01	9.434309e+00	
190	2.873013e-03	9.726606e+01	1.158518e+01	9.431061e+00	
191	2.893013e-03	9.696656e+01	1.157521e+01	9.427600e+00	
192	2.913013e-03	9.665174e+01	1.156466e+01	9.423925e+00	
193	2.933013e-03	9.632166e+01	1.155352e+01	9.420035e+00	
194	2.953013e-03	9.597638e+01	1.154180e+01	9.415928e+00	
195	2.973013e-03	9.561593e+01	1.152950e+01	9.411603e+00	
196	2.993013e-03	9.524039e+01	1.151662e+01	9.407059e+00	
197	3.013013e-03	9.484981e+01	1.150316e+01	9.402294e+00	
198	3.033013e-03	9.444425e+01	1.148911e+01	9.397307e+00	
199	3.053013e-03	9.402378e+01	1.147448e+01	9.392095e+00	
200	3.073013e-03	9.358846e+01	1.145927e+01	9.386658e+00	
201	3.093013e-03	9.313836e+01	1.144347e+01	9.380993e+00	
202	3.113013e-03	9.267355e+01	1.142709e+01	9.375098e+00	
203	3.133013e-03	9.219411e+01	1.141013e+01	9.368971e+00	
204	3.153013e-03	9.170011e+01	1.139259e+01	9.362611e+00	
205	3.173013e-03	9.119163e+01	1.137447e+01	9.356014e+00	
206	3.193013e-03	9.066875e+01	1.135576e+01	9.349179e+00	
207	3.213013e-03	9.013155e+01	1.133646e+01	9.342103e+00	
208	3.233013e-03	8.958012e+01	1.131658e+01	9.334783e+00	
209	3.253013e-03	8.901454e+01	1.129612e+01	9.327217e+00	
210	3.273013e-03	8.843491e+01	1.127507e+01	9.319402e+00	
211	3.293013e-03	8.784131e+01	1.125344e+01	9.311334e+00	
212	3.313013e-03	8.723384e+01	1.123122e+01	9.303012e+00	
213	3.333013e-03	8.661260e+01	1.120841e+01	9.294430e+00	
214	3.353013e-03	8.597768e+01	1.118502e+01	9.285587e+00	
215	3.373013e-03	8.532918e+01	1.116103e+01	9.276478e+00	
216	3.393013e-03	8.466720e+01	1.113646e+01	9.267100e+00	
217	3.413013e-03	8.399186e+01	1.111129e+01	9.257449e+00	
218	3.433013e-03	8.330325e+01	1.108553e+01	9.247521e+00	
219	3.453013e-03	8.260149e+01	1.105918e+01	9.237311e+00	
220	3.473013e-03	8.188669e+01	1.103223e+01	9.226816e+00	
221	3.493013e-03	8.115895e+01	1.100469e+01	9.216031e+00	
222	3.513013e-03	8.041840e+01	1.097655e+01	9.204950e+00	
223	3.533013e-03	7.966515e+01	1.094781e+01	9.193570e+00	
224	3.553013e-03	7.889932e+01	1.091846e+01	9.181884e+00	
225	3.573013e-03	7.812103e+01	1.088851e+01	9.169888e+00	
226	3.593013e-03	7.733041e+01	1.085796e+01	9.157575e+00	
227	3.613013e-03	7.652757e+01	1.082680e+01	9.144941e+00	
228	3.633013e-03	7.571265e+01	1.079502e+01	9.131978e+00	

Index   time            in              net-_c1-pad1_   net-_c2-pad1_   
--------------------------------------------------------------------------------
229	3.653013e-03	7.488577e+01	1.076263e+01	9.118680e+00	
230	3.673013e-03	7.404707e+01	1.072962e+01	9.105041e+00	
231	3.693013e-03	7.319667e+01	1.069599e+01	9.091053e+00	
232	3.713013e-03	7.233472e+01	1.066174e+01	9.076709e+00	
233	3.733013e-03	7.146134e+01	1.062685e+01	9.061976e+00	
234	3.753013e-03	7.057668e+01	1.059133e+01	9.046892e+00	
235	3.773013e-03	6.968087e+01	1.055518e+01	9.031455e+00	
236	3.793013e-03	6.877406e+01	1.051839e+01	9.015610e+00	
237	3.813013e-03	6.785639e+01	1.048095e+01	8.999368e+00	
238	3.833013e-03	6.692801e+01	1.044287e+01	8.982717e+00	
239	3.853013e-03	6.598905e+01	1.040412e+01	8.965648e+00	
240	3.873013e-03	6.503968e+01	1.036471e+01	8.948150e+00	
241	3.893013e-03	6.408004e+01	1.032461e+01	8.930178e+00	
242	3.913013e-03	6.311027e+01	1.028384e+01	8.911782e+00	
243	3.933013e-03	6.213054e+01	1.024239e+01	8.892961e+00	
244	3.953013e-03	6.114100e+01	1.020026e+01	8.873639e+00	
245	3.973013e-03	6.014181e+01	1.015742e+01	8.853828e+00	
246	3.993013e-03	5.913311e+01	1.011388e+01	8.833513e+00	
247	4.013013e-03	5.811508e+01	1.006961e+01	8.812680e+00	
248	4.033013e-03	5.708787e+01	1.002461e+01	8.791313e+00	
249	4.053013e-03	5.605165e+01	9.978863e+00	8.769396e+00	
250	4.073013e-03	5.500658e+01	9.932365e+00	8.746912e+00	
251	4.093013e-03	5.395282e+01	9.885085e+00	8.723790e+00	
252	4.113013e-03	5.289054e+01	9.837015e+00	8.700103e+00	
253	4.133013e-03	5.181991e+01	9.788173e+00	8.675848e+00	
254	4.153013e-03	5.074109e+01	9.738536e+00	8.650913e+00	
255	4.173013e-03	4.965426e+01	9.688070e+00	8.625310e+00	
256	4.193013e-03	4.855960e+01	9.636758e+00	8.599014e+00	
257	4.213013e-03	4.745726e+01	9.584583e+00	8.572001e+00	
258	4.233013e-03	4.634743e+01	9.531524e+00	8.544244e+00	
259	4.253013e-03	4.523028e+01	9.477541e+00	8.515646e+00	
260	4.273013e-03	4.410599e+01	9.422615e+00	8.486294e+00	
261	4.293013e-03	4.297473e+01	9.366769e+00	8.456189e+00	
262	4.313013e-03	4.183669e+01	9.309967e+00	8.425175e+00	
263	4.333013e-03	4.069204e+01	9.252157e+00	8.393259e+00	
264	4.353013e-03	3.954097e+01	9.193311e+00	8.360405e+00	
265	4.373013e-03	3.838365e+01	9.133397e+00	8.326572e+00	
266	4.393013e-03	3.722027e+01	9.072356e+00	8.291626e+00	
267	4.413013e-03	3.605101e+01	9.010158e+00	8.255673e+00	
268	4.433013e-03	3.487606e+01	8.946820e+00	8.218708e+00	
269	4.453013e-03	3.369560e+01	8.882294e+00	8.180528e+00	
270	4.473013e-03	3.250982e+01	8.816504e+00	8.141128e+00	
271	4.493013e-03	3.131891e+01	8.749401e+00	8.100451e+00	
272	4.513013e-03	3.012305e+01	8.680937e+00	8.058436e+00	
273	4.533013e-03	2.892244e+01	8.611056e+00	8.015018e+00	
274	4.553013e-03	2.771726e+01	8.539701e+00	7.970127e+00	
275	4.573013e-03	2.650770e+01	8.466772e+00	7.923560e+00	
276	4.593013e-03	2.529395e+01	8.392206e+00	7.875436e+00	
277	4.613013e-03	2.407621e+01	8.316009e+00	7.825738e+00	
278	4.633013e-03	2.285467e+01	8.238098e+00	7.774173e+00	
279	4.653013e-03	2.162952e+01	8.158348e+00	7.720702e+00	
280	4.673013e-03	2.040096e+01	8.076623e+00	7.665070e+00	
281	4.693013e-03	1.916917e+01	7.992789e+00	7.607237e+00	
282	4.713013e-03	1.793436e+01	7.906790e+00	7.547248e+00	
283	4.733013e-03	1.669671e+01	7.818567e+00	7.484907e+00	
284	4.753013e-03	1.545643e+01	7.727999e+00	7.420074e+00	
285	4.773013e-03	1.421370e+01	7.634958e+00	7.352600e+00	
286	4.793013e-03	1.296874e+01	7.539306e+00	7.282330e+00	

Index   time            in              net-_c1-pad1_   net-_c2-pad1_   
--------------------------------------------------------------------------------
287	4.813013e-03	1.172172e+01	7.440898e+00	7.209098e+00	
288	4.833013e-03	1.047285e+01	7.339578e+00	7.132727e+00	
289	4.853013e-03	9.222332e+00	7.235182e+00	7.053032e+00	
290	4.873013e-03	7.970355e+00	7.127534e+00	6.969816e+00	
291	4.893013e-03	6.717119e+00	7.016450e+00	6.882869e+00	
292	4.903075e-03	6.086238e+00	6.959212e+00	6.837657e+00	
293	4.910865e-03	5.597574e+00	6.914245e+00	6.801945e+00	
294	4.919671e-03	5.045101e+00	6.862723e+00	6.760821e+00	
295	4.923285e-03	4.818253e+00	6.841354e+00	6.743701e+00	
296	4.928309e-03	4.502986e+00	6.811446e+00	6.719679e+00	
297	4.932795e-03	4.221336e+00	6.784517e+00	6.697988e+00	
298	4.936456e-03	3.991521e+00	6.762395e+00	6.680127e+00	
299	4.940354e-03	3.746794e+00	6.738690e+00	6.660944e+00	
300	4.944022e-03	3.516458e+00	6.716237e+00	6.642734e+00	
301	4.948502e-03	3.235140e+00	6.688625e+00	6.620288e+00	
302	4.956748e-03	2.717287e+00	6.637247e+00	6.578366e+00	
303	4.964286e-03	2.243799e+00	6.589633e+00	6.539340e+00	
304	4.975004e-03	1.570451e+00	6.520845e+00	6.482665e+00	
305	4.986144e-03	8.705657e-01	6.447970e+00	6.422253e+00	
306	5.004382e-03	-2.75338e-01	6.325496e+00	6.319898e+00	
307	5.024382e-03	-1.53192e+00	6.186481e+00	6.202523e+00	
308	5.044382e-03	-2.78825e+00	6.042296e+00	6.079515e+00	
309	5.064382e-03	-4.04415e+00	5.892676e+00	5.950589e+00	
310	5.084382e-03	-5.29940e+00	5.737350e+00	5.815460e+00	
311	5.104382e-03	-6.55382e+00	5.576046e+00	5.673841e+00	
312	5.124382e-03	-7.80721e+00	5.408492e+00	5.525450e+00	
313	5.144382e-03	-9.05936e+00	5.234416e+00	5.370007e+00	
314	5.164382e-03	-1.03101e+01	5.053555e+00	5.207245e+00	
315	5.184382e-03	-1.15592e+01	4.865648e+00	5.036904e+00	
316	5.204382e-03	-1.28064e+01	4.670450e+00	4.858741e+00	
317	5.224382e-03	-1.40517e+01	4.467725e+00	4.672530e+00	
318	5.244382e-03	-1.52947e+01	4.257257e+00	4.478065e+00	
319	5.264382e-03	-1.65353e+01	4.038845e+00	4.275162e+00	
320	5.284382e-03	-1.77733e+01	3.812313e+00	4.063659e+00	
321	5.304382e-03	-1.90085e+01	3.577503e+00	3.843423e+00	
322	5.324382e-03	-2.02407e+01	3.334284e+00	3.614344e+00	
323	5.344382e-03	-2.14697e+01	3.082551e+00	3.376338e+00	
324	5.364382e-03	-2.26953e+01	2.822220e+00	3.129350e+00	
325	5.384382e-03	-2.39173e+01	2.553235e+00	2.873347e+00	
326	5.404382e-03	-2.51356e+01	2.275565e+00	2.608319e+00	
327	5.424382e-03	-2.63499e+01	1.989198e+00	2.334282e+00	
328	5.444382e-03	-2.75600e+01	1.694149e+00	2.051270e+00	
329	5.464382e-03	-2.87657e+01	1.390448e+00	1.759334e+00	
330	5.484382e-03	-2.99670e+01	1.078148e+00	1.458544e+00	
331	5.494003e-03	-3.05431e+01	9.248657e-01	1.310713e+00	
