            * /home/fossee/updatedexamples/diac_triac/diac_triac.cir
            Transient Analysis  Thu Mar  3 18:25:52  2016
--------------------------------------------------------------------------------
Index   time            v.x2.v1#branch  v.x2.v2#branch  v.x2.v3#branch  
--------------------------------------------------------------------------------
0	0.000000e+00	0.000000e+00	-1.65680e-40	-1.65829e-40	
1	2.000000e-07	3.678231e-14	1.663457e-09	-1.66346e-09	
2	2.020379e-07	3.716097e-14	1.680407e-09	-1.68041e-09	
3	2.061138e-07	3.792608e-14	1.714307e-09	-1.71431e-09	
4	2.142655e-07	3.950399e-14	1.782106e-09	-1.78211e-09	
5	2.305689e-07	4.285991e-14	1.917704e-09	-1.91770e-09	
6	2.631757e-07	5.044672e-14	2.188895e-09	-2.18889e-09	
7	3.283894e-07	6.971441e-14	2.731256e-09	-2.73126e-09	
8	4.588168e-07	1.293523e-13	3.815899e-09	-3.81590e-09	
9	6.039989e-07	2.383239e-13	5.023117e-09	-5.02312e-09	
10	7.721973e-07	4.382588e-13	6.421555e-09	-6.42155e-09	
11	9.761298e-07	8.159675e-13	8.116855e-09	-8.11685e-09	
12	1.230181e-06	1.547226e-12	1.022843e-08	-1.02284e-08	
13	1.546281e-06	2.960619e-12	1.285516e-08	-1.28551e-08	
14	1.942878e-06	5.714598e-12	1.614993e-08	-1.61499e-08	
15	2.440339e-06	1.107646e-11	2.028122e-08	-2.02812e-08	
16	3.068528e-06	2.158264e-11	2.549597e-08	-2.54959e-08	
17	3.863297e-06	4.219931e-11	3.208999e-08	-3.20899e-08	
18	4.875532e-06	8.291329e-11	4.048257e-08	-4.04823e-08	
19	6.170784e-06	1.636617e-10	5.121233e-08	-5.12118e-08	
20	7.842642e-06	3.251562e-10	6.504644e-08	-6.50452e-08	
21	1.002036e-05	6.510043e-10	8.304026e-08	-8.30376e-08	
22	1.289609e-05	1.317502e-09	1.067566e-07	-1.06751e-07	
23	1.675927e-05	2.704930e-09	1.385364e-07	-1.38524e-07	
24	2.207857e-05	5.669656e-09	1.821455e-07	-1.82115e-07	
25	2.965883e-05	1.225096e-08	2.439969e-07	-2.43917e-07	
26	4.103489e-05	2.777233e-08	3.361907e-07	-3.35948e-07	
27	5.956594e-05	6.832808e-08	4.848468e-07	-4.83935e-07	
28	7.956594e-05	1.338119e-07	6.433928e-07	-6.40759e-07	
29	9.956594e-05	2.221716e-07	8.003159e-07	-7.94246e-07	
30	1.195659e-04	3.340229e-07	9.560420e-07	-9.43976e-07	
31	1.395659e-04	4.707151e-07	1.111086e-06	-1.08945e-06	
32	1.595659e-04	6.347234e-07	1.266388e-06	-1.23010e-06	
33	1.795659e-04	8.300968e-07	1.425387e-06	-1.36531e-06	
34	1.995659e-04	1.062999e-06	1.589766e-06	-1.49438e-06	
35	2.195659e-04	1.342365e-06	1.756008e-06	-1.61660e-06	
36	2.395659e-04	1.680721e-06	1.922099e-06	-1.73122e-06	
37	2.595659e-04	2.095217e-06	2.088484e-06	-1.83750e-06	
38	2.795659e-04	2.608959e-06	2.255183e-06	-1.93468e-06	
39	2.995659e-04	3.252759e-06	2.422434e-06	-2.02204e-06	
40	3.195659e-04	4.067450e-06	2.590491e-06	-2.09889e-06	
41	3.395659e-04	5.106977e-06	2.759749e-06	-2.16459e-06	
42	3.595659e-04	6.442551e-06	2.930748e-06	-2.21858e-06	
43	3.795659e-04	8.168240e-06	3.104251e-06	-2.26033e-06	
44	3.995659e-04	1.040850e-05	3.281313e-06	-2.28940e-06	
45	4.195659e-04	1.332832e-05	3.463408e-06	-2.30541e-06	
46	4.395659e-04	1.714687e-05	3.652592e-06	-2.30800e-06	
47	4.595659e-04	2.215580e-05	3.851744e-06	-2.29681e-06	
48	4.795659e-04	2.874368e-05	4.064921e-06	-2.27147e-06	
49	4.995659e-04	3.742827e-05	4.297877e-06	-2.23150e-06	
50	5.195659e-04	4.889893e-05	4.558855e-06	-2.17630e-06	
51	5.395659e-04	6.407106e-05	4.859789e-06	-2.10508e-06	
52	5.595659e-04	8.415451e-05	5.218212e-06	-2.01686e-06	
53	5.795659e-04	1.107360e-04	5.660325e-06	-1.91048e-06	
54	5.995659e-04	1.458727e-04	6.226111e-06	-1.78471e-06	

Index   time            v.x2.v1#branch  v.x2.v2#branch  v.x2.v3#branch  
--------------------------------------------------------------------------------
55	6.195659e-04	1.921858e-04	6.978155e-06	-1.63856e-06	
56	6.395659e-04	2.529342e-04	8.017356e-06	-1.47181e-06	
57	6.595659e-04	3.320264e-04	9.512035e-06	-1.28582e-06	
58	6.795659e-04	4.339115e-04	1.175386e-05	-1.08462e-06	
59	6.995659e-04	5.632683e-04	1.526925e-05	-8.75822e-07	
60	7.195659e-04	7.244192e-04	2.104864e-05	-6.70819e-07	
61	7.395659e-04	9.204517e-04	3.103148e-05	-4.83218e-07	
62	7.595659e-04	1.152160e-03	4.915138e-05	-3.25417e-07	
63	7.795659e-04	1.417105e-03	8.360842e-05	-2.04589e-07	
64	7.995659e-04	1.709204e-03	1.518214e-04	-1.20578e-07	
65	8.195659e-04	2.019217e-03	2.913739e-04	-6.71736e-08	
66	8.395659e-04	2.336119e-03	5.860782e-04	-3.56157e-08	
67	8.595659e-04	2.648956e-03	1.243782e-03	-1.78135e-08	
68	8.795659e-04	2.948535e-03	3.002798e-03	-7.78530e-09	
69	8.820659e-04	2.984276e-03	3.416403e-03	-6.87882e-09	
70	8.870659e-04	3.055541e-03	4.520523e-03	-5.24455e-09	
71	8.945205e-04	3.159296e-03	8.046856e-03	-2.95289e-09	
72	8.960392e-04	3.179918e-03	9.520222e-03	-2.48606e-09	
73	8.990766e-04	3.221029e-03	1.472850e-02	-1.57115e-09	
74	8.998359e-04	3.231191e-03	1.732354e-02	-1.32054e-09	
75	9.013546e-04	3.251479e-03	2.651407e-02	-8.19564e-10	
76	9.017343e-04	3.256522e-03	3.108331e-02	-6.81529e-10	
77	9.024936e-04	3.266598e-03	4.672168e-02	-4.11456e-10	
78	9.026835e-04	3.269110e-03	5.406251e-02	-3.39374e-10	
79	9.030632e-04	3.274131e-03	7.696729e-02	-2.03444e-10	
80	9.033623e-04	3.278081e-03	1.148703e-01	-1.00960e-10	
81	9.036833e-04	3.282314e-03	2.246630e-01	-1.19273e-11	
82	9.041052e-04	3.287869e-03	4.880514e-01	3.073192e-12	
83	9.045059e-04	3.293134e-03	5.273164e-01	8.515280e-14	
84	9.049423e-04	3.298857e-03	5.285435e-01	1.422040e-15	
85	9.054180e-04	3.305084e-03	5.288113e-01	1.994932e-17	
86	9.063695e-04	3.317497e-03	5.293112e-01	0.000000e+00	
87	9.082724e-04	3.342162e-03	5.303176e-01	0.000000e+00	
88	9.120783e-04	3.390845e-03	5.323223e-01	0.000000e+00	
89	9.164663e-04	3.445486e-03	5.346235e-01	0.000000e+00	
90	9.219772e-04	3.513446e-03	5.375221e-01	0.000000e+00	
91	9.279739e-04	3.584169e-03	5.406597e-01	0.000000e+00	
92	9.357077e-04	3.673838e-03	5.446996e-01	-2.71051e-20	
93	9.447892e-04	3.772632e-03	5.494246e-01	0.000000e+00	
94	9.570960e-04	3.900466e-03	5.557985e-01	0.000000e+00	
95	9.730132e-04	4.054396e-03	5.639924e-01	0.000000e+00	
96	9.930132e-04	4.231341e-03	5.742069e-01	-1.35525e-20	
97	1.013013e-03	4.393245e-03	5.843291e-01	0.000000e+00	
98	1.033013e-03	4.541003e-03	5.943587e-01	0.000000e+00	
99	1.053013e-03	4.677412e-03	6.042912e-01	0.000000e+00	
100	1.073013e-03	4.804670e-03	6.141317e-01	-1.35525e-20	
101	1.093013e-03	4.924579e-03	6.238636e-01	0.000000e+00	
102	1.113013e-03	5.039545e-03	6.335078e-01	0.000000e+00	
103	1.133013e-03	5.147439e-03	6.430456e-01	0.000000e+00	
104	1.153013e-03	5.253076e-03	6.524808e-01	1.355253e-20	
105	1.173013e-03	5.355316e-03	6.618115e-01	0.000000e+00	
106	1.193013e-03	5.454873e-03	6.710369e-01	0.000000e+00	
107	1.213013e-03	5.552136e-03	6.801543e-01	0.000000e+00	
108	1.233013e-03	5.647395e-03	6.891640e-01	0.000000e+00	
109	1.253013e-03	5.740865e-03	6.980626e-01	0.000000e+00	
110	1.273013e-03	5.832701e-03	7.068508e-01	0.000000e+00	
111	1.293013e-03	5.923016e-03	7.155244e-01	0.000000e+00	
112	1.313013e-03	6.011889e-03	7.240866e-01	-1.35525e-20	

Index   time            v.x2.v1#branch  v.x2.v2#branch  v.x2.v3#branch  
--------------------------------------------------------------------------------
113	1.333013e-03	6.099379e-03	7.325279e-01	0.000000e+00	
114	1.353013e-03	6.185524e-03	7.408624e-01	-1.35525e-20	
115	1.373013e-03	6.270349e-03	7.490593e-01	1.355253e-20	
116	1.393013e-03	6.354255e-03	7.571575e-01	0.000000e+00	
117	1.413013e-03	6.435913e-03	7.651264e-01	0.000000e+00	
118	1.433013e-03	6.516989e-03	7.729735e-01	-1.35525e-20	
119	1.453013e-03	6.596660e-03	7.806968e-01	0.000000e+00	
120	1.473013e-03	6.675044e-03	7.882961e-01	0.000000e+00	
121	1.493013e-03	6.752132e-03	7.957691e-01	0.000000e+00	
122	1.513013e-03	6.827922e-03	8.031160e-01	0.000000e+00	
123	1.533013e-03	6.902410e-03	8.103331e-01	0.000000e+00	
124	1.553013e-03	6.975591e-03	8.174237e-01	0.000000e+00	
125	1.573013e-03	7.047457e-03	8.243794e-01	0.000000e+00	
126	1.593013e-03	7.118004e-03	8.312109e-01	0.000000e+00	
127	1.613013e-03	7.187224e-03	8.378987e-01	1.355253e-20	
128	1.633013e-03	7.255109e-03	8.444693e-01	0.000000e+00	
129	1.653013e-03	7.321654e-03	8.508809e-01	1.355253e-20	
130	1.673013e-03	7.387041e-03	8.571801e-01	0.000000e+00	
131	1.693013e-03	7.450585e-03	8.633339e-01	0.000000e+00	
132	1.713013e-03	7.513142e-03	8.693500e-01	0.000000e+00	
133	1.733013e-03	7.574255e-03	8.752276e-01	0.000000e+00	
134	1.753013e-03	7.633992e-03	8.809657e-01	-1.35525e-20	
135	1.773013e-03	7.692342e-03	8.865632e-01	0.000000e+00	
136	1.793013e-03	7.749299e-03	8.920196e-01	1.355253e-20	
137	1.813013e-03	7.804856e-03	8.973333e-01	0.000000e+00	
138	1.833013e-03	7.859008e-03	9.025048e-01	1.355253e-20	
139	1.853013e-03	7.911747e-03	9.075318e-01	0.000000e+00	
140	1.873013e-03	7.963068e-03	9.124148e-01	0.000000e+00	
141	1.893013e-03	8.012965e-03	9.171514e-01	-1.35525e-20	
142	1.913013e-03	8.061430e-03	9.217428e-01	-1.35525e-20	
143	1.933013e-03	8.108459e-03	9.261869e-01	1.355253e-20	
144	1.953013e-03	8.154045e-03	9.304838e-01	0.000000e+00	
145	1.973013e-03	8.198183e-03	9.346316e-01	0.000000e+00	
146	1.993013e-03	8.240867e-03	9.386316e-01	0.000000e+00	
147	2.013013e-03	8.282091e-03	9.424811e-01	1.355253e-20	
148	2.033013e-03	8.321852e-03	9.461810e-01	0.000000e+00	
149	2.053013e-03	8.360143e-03	9.497299e-01	0.000000e+00	
150	2.073013e-03	8.396960e-03	9.531278e-01	0.000000e+00	
151	2.093013e-03	8.432298e-03	9.563736e-01	0.000000e+00	
152	2.113013e-03	8.466153e-03	9.594669e-01	0.000000e+00	
153	2.133013e-03	8.498522e-03	9.624076e-01	0.000000e+00	
154	2.153013e-03	8.529399e-03	9.651950e-01	1.355253e-20	
155	2.173013e-03	8.558782e-03	9.678285e-01	0.000000e+00	
156	2.193013e-03	8.586666e-03	9.703079e-01	0.000000e+00	
157	2.213013e-03	8.613049e-03	9.726328e-01	0.000000e+00	
158	2.233013e-03	8.637927e-03	9.748027e-01	0.000000e+00	
159	2.253013e-03	8.661297e-03	9.768175e-01	0.000000e+00	
160	2.273013e-03	8.683157e-03	9.786767e-01	0.000000e+00	
161	2.293013e-03	8.703505e-03	9.803799e-01	0.000000e+00	
162	2.313013e-03	8.722338e-03	9.819269e-01	0.000000e+00	
163	2.333013e-03	8.739654e-03	9.833175e-01	1.355253e-20	
164	2.353013e-03	8.755452e-03	9.845517e-01	0.000000e+00	
165	2.373013e-03	8.769729e-03	9.856291e-01	0.000000e+00	
166	2.393013e-03	8.782486e-03	9.865492e-01	0.000000e+00	
167	2.413013e-03	8.793720e-03	9.873126e-01	0.000000e+00	
168	2.433013e-03	8.803432e-03	9.879185e-01	-1.35525e-20	
169	2.453013e-03	8.811619e-03	9.883670e-01	0.000000e+00	
170	2.473013e-03	8.818283e-03	9.886583e-01	0.000000e+00	

Index   time            v.x2.v1#branch  v.x2.v2#branch  v.x2.v3#branch  
--------------------------------------------------------------------------------
171	2.493013e-03	8.823423e-03	9.887919e-01	0.000000e+00	
172	2.513013e-03	8.827040e-03	9.887684e-01	0.000000e+00	
173	2.533013e-03	8.829133e-03	9.885871e-01	-1.35525e-20	
174	2.553013e-03	8.829703e-03	9.882485e-01	0.000000e+00	
175	2.573013e-03	8.828752e-03	9.877527e-01	-1.35525e-20	
176	2.593013e-03	8.826280e-03	9.870990e-01	-1.35525e-20	
177	2.613013e-03	8.822289e-03	9.862886e-01	0.000000e+00	
178	2.633013e-03	8.816780e-03	9.853210e-01	0.000000e+00	
179	2.653013e-03	8.809756e-03	9.841963e-01	0.000000e+00	
180	2.673013e-03	8.801218e-03	9.829153e-01	0.000000e+00	
181	2.693013e-03	8.791169e-03	9.814773e-01	1.355253e-20	
182	2.713013e-03	8.779612e-03	9.798830e-01	0.000000e+00	
183	2.733013e-03	8.766549e-03	9.781328e-01	0.000000e+00	
184	2.753013e-03	8.751984e-03	9.762269e-01	0.000000e+00	
185	2.773013e-03	8.735921e-03	9.741653e-01	-1.35525e-20	
186	2.793013e-03	8.718361e-03	9.719486e-01	-1.35525e-20	
187	2.813013e-03	8.699311e-03	9.695771e-01	0.000000e+00	
188	2.833013e-03	8.678773e-03	9.670511e-01	0.000000e+00	
189	2.853013e-03	8.656753e-03	9.643712e-01	0.000000e+00	
190	2.873013e-03	8.633254e-03	9.615376e-01	0.000000e+00	
191	2.893013e-03	8.608282e-03	9.585508e-01	0.000000e+00	
192	2.913013e-03	8.581843e-03	9.554115e-01	0.000000e+00	
193	2.933013e-03	8.553941e-03	9.521197e-01	1.355253e-20	
194	2.953013e-03	8.524582e-03	9.486763e-01	0.000000e+00	
195	2.973013e-03	8.493772e-03	9.450820e-01	0.000000e+00	
196	2.993013e-03	8.461518e-03	9.413369e-01	0.000000e+00	
197	3.013013e-03	8.427826e-03	9.374421e-01	1.355253e-20	
198	3.033013e-03	8.392702e-03	9.333976e-01	0.000000e+00	
199	3.053013e-03	8.356154e-03	9.292045e-01	0.000000e+00	
200	3.073013e-03	8.318189e-03	9.248635e-01	0.000000e+00	
201	3.093013e-03	8.278815e-03	9.203749e-01	0.000000e+00	
202	3.113013e-03	8.238039e-03	9.157397e-01	0.000000e+00	
203	3.133013e-03	8.195869e-03	9.109585e-01	0.000000e+00	
204	3.153013e-03	8.152314e-03	9.060324e-01	0.000000e+00	
205	3.173013e-03	8.107382e-03	9.009614e-01	0.000000e+00	
206	3.193013e-03	8.061082e-03	8.957473e-01	0.000000e+00	
207	3.213013e-03	8.013423e-03	8.903903e-01	0.000000e+00	
208	3.233013e-03	7.964416e-03	8.848915e-01	0.000000e+00	
209	3.253013e-03	7.914068e-03	8.792514e-01	-1.35525e-20	
210	3.273013e-03	7.862391e-03	8.734713e-01	0.000000e+00	
211	3.293013e-03	7.809394e-03	8.675519e-01	0.000000e+00	
212	3.313013e-03	7.755088e-03	8.614940e-01	0.000000e+00	
213	3.333013e-03	7.699484e-03	8.552989e-01	-1.35525e-20	
214	3.353013e-03	7.642592e-03	8.489674e-01	0.000000e+00	
215	3.373013e-03	7.584425e-03	8.425006e-01	-1.35525e-20	
216	3.393013e-03	7.524993e-03	8.358993e-01	-1.35525e-20	
217	3.413013e-03	7.464309e-03	8.291649e-01	0.000000e+00	
218	3.433013e-03	7.402385e-03	8.222981e-01	0.000000e+00	
219	3.453013e-03	7.339232e-03	8.153003e-01	0.000000e+00	
220	3.473013e-03	7.274865e-03	8.081723e-01	0.000000e+00	
221	3.493013e-03	7.209296e-03	8.009154e-01	1.355253e-20	
222	3.513013e-03	7.142538e-03	7.935308e-01	0.000000e+00	
223	3.533013e-03	7.074605e-03	7.860195e-01	1.355253e-20	
224	3.553013e-03	7.005511e-03	7.783827e-01	0.000000e+00	
225	3.573013e-03	6.935270e-03	7.706218e-01	1.355253e-20	
226	3.593013e-03	6.863898e-03	7.627378e-01	1.355253e-20	
227	3.613013e-03	6.791408e-03	7.547319e-01	0.000000e+00	
228	3.633013e-03	6.717816e-03	7.466056e-01	1.355253e-20	

Index   time            v.x2.v1#branch  v.x2.v2#branch  v.x2.v3#branch  
--------------------------------------------------------------------------------
229	3.653013e-03	6.643138e-03	7.383595e-01	0.000000e+00	
230	3.673013e-03	6.567389e-03	7.299952e-01	1.355253e-20	
231	3.693013e-03	6.490587e-03	7.215131e-01	0.000000e+00	
232	3.713013e-03	6.412747e-03	7.129138e-01	1.355253e-20	
233	3.733013e-03	6.334226e-03	7.042144e-01	0.000000e+00	
234	3.753013e-03	6.253857e-03	6.953932e-01	0.000000e+00	
235	3.773013e-03	6.173126e-03	6.864608e-01	-1.35525e-20	
236	3.793013e-03	6.091321e-03	6.774189e-01	0.000000e+00	
237	3.813013e-03	6.008569e-03	6.682688e-01	1.355253e-20	
238	3.833013e-03	5.924883e-03	6.590124e-01	1.355253e-20	
239	3.853013e-03	5.840285e-03	6.496512e-01	1.355253e-20	
240	3.873013e-03	5.754796e-03	6.401877e-01	0.000000e+00	
241	3.893013e-03	5.668904e-03	6.306139e-01	1.355253e-20	
242	3.913013e-03	5.581014e-03	6.209445e-01	0.000000e+00	
243	3.933013e-03	5.493119e-03	6.111758e-01	1.355253e-20	
244	3.953013e-03	5.404291e-03	6.013091e-01	0.000000e+00	
245	3.973013e-03	5.314681e-03	5.913464e-01	0.000000e+00	
246	3.993013e-03	5.224306e-03	5.812892e-01	-1.35525e-20	
247	4.013013e-03	5.133191e-03	5.711392e-01	0.000000e+00	
248	4.033013e-03	5.041363e-03	5.608982e-01	0.000000e+00	
249	4.053013e-03	4.948846e-03	5.505688e-01	0.000000e+00	
250	4.073013e-03	4.855668e-03	5.401534e-01	0.000000e+00	
251	4.093013e-03	4.762541e-03	5.296393e-01	-1.35525e-20	
252	4.113013e-03	4.667163e-03	5.190482e-01	0.000000e+00	
253	4.133013e-03	4.572334e-03	5.083740e-01	0.000000e+00	
254	4.153013e-03	4.476809e-03	4.976184e-01	0.000000e+00	
255	4.173013e-03	4.380762e-03	4.867833e-01	-1.35525e-20	
256	4.193013e-03	4.284220e-03	4.758706e-01	0.000000e+00	
257	4.213013e-03	4.187218e-03	4.648829e-01	0.000000e+00	
258	4.233013e-03	4.089790e-03	4.538235e-01	0.000000e+00	
259	4.253013e-03	3.992894e-03	4.426779e-01	0.000000e+00	
260	4.273013e-03	3.893482e-03	4.314694e-01	-1.35525e-20	
261	4.293013e-03	3.795179e-03	4.201920e-01	0.000000e+00	
262	4.313013e-03	3.696445e-03	4.088474e-01	0.000000e+00	
263	4.333013e-03	3.597469e-03	3.974373e-01	0.000000e+00	
264	4.353013e-03	3.498293e-03	3.859640e-01	0.000000e+00	
265	4.373013e-03	3.398963e-03	3.744309e-01	0.000000e+00	
266	4.393013e-03	3.300717e-03	3.628284e-01	-1.35525e-20	
267	4.413013e-03	3.199677e-03	3.511736e-01	0.000000e+00	
268	4.433013e-03	3.100365e-03	3.394622e-01	0.000000e+00	
269	4.453013e-03	3.000945e-03	3.276962e-01	0.000000e+00	
270	4.473013e-03	2.901621e-03	3.158775e-01	0.000000e+00	
271	4.493013e-03	2.802452e-03	3.040082e-01	0.000000e+00	
272	4.513013e-03	2.703502e-03	2.920906e-01	0.000000e+00	
273	4.533013e-03	2.604835e-03	2.801271e-01	0.000000e+00	
274	4.553013e-03	2.506523e-03	2.681222e-01	1.355253e-20	
275	4.573013e-03	2.410288e-03	2.560600e-01	-1.35525e-20	
276	4.593013e-03	2.310880e-03	2.439653e-01	0.000000e+00	
277	4.613013e-03	2.214262e-03	2.318314e-01	-1.35525e-20	
278	4.633013e-03	2.118168e-03	2.196606e-01	0.000000e+00	
279	4.653013e-03	2.022825e-03	2.074549e-01	-1.35525e-20	
280	4.673013e-03	1.930294e-03	1.952149e-01	0.000000e+00	
281	4.693013e-03	1.836451e-03	1.829444e-01	1.355253e-20	
282	4.713013e-03	1.743818e-03	1.706452e-01	-1.35525e-20	
283	4.733013e-03	1.652393e-03	1.583187e-01	0.000000e+00	
284	4.753013e-03	1.562278e-03	1.459678e-01	0.000000e+00	
285	4.773013e-03	1.473588e-03	1.335944e-01	9.486769e-20	
286	4.793013e-03	1.386447e-03	1.212009e-01	1.219727e-18	

Index   time            v.x2.v1#branch  v.x2.v2#branch  v.x2.v3#branch  
--------------------------------------------------------------------------------
287	4.813013e-03	1.300983e-03	1.087897e-01	1.776736e-17	
288	4.833013e-03	1.217329e-03	9.636296e-02	2.596393e-16	
289	4.853013e-03	1.135626e-03	8.391800e-02	3.793854e-15	
290	4.873013e-03	1.056015e-03	7.138957e-02	5.576651e-14	
291	4.893013e-03	9.786435e-04	5.785293e-02	9.077952e-13	
292	4.903075e-03	9.406185e-04	4.752395e-02	4.857241e-12	
293	4.910865e-03	9.116024e-04	1.655202e-02	7.503103e-11	
294	4.919671e-03	8.792668e-04	3.017852e-04	5.375409e-09	
295	4.923285e-03	8.661370e-04	7.405056e-05	2.124797e-08	
296	4.928309e-03	8.480333e-04	1.953170e-05	7.642121e-08	
297	4.932795e-03	8.320033e-04	8.961210e-06	1.567867e-07	
298	4.936456e-03	8.190246e-04	5.733444e-06	2.331131e-07	
299	4.940354e-03	8.053047e-04	3.985333e-06	3.147106e-07	
300	4.944022e-03	7.924875e-04	3.050895e-06	3.854249e-07	
301	4.948502e-03	7.769607e-04	2.337495e-06	4.606227e-07	
302	4.956748e-03	7.487488e-04	1.557324e-06	5.694365e-07	
303	4.964286e-03	7.233810e-04	1.101392e-06	6.413784e-07	
304	4.975004e-03	6.880200e-04	6.099128e-07	7.234116e-07	
305	4.986144e-03	6.521744e-04	1.960804e-07	7.985669e-07	
306	5.004382e-03	5.955325e-04	-3.51723e-07	9.207846e-07	
307	5.024382e-03	5.364359e-04	-8.13030e-07	1.061395e-06	
308	5.044382e-03	4.806027e-04	-1.16018e-06	1.210268e-06	
309	5.064382e-03	4.281240e-04	-1.41866e-06	1.365389e-06	
310	5.084382e-03	3.790709e-04	-1.61077e-06	1.524265e-06	
311	5.104382e-03	3.334917e-04	-1.75221e-06	1.684203e-06	
312	5.124382e-03	2.914092e-04	-1.85610e-06	1.842533e-06	
313	5.144382e-03	2.528184e-04	-1.93240e-06	1.996785e-06	
314	5.164382e-03	2.176845e-04	-1.98869e-06	2.144876e-06	
315	5.184382e-03	1.859426e-04	-2.03071e-06	2.285242e-06	
316	5.204382e-03	1.574974e-04	-2.06273e-06	2.416923e-06	
317	5.224382e-03	1.322243e-04	-2.08787e-06	2.539589e-06	
318	5.244382e-03	1.099720e-04	-2.10832e-06	2.653512e-06	
319	5.264382e-03	9.056471e-05	-2.12554e-06	2.759490e-06	
320	5.284382e-03	7.380702e-05	-2.14043e-06	2.858754e-06	
321	5.304382e-03	5.948808e-05	-2.15344e-06	2.952855e-06	
322	5.324382e-03	4.738684e-05	-2.16469e-06	3.043561e-06	
323	5.344382e-03	3.727734e-05	-2.17404e-06	3.132762e-06	
324	5.364382e-03	2.893388e-05	-2.18117e-06	3.222399e-06	
325	5.384382e-03	2.213577e-05	-2.18567e-06	3.314405e-06	
326	5.404382e-03	1.667152e-05	-2.18706e-06	3.410670e-06	
327	5.424382e-03	1.234214e-05	-2.18486e-06	3.513014e-06	
328	5.444382e-03	8.963549e-06	-2.17866e-06	3.623168e-06	
329	5.464382e-03	6.367819e-06	-2.16809e-06	3.742746e-06	
330	5.484382e-03	4.403444e-06	-2.15288e-06	3.873326e-06	
331	5.494003e-03	3.642736e-06	-2.14388e-06	3.942708e-06	
