* /home/fossee/updatedexamples/frequencyresponse_jfet/frequencyresponse_jfet.cir
AC Analysis  Thu Mar  3 21:19:34  2016
--------------------------------------------------------------------------------
Index   frequency       v1#branch                       
--------------------------------------------------------------------------------
0	1.000000e+04	-8.54192e-11,	-3.35449e-11	
1	1.023293e+04	-8.50932e-11,	-3.46694e-11	
2	1.047129e+04	-8.47679e-11,	-3.58272e-11	
3	1.071519e+04	-8.44437e-11,	-3.70190e-11	
4	1.096478e+04	-8.41210e-11,	-3.82453e-11	
5	1.122018e+04	-8.38000e-11,	-3.95065e-11	
6	1.148154e+04	-8.34812e-11,	-4.08033e-11	
7	1.174898e+04	-8.31648e-11,	-4.21362e-11	
8	1.202264e+04	-8.28511e-11,	-4.35057e-11	
9	1.230269e+04	-8.25404e-11,	-4.49123e-11	
10	1.258925e+04	-8.22330e-11,	-4.63566e-11	
11	1.288250e+04	-8.19291e-11,	-4.78391e-11	
12	1.318257e+04	-8.16291e-11,	-4.93603e-11	
13	1.348963e+04	-8.13332e-11,	-5.09209e-11	
14	1.380384e+04	-8.10415e-11,	-5.25213e-11	
15	1.412538e+04	-8.07544e-11,	-5.41621e-11	
16	1.445440e+04	-8.04719e-11,	-5.58439e-11	
17	1.479108e+04	-8.01943e-11,	-5.75672e-11	
18	1.513561e+04	-7.99218e-11,	-5.93328e-11	
19	1.548817e+04	-7.96544e-11,	-6.11411e-11	
20	1.584893e+04	-7.93924e-11,	-6.29928e-11	
21	1.621810e+04	-7.91358e-11,	-6.48886e-11	
22	1.659587e+04	-7.88848e-11,	-6.68291e-11	
23	1.698244e+04	-7.86393e-11,	-6.88150e-11	
24	1.737801e+04	-7.83995e-11,	-7.08471e-11	
25	1.778279e+04	-7.81655e-11,	-7.29261e-11	
26	1.819701e+04	-7.79372e-11,	-7.50527e-11	
27	1.862087e+04	-7.77148e-11,	-7.72278e-11	
28	1.905461e+04	-7.74982e-11,	-7.94521e-11	
29	1.949845e+04	-7.72873e-11,	-8.17265e-11	
30	1.995262e+04	-7.70823e-11,	-8.40520e-11	
31	2.041738e+04	-7.68831e-11,	-8.64293e-11	
32	2.089296e+04	-7.66895e-11,	-8.88596e-11	
33	2.137962e+04	-7.65017e-11,	-9.13437e-11	
34	2.187762e+04	-7.63196e-11,	-9.38826e-11	
35	2.238721e+04	-7.61430e-11,	-9.64776e-11	
36	2.290868e+04	-7.59720e-11,	-9.91295e-11	
37	2.344229e+04	-7.58064e-11,	-1.01840e-10	
38	2.398833e+04	-7.56462e-11,	-1.04609e-10	
39	2.454709e+04	-7.54912e-11,	-1.07439e-10	
40	2.511886e+04	-7.53414e-11,	-1.10331e-10	
41	2.570396e+04	-7.51968e-11,	-1.13286e-10	
42	2.630268e+04	-7.50571e-11,	-1.16305e-10	
43	2.691535e+04	-7.49223e-11,	-1.19390e-10	
44	2.754229e+04	-7.47922e-11,	-1.22542e-10	
45	2.818383e+04	-7.46669e-11,	-1.25764e-10	
46	2.884032e+04	-7.45461e-11,	-1.29055e-10	
47	2.951209e+04	-7.44297e-11,	-1.32418e-10	
48	3.019952e+04	-7.43177e-11,	-1.35854e-10	
49	3.090295e+04	-7.42099e-11,	-1.39366e-10	
50	3.162278e+04	-7.41062e-11,	-1.42954e-10	
51	3.235937e+04	-7.40066e-11,	-1.46620e-10	
52	3.311311e+04	-7.39108e-11,	-1.50367e-10	
53	3.388442e+04	-7.38188e-11,	-1.54196e-10	
54	3.467369e+04	-7.37304e-11,	-1.58109e-10	

Index   frequency       v1#branch                       
--------------------------------------------------------------------------------
55	3.548134e+04	-7.36456e-11,	-1.62108e-10	
56	3.630781e+04	-7.35643e-11,	-1.66195e-10	
57	3.715352e+04	-7.34863e-11,	-1.70372e-10	
58	3.801894e+04	-7.34116e-11,	-1.74641e-10	
59	3.890451e+04	-7.33400e-11,	-1.79004e-10	
60	3.981072e+04	-7.32715e-11,	-1.83464e-10	
61	4.073803e+04	-7.32059e-11,	-1.88022e-10	
62	4.168694e+04	-7.31432e-11,	-1.92682e-10	
63	4.265795e+04	-7.30832e-11,	-1.97445e-10	
64	4.365158e+04	-7.30259e-11,	-2.02314e-10	
65	4.466836e+04	-7.29712e-11,	-2.07291e-10	
66	4.570882e+04	-7.29190e-11,	-2.12380e-10	
67	4.677351e+04	-7.28692e-11,	-2.17582e-10	
68	4.786301e+04	-7.28218e-11,	-2.22900e-10	
69	4.897788e+04	-7.27767e-11,	-2.28337e-10	
70	5.011872e+04	-7.27337e-11,	-2.33897e-10	
71	5.128614e+04	-7.26929e-11,	-2.39581e-10	
72	5.248075e+04	-7.26541e-11,	-2.45393e-10	
73	5.370318e+04	-7.26173e-11,	-2.51335e-10	
74	5.495409e+04	-7.25825e-11,	-2.57412e-10	
75	5.623413e+04	-7.25495e-11,	-2.63625e-10	
76	5.754399e+04	-7.25184e-11,	-2.69979e-10	
77	5.888437e+04	-7.24890e-11,	-2.76477e-10	
78	6.025596e+04	-7.24614e-11,	-2.83122e-10	
79	6.165950e+04	-7.24354e-11,	-2.89917e-10	
80	6.309573e+04	-7.24110e-11,	-2.96867e-10	
81	6.456542e+04	-7.23882e-11,	-3.03974e-10	
82	6.606934e+04	-7.23670e-11,	-3.11243e-10	
83	6.760830e+04	-7.23473e-11,	-3.18677e-10	
84	6.918310e+04	-7.23290e-11,	-3.26281e-10	
85	7.079458e+04	-7.23122e-11,	-3.34058e-10	
86	7.244360e+04	-7.22967e-11,	-3.42012e-10	
87	7.413102e+04	-7.22827e-11,	-3.50148e-10	
88	7.585776e+04	-7.22700e-11,	-3.58470e-10	
89	7.762471e+04	-7.22586e-11,	-3.66982e-10	
90	7.943282e+04	-7.22485e-11,	-3.75689e-10	
91	8.128305e+04	-7.22398e-11,	-3.84595e-10	
92	8.317638e+04	-7.22323e-11,	-3.93706e-10	
93	8.511380e+04	-7.22261e-11,	-4.03025e-10	
94	8.709636e+04	-7.22211e-11,	-4.12558e-10	
95	8.912509e+04	-7.22174e-11,	-4.22310e-10	
96	9.120108e+04	-7.22149e-11,	-4.32287e-10	
97	9.332543e+04	-7.22136e-11,	-4.42492e-10	
98	9.549926e+04	-7.22136e-11,	-4.52933e-10	
99	9.772372e+04	-7.22149e-11,	-4.63613e-10	
100	1.000000e+05	-7.22173e-11,	-4.74540e-10	
101	1.023293e+05	-7.22211e-11,	-4.85718e-10	
102	1.047129e+05	-7.22260e-11,	-4.97154e-10	
103	1.071519e+05	-7.22323e-11,	-5.08853e-10	
104	1.096478e+05	-7.22398e-11,	-5.20823e-10	
105	1.122018e+05	-7.22487e-11,	-5.33068e-10	
106	1.148154e+05	-7.22588e-11,	-5.45597e-10	
107	1.174898e+05	-7.22703e-11,	-5.58414e-10	
108	1.202264e+05	-7.22832e-11,	-5.71528e-10	
109	1.230269e+05	-7.22975e-11,	-5.84945e-10	
110	1.258925e+05	-7.23132e-11,	-5.98672e-10	
111	1.288250e+05	-7.23304e-11,	-6.12717e-10	
112	1.318257e+05	-7.23490e-11,	-6.27087e-10	

Index   frequency       v1#branch                       
--------------------------------------------------------------------------------
113	1.348963e+05	-7.23692e-11,	-6.41789e-10	
114	1.380384e+05	-7.23910e-11,	-6.56831e-10	
115	1.412538e+05	-7.24144e-11,	-6.72222e-10	
116	1.445440e+05	-7.24395e-11,	-6.87969e-10	
117	1.479108e+05	-7.24664e-11,	-7.04081e-10	
118	1.513561e+05	-7.24950e-11,	-7.20566e-10	
119	1.548817e+05	-7.25254e-11,	-7.37434e-10	
120	1.584893e+05	-7.25578e-11,	-7.54692e-10	
121	1.621810e+05	-7.25922e-11,	-7.72351e-10	
122	1.659587e+05	-7.26286e-11,	-7.90419e-10	
123	1.698244e+05	-7.26672e-11,	-8.08906e-10	
124	1.737801e+05	-7.27080e-11,	-8.27822e-10	
125	1.778279e+05	-7.27511e-11,	-8.47177e-10	
126	1.819701e+05	-7.27966e-11,	-8.66982e-10	
127	1.862087e+05	-7.28445e-11,	-8.87246e-10	
128	1.905461e+05	-7.28951e-11,	-9.07980e-10	
129	1.949845e+05	-7.29484e-11,	-9.29196e-10	
130	1.995262e+05	-7.30045e-11,	-9.50905e-10	
131	2.041738e+05	-7.30635e-11,	-9.73117e-10	
132	2.089296e+05	-7.31256e-11,	-9.95846e-10	
133	2.137962e+05	-7.31909e-11,	-1.01910e-09	
134	2.187762e+05	-7.32595e-11,	-1.04290e-09	
135	2.238721e+05	-7.33315e-11,	-1.06725e-09	
136	2.290868e+05	-7.34072e-11,	-1.09217e-09	
137	2.344229e+05	-7.34867e-11,	-1.11766e-09	
138	2.398833e+05	-7.35702e-11,	-1.14375e-09	
139	2.454709e+05	-7.36578e-11,	-1.17044e-09	
140	2.511886e+05	-7.37497e-11,	-1.19776e-09	
141	2.570396e+05	-7.38461e-11,	-1.22571e-09	
142	2.630268e+05	-7.39472e-11,	-1.25431e-09	
143	2.691535e+05	-7.40533e-11,	-1.28357e-09	
144	2.754229e+05	-7.41646e-11,	-1.31351e-09	
145	2.818383e+05	-7.42812e-11,	-1.34416e-09	
146	2.884032e+05	-7.44035e-11,	-1.37551e-09	
147	2.951209e+05	-7.45316e-11,	-1.40759e-09	
148	3.019952e+05	-7.46660e-11,	-1.44042e-09	
149	3.090295e+05	-7.48068e-11,	-1.47402e-09	
150	3.162278e+05	-7.49544e-11,	-1.50839e-09	
151	3.235937e+05	-7.51090e-11,	-1.54357e-09	
152	3.311311e+05	-7.52710e-11,	-1.57956e-09	
153	3.388442e+05	-7.54408e-11,	-1.61639e-09	
154	3.467369e+05	-7.56187e-11,	-1.65408e-09	
155	3.548134e+05	-7.58051e-11,	-1.69264e-09	
156	3.630781e+05	-7.60003e-11,	-1.73210e-09	
157	3.715352e+05	-7.62048e-11,	-1.77248e-09	
158	3.801894e+05	-7.64191e-11,	-1.81380e-09	
159	3.890451e+05	-7.66435e-11,	-1.85609e-09	
160	3.981072e+05	-7.68786e-11,	-1.89935e-09	
161	4.073803e+05	-7.71248e-11,	-1.94362e-09	
162	4.168694e+05	-7.73827e-11,	-1.98893e-09	
163	4.265795e+05	-7.76529e-11,	-2.03528e-09	
164	4.365158e+05	-7.79358e-11,	-2.08272e-09	
165	4.466836e+05	-7.82321e-11,	-2.13126e-09	
166	4.570882e+05	-7.85425e-11,	-2.18093e-09	
167	4.677351e+05	-7.88675e-11,	-2.23176e-09	
168	4.786301e+05	-7.92079e-11,	-2.28377e-09	
169	4.897788e+05	-7.95644e-11,	-2.33699e-09	
170	5.011872e+05	-7.99377e-11,	-2.39145e-09	

Index   frequency       v1#branch                       
--------------------------------------------------------------------------------
171	5.128614e+05	-8.03287e-11,	-2.44718e-09	
172	5.248075e+05	-8.07381e-11,	-2.50420e-09	
173	5.370318e+05	-8.11669e-11,	-2.56255e-09	
174	5.495409e+05	-8.16159e-11,	-2.62227e-09	
175	5.623413e+05	-8.20861e-11,	-2.68337e-09	
176	5.754399e+05	-8.25786e-11,	-2.74589e-09	
177	5.888437e+05	-8.30942e-11,	-2.80987e-09	
178	6.025596e+05	-8.36342e-11,	-2.87534e-09	
179	6.165950e+05	-8.41997e-11,	-2.94233e-09	
180	6.309573e+05	-8.47919e-11,	-3.01089e-09	
181	6.456542e+05	-8.54120e-11,	-3.08104e-09	
182	6.606934e+05	-8.60613e-11,	-3.15282e-09	
183	6.760830e+05	-8.67413e-11,	-3.22627e-09	
184	6.918310e+05	-8.74534e-11,	-3.30144e-09	
185	7.079458e+05	-8.81990e-11,	-3.37835e-09	
186	7.244360e+05	-8.89798e-11,	-3.45705e-09	
187	7.413102e+05	-8.97974e-11,	-3.53759e-09	
188	7.585776e+05	-9.06535e-11,	-3.62000e-09	
189	7.762471e+05	-9.15500e-11,	-3.70434e-09	
190	7.943282e+05	-9.24888e-11,	-3.79063e-09	
191	8.128305e+05	-9.34719e-11,	-3.87894e-09	
192	8.317638e+05	-9.45012e-11,	-3.96930e-09	
193	8.511380e+05	-9.55792e-11,	-4.06176e-09	
194	8.709636e+05	-9.67079e-11,	-4.15638e-09	
195	8.912509e+05	-9.78898e-11,	-4.25320e-09	
196	9.120108e+05	-9.91274e-11,	-4.35227e-09	
197	9.332543e+05	-1.00423e-10,	-4.45365e-09	
198	9.549926e+05	-1.01780e-10,	-4.55739e-09	
199	9.772372e+05	-1.03201e-10,	-4.66355e-09	
200	1.000000e+06	-1.04689e-10,	-4.77218e-09	
201	1.023293e+06	-1.06248e-10,	-4.88333e-09	
202	1.047129e+06	-1.07879e-10,	-4.99708e-09	
203	1.071519e+06	-1.09588e-10,	-5.11347e-09	
204	1.096478e+06	-1.11376e-10,	-5.23258e-09	
205	1.122018e+06	-1.13250e-10,	-5.35445e-09	
206	1.148154e+06	-1.15211e-10,	-5.47916e-09	
207	1.174898e+06	-1.17265e-10,	-5.60678e-09	
208	1.202264e+06	-1.19416e-10,	-5.73737e-09	
209	1.230269e+06	-1.21668e-10,	-5.87100e-09	
210	1.258925e+06	-1.24026e-10,	-6.00773e-09	
211	1.288250e+06	-1.26496e-10,	-6.14765e-09	
212	1.318257e+06	-1.29081e-10,	-6.29083e-09	
213	1.348963e+06	-1.31789e-10,	-6.43734e-09	
214	1.380384e+06	-1.34624e-10,	-6.58726e-09	
215	1.412538e+06	-1.37593e-10,	-6.74067e-09	
216	1.445440e+06	-1.40701e-10,	-6.89765e-09	
217	1.479108e+06	-1.43956e-10,	-7.05829e-09	
218	1.513561e+06	-1.47364e-10,	-7.22266e-09	
219	1.548817e+06	-1.50933e-10,	-7.39086e-09	
220	1.584893e+06	-1.54671e-10,	-7.56297e-09	
221	1.621810e+06	-1.58584e-10,	-7.73909e-09	
222	1.659587e+06	-1.62681e-10,	-7.91930e-09	
223	1.698244e+06	-1.66972e-10,	-8.10371e-09	
224	1.737801e+06	-1.71464e-10,	-8.29241e-09	
225	1.778279e+06	-1.76169e-10,	-8.48550e-09	
226	1.819701e+06	-1.81094e-10,	-8.68308e-09	
227	1.862087e+06	-1.86252e-10,	-8.88526e-09	
228	1.905461e+06	-1.91653e-10,	-9.09214e-09	

Index   frequency       v1#branch                       
--------------------------------------------------------------------------------
229	1.949845e+06	-1.97309e-10,	-9.30384e-09	
230	1.995262e+06	-2.03230e-10,	-9.52045e-09	
231	2.041738e+06	-2.09431e-10,	-9.74211e-09	
232	2.089296e+06	-2.15923e-10,	-9.96892e-09	
233	2.137962e+06	-2.22722e-10,	-1.02010e-08	
234	2.187762e+06	-2.29840e-10,	-1.04385e-08	
235	2.238721e+06	-2.37294e-10,	-1.06815e-08	
236	2.290868e+06	-2.45099e-10,	-1.09302e-08	
237	2.344229e+06	-2.53271e-10,	-1.11846e-08	
238	2.398833e+06	-2.61829e-10,	-1.14449e-08	
239	2.454709e+06	-2.70789e-10,	-1.17113e-08	
240	2.511886e+06	-2.80171e-10,	-1.19839e-08	
241	2.570396e+06	-2.89994e-10,	-1.22629e-08	
242	2.630268e+06	-3.00281e-10,	-1.25483e-08	
243	2.691535e+06	-3.11051e-10,	-1.28403e-08	
244	2.754229e+06	-3.22329e-10,	-1.31391e-08	
245	2.818383e+06	-3.34137e-10,	-1.34449e-08	
246	2.884032e+06	-3.46501e-10,	-1.37578e-08	
247	2.951209e+06	-3.59448e-10,	-1.40779e-08	
248	3.019952e+06	-3.73003e-10,	-1.44055e-08	
249	3.090295e+06	-3.87197e-10,	-1.47406e-08	
250	3.162278e+06	-4.02058e-10,	-1.50836e-08	
251	3.235937e+06	-4.17619e-10,	-1.54345e-08	
252	3.311311e+06	-4.33912e-10,	-1.57936e-08	
253	3.388442e+06	-4.50971e-10,	-1.61609e-08	
254	3.467369e+06	-4.68834e-10,	-1.65368e-08	
255	3.548134e+06	-4.87536e-10,	-1.69215e-08	
256	3.630781e+06	-5.07118e-10,	-1.73150e-08	
257	3.715352e+06	-5.27621e-10,	-1.77177e-08	
258	3.801894e+06	-5.49088e-10,	-1.81297e-08	
259	3.890451e+06	-5.71565e-10,	-1.85512e-08	
260	3.981072e+06	-5.95099e-10,	-1.89825e-08	
261	4.073803e+06	-6.19739e-10,	-1.94238e-08	
262	4.168694e+06	-6.45537e-10,	-1.98753e-08	
263	4.265795e+06	-6.72548e-10,	-2.03373e-08	
264	4.365158e+06	-7.00829e-10,	-2.08099e-08	
265	4.466836e+06	-7.30438e-10,	-2.12935e-08	
266	4.570882e+06	-7.61438e-10,	-2.17883e-08	
267	4.677351e+06	-7.93895e-10,	-2.22945e-08	
268	4.786301e+06	-8.27876e-10,	-2.28124e-08	
269	4.897788e+06	-8.63454e-10,	-2.33422e-08	
270	5.011872e+06	-9.00701e-10,	-2.38843e-08	
271	5.128614e+06	-9.39698e-10,	-2.44389e-08	
272	5.248075e+06	-9.80525e-10,	-2.50063e-08	
273	5.370318e+06	-1.02327e-09,	-2.55868e-08	
274	5.495409e+06	-1.06802e-09,	-2.61807e-08	
275	5.623413e+06	-1.11486e-09,	-2.67882e-08	
276	5.754399e+06	-1.16391e-09,	-2.74098e-08	
277	5.888437e+06	-1.21525e-09,	-2.80456e-08	
278	6.025596e+06	-1.26900e-09,	-2.86961e-08	
279	6.165950e+06	-1.32527e-09,	-2.93615e-08	
280	6.309573e+06	-1.38418e-09,	-3.00422e-08	
281	6.456542e+06	-1.44585e-09,	-3.07385e-08	
282	6.606934e+06	-1.51040e-09,	-3.14508e-08	
283	6.760830e+06	-1.57798e-09,	-3.21794e-08	
284	6.918310e+06	-1.64871e-09,	-3.29247e-08	
285	7.079458e+06	-1.72276e-09,	-3.36871e-08	
286	7.244360e+06	-1.80027e-09,	-3.44669e-08	

Index   frequency       v1#branch                       
--------------------------------------------------------------------------------
287	7.413102e+06	-1.88141e-09,	-3.52646e-08	
288	7.585776e+06	-1.96633e-09,	-3.60804e-08	
289	7.762471e+06	-2.05522e-09,	-3.69148e-08	
290	7.943282e+06	-2.14827e-09,	-3.77683e-08	
291	8.128305e+06	-2.24565e-09,	-3.86412e-08	
292	8.317638e+06	-2.34758e-09,	-3.95339e-08	
293	8.511380e+06	-2.45427e-09,	-4.04469e-08	
294	8.709636e+06	-2.56592e-09,	-4.13806e-08	
295	8.912509e+06	-2.68278e-09,	-4.23355e-08	
296	9.120108e+06	-2.80508e-09,	-4.33119e-08	
297	9.332543e+06	-2.93306e-09,	-4.43104e-08	
298	9.549926e+06	-3.06700e-09,	-4.53315e-08	
299	9.772372e+06	-3.20716e-09,	-4.63755e-08	
300	1.000000e+07	-3.35384e-09,	-4.74431e-08	
301	1.023293e+07	-3.50732e-09,	-4.85345e-08	
302	1.047129e+07	-3.66791e-09,	-4.96505e-08	
303	1.071519e+07	-3.83595e-09,	-5.07914e-08	
304	1.096478e+07	-4.01178e-09,	-5.19578e-08	
305	1.122018e+07	-4.19573e-09,	-5.31502e-08	
306	1.148154e+07	-4.38819e-09,	-5.43690e-08	
307	1.174898e+07	-4.58954e-09,	-5.56150e-08	
308	1.202264e+07	-4.80017e-09,	-5.68885e-08	
309	1.230269e+07	-5.02052e-09,	-5.81901e-08	
310	1.258925e+07	-5.25101e-09,	-5.95204e-08	
311	1.288250e+07	-5.49211e-09,	-6.08799e-08	
312	1.318257e+07	-5.74428e-09,	-6.22692e-08	
313	1.348963e+07	-6.00802e-09,	-6.36888e-08	
314	1.380384e+07	-6.28385e-09,	-6.51393e-08	
315	1.412538e+07	-6.57230e-09,	-6.66213e-08	
316	1.445440e+07	-6.87394e-09,	-6.81353e-08	
317	1.479108e+07	-7.18934e-09,	-6.96820e-08	
318	1.513561e+07	-7.51912e-09,	-7.12619e-08	
319	1.548817e+07	-7.86390e-09,	-7.28755e-08	
320	1.584893e+07	-8.22435e-09,	-7.45235e-08	
321	1.621810e+07	-8.60113e-09,	-7.62065e-08	
322	1.659587e+07	-8.99498e-09,	-7.79249e-08	
323	1.698244e+07	-9.40661e-09,	-7.96795e-08	
324	1.737801e+07	-9.83680e-09,	-8.14707e-08	
325	1.778279e+07	-1.02864e-08,	-8.32991e-08	
326	1.819701e+07	-1.07561e-08,	-8.51654e-08	
327	1.862087e+07	-1.12469e-08,	-8.70700e-08	
328	1.905461e+07	-1.17596e-08,	-8.90135e-08	
329	1.949845e+07	-1.22951e-08,	-9.09964e-08	
330	1.995262e+07	-1.28545e-08,	-9.30193e-08	
331	2.041738e+07	-1.34386e-08,	-9.50827e-08	
332	2.089296e+07	-1.40486e-08,	-9.71871e-08	
333	2.137962e+07	-1.46855e-08,	-9.93329e-08	
334	2.187762e+07	-1.53503e-08,	-1.01521e-07	
335	2.238721e+07	-1.60443e-08,	-1.03751e-07	
336	2.290868e+07	-1.67685e-08,	-1.06024e-07	
337	2.344229e+07	-1.75242e-08,	-1.08340e-07	
338	2.398833e+07	-1.83127e-08,	-1.10700e-07	
339	2.454709e+07	-1.91352e-08,	-1.13103e-07	
340	2.511886e+07	-1.99930e-08,	-1.15551e-07	
341	2.570396e+07	-2.08875e-08,	-1.18043e-07	
342	2.630268e+07	-2.18201e-08,	-1.20581e-07	
343	2.691535e+07	-2.27922e-08,	-1.23163e-07	
344	2.754229e+07	-2.38053e-08,	-1.25790e-07	

Index   frequency       v1#branch                       
--------------------------------------------------------------------------------
345	2.818383e+07	-2.48609e-08,	-1.28462e-07	
346	2.884032e+07	-2.59606e-08,	-1.31180e-07	
347	2.951209e+07	-2.71058e-08,	-1.33942e-07	
348	3.019952e+07	-2.82983e-08,	-1.36750e-07	
349	3.090295e+07	-2.95396e-08,	-1.39603e-07	
350	3.162278e+07	-3.08314e-08,	-1.42501e-07	
351	3.235937e+07	-3.21754e-08,	-1.45444e-07	
352	3.311311e+07	-3.35734e-08,	-1.48431e-07	
353	3.388442e+07	-3.50270e-08,	-1.51462e-07	
354	3.467369e+07	-3.65380e-08,	-1.54536e-07	
355	3.548134e+07	-3.81083e-08,	-1.57653e-07	
356	3.630781e+07	-3.97395e-08,	-1.60812e-07	
357	3.715352e+07	-4.14335e-08,	-1.64013e-07	
358	3.801894e+07	-4.31920e-08,	-1.67254e-07	
359	3.890451e+07	-4.50169e-08,	-1.70535e-07	
360	3.981072e+07	-4.69100e-08,	-1.73854e-07	
361	4.073803e+07	-4.88729e-08,	-1.77211e-07	
362	4.168694e+07	-5.09074e-08,	-1.80604e-07	
363	4.265795e+07	-5.30154e-08,	-1.84032e-07	
364	4.365158e+07	-5.51984e-08,	-1.87493e-07	
365	4.466836e+07	-5.74580e-08,	-1.90986e-07	
366	4.570882e+07	-5.97959e-08,	-1.94509e-07	
367	4.677351e+07	-6.22137e-08,	-1.98061e-07	
368	4.786301e+07	-6.47127e-08,	-2.01638e-07	
369	4.897788e+07	-6.72943e-08,	-2.05240e-07	
370	5.011872e+07	-6.99599e-08,	-2.08863e-07	
371	5.128614e+07	-7.27107e-08,	-2.12506e-07	
372	5.248075e+07	-7.55476e-08,	-2.16167e-07	
373	5.370318e+07	-7.84718e-08,	-2.19842e-07	
374	5.495409e+07	-8.14840e-08,	-2.23529e-07	
375	5.623413e+07	-8.45849e-08,	-2.27225e-07	
376	5.754399e+07	-8.77751e-08,	-2.30928e-07	
377	5.888437e+07	-9.10550e-08,	-2.34634e-07	
378	6.025596e+07	-9.44247e-08,	-2.38341e-07	
379	6.165950e+07	-9.78843e-08,	-2.42045e-07	
380	6.309573e+07	-1.01434e-07,	-2.45743e-07	
381	6.456542e+07	-1.05072e-07,	-2.49433e-07	
382	6.606934e+07	-1.08800e-07,	-2.53110e-07	
383	6.760830e+07	-1.12615e-07,	-2.56771e-07	
384	6.918310e+07	-1.16518e-07,	-2.60414e-07	
385	7.079458e+07	-1.20506e-07,	-2.64035e-07	
386	7.244360e+07	-1.24578e-07,	-2.67630e-07	
387	7.413102e+07	-1.28733e-07,	-2.71197e-07	
388	7.585776e+07	-1.32968e-07,	-2.74732e-07	
389	7.762471e+07	-1.37281e-07,	-2.78232e-07	
390	7.943282e+07	-1.41669e-07,	-2.81694e-07	
391	8.128305e+07	-1.46131e-07,	-2.85115e-07	
392	8.317638e+07	-1.50662e-07,	-2.88493e-07	
393	8.511380e+07	-1.55260e-07,	-2.91824e-07	
394	8.709636e+07	-1.59921e-07,	-2.95106e-07	
395	8.912509e+07	-1.64641e-07,	-2.98337e-07	
396	9.120108e+07	-1.69417e-07,	-3.01515e-07	
397	9.332543e+07	-1.74244e-07,	-3.04638e-07	
398	9.549926e+07	-1.79118e-07,	-3.07704e-07	
399	9.772372e+07	-1.84034e-07,	-3.10712e-07	
400	1.000000e+08	-1.88988e-07,	-3.13660e-07	

* /home/fossee/updatedexamples/frequencyresponse_jfet/frequencyresponse_jfet.cir
AC Analysis  Thu Mar  3 21:19:34  2016
--------------------------------------------------------------------------------
Index   frequency       v2#branch                       
--------------------------------------------------------------------------------
0	1.000000e+04	-2.71666e-07,	-1.29529e-07	
1	1.023293e+04	-2.74646e-07,	-1.29411e-07	
2	1.047129e+04	-2.77619e-07,	-1.29224e-07	
3	1.071519e+04	-2.80582e-07,	-1.28970e-07	
4	1.096478e+04	-2.83531e-07,	-1.28649e-07	
5	1.122018e+04	-2.86465e-07,	-1.28261e-07	
6	1.148154e+04	-2.89379e-07,	-1.27808e-07	
7	1.174898e+04	-2.92271e-07,	-1.27291e-07	
8	1.202264e+04	-2.95139e-07,	-1.26712e-07	
9	1.230269e+04	-2.97979e-07,	-1.26070e-07	
10	1.258925e+04	-3.00789e-07,	-1.25369e-07	
11	1.288250e+04	-3.03566e-07,	-1.24611e-07	
