                                kicad schematic
                                Transient Analysis  Wed Jul 01 09:51:39  2026
--------------------------------------------------------------------------------
Index   time            input           net-_c1-pad2_   net-_c3-pad1_   
--------------------------------------------------------------------------------
0	1.002800e-02	-8.75115e-03	1.749214e-02	2.877267e+00	
1	1.012800e-02	-3.60155e-02	1.749214e-02	2.877267e+00	
2	1.022800e-02	-4.95231e-02	1.749214e-02	2.877267e+00	
3	1.032800e-02	-4.41146e-02	1.749214e-02	2.877267e+00	
4	1.042800e-02	-2.18558e-02	1.749214e-02	2.877267e+00	
5	1.052800e-02	8.751153e-03	1.749214e-02	2.877267e+00	
6	1.062800e-02	3.601545e-02	1.749214e-02	2.877267e+00	
7	1.072800e-02	4.952307e-02	1.749214e-02	2.877267e+00	
8	1.082800e-02	4.411456e-02	1.749214e-02	2.877267e+00	
9	1.092800e-02	2.185579e-02	1.749214e-02	2.877267e+00	
10	1.102800e-02	-8.75115e-03	1.749214e-02	2.877267e+00	
11	1.112800e-02	-3.60155e-02	1.749214e-02	2.877267e+00	
12	1.122800e-02	-4.95231e-02	1.749214e-02	2.877267e+00	
13	1.132800e-02	-4.41146e-02	1.749214e-02	2.877267e+00	
14	1.142800e-02	-2.18558e-02	1.749214e-02	2.877267e+00	
15	1.152800e-02	8.751153e-03	1.749214e-02	2.877267e+00	
16	1.162800e-02	3.601545e-02	1.749214e-02	2.877267e+00	
17	1.172800e-02	4.952307e-02	1.749214e-02	2.877267e+00	
18	1.182800e-02	4.411456e-02	1.749214e-02	2.877267e+00	
19	1.192800e-02	2.185579e-02	1.749214e-02	2.877267e+00	
20	1.202800e-02	-8.75115e-03	1.749214e-02	2.877267e+00	
21	1.212800e-02	-3.60155e-02	1.749214e-02	2.877267e+00	
22	1.222800e-02	-4.95231e-02	1.749214e-02	2.877267e+00	
23	1.232800e-02	-4.41146e-02	1.749214e-02	2.877267e+00	
24	1.242800e-02	-2.18558e-02	1.749214e-02	2.877267e+00	
25	1.252800e-02	8.751153e-03	1.749214e-02	2.877267e+00	
26	1.262800e-02	3.601545e-02	1.749214e-02	2.877267e+00	
27	1.272800e-02	4.952307e-02	1.749214e-02	2.877267e+00	
28	1.282800e-02	4.411456e-02	1.749214e-02	2.877267e+00	
29	1.292800e-02	2.185579e-02	1.749214e-02	2.877267e+00	
30	1.302800e-02	-8.75115e-03	1.749214e-02	2.877267e+00	
31	1.312800e-02	-3.60155e-02	1.749214e-02	2.877267e+00	
32	1.322800e-02	-4.95231e-02	1.749214e-02	2.877267e+00	
33	1.332800e-02	-4.41146e-02	1.749214e-02	2.877267e+00	
34	1.342800e-02	-2.18558e-02	1.749214e-02	2.877267e+00	
35	1.352800e-02	8.751153e-03	1.749214e-02	2.877267e+00	
36	1.362800e-02	3.601545e-02	1.749214e-02	2.877267e+00	
37	1.372800e-02	4.952307e-02	1.749214e-02	2.877267e+00	
38	1.382800e-02	4.411456e-02	1.749214e-02	2.877267e+00	
39	1.392800e-02	2.185579e-02	1.749214e-02	2.877267e+00	
40	1.402800e-02	-8.75115e-03	1.749214e-02	2.877267e+00	
41	1.412800e-02	-3.60155e-02	1.749214e-02	2.877267e+00	
42	1.422800e-02	-4.95231e-02	1.749214e-02	2.877267e+00	
43	1.432800e-02	-4.41146e-02	1.749214e-02	2.877267e+00	
44	1.442800e-02	-2.18558e-02	1.749214e-02	2.877267e+00	
45	1.452800e-02	8.751153e-03	1.749214e-02	2.877267e+00	
46	1.462800e-02	3.601545e-02	1.749214e-02	2.877267e+00	
47	1.472800e-02	4.952307e-02	1.749214e-02	2.877267e+00	
48	1.482800e-02	4.411456e-02	1.749214e-02	2.877267e+00	
49	1.492800e-02	2.185579e-02	1.749214e-02	2.877267e+00	
50	1.500000e-02	-8.82123e-16	1.749214e-02	2.877267e+00	

                                kicad schematic
                                Transient Analysis  Wed Jul 01 09:51:39  2026
--------------------------------------------------------------------------------
Index   time            net-_c4-pad1_   net-_c4-pad2_   net-_r1-pad2_   
--------------------------------------------------------------------------------
0	1.002800e-02	3.965521e-03	2.877267e+00	1.749214e-02	
1	1.012800e-02	3.965707e-03	2.877267e+00	1.749214e-02	
2	1.022800e-02	3.965871e-03	2.877267e+00	1.749214e-02	
3	1.032800e-02	3.965910e-03	2.877267e+00	1.749214e-02	
4	1.042800e-02	3.965840e-03	2.877267e+00	1.749214e-02	
5	1.052800e-02	3.965734e-03	2.877267e+00	1.749214e-02	
6	1.062800e-02	3.965618e-03	2.877267e+00	1.749214e-02	
7	1.072800e-02	3.965515e-03	2.877267e+00	1.749214e-02	
8	1.082800e-02	3.965439e-03	2.877267e+00	1.749214e-02	
9	1.092800e-02	3.965431e-03	2.877267e+00	1.749214e-02	
10	1.102800e-02	3.965522e-03	2.877267e+00	1.749214e-02	
11	1.112800e-02	3.965708e-03	2.877267e+00	1.749214e-02	
12	1.122800e-02	3.965872e-03	2.877267e+00	1.749214e-02	
13	1.132800e-02	3.965911e-03	2.877267e+00	1.749214e-02	
14	1.142800e-02	3.965840e-03	2.877267e+00	1.749214e-02	
15	1.152800e-02	3.965734e-03	2.877267e+00	1.749214e-02	
16	1.162800e-02	3.965618e-03	2.877267e+00	1.749214e-02	
17	1.172800e-02	3.965516e-03	2.877267e+00	1.749214e-02	
18	1.182800e-02	3.965439e-03	2.877267e+00	1.749214e-02	
19	1.192800e-02	3.965432e-03	2.877267e+00	1.749214e-02	
20	1.202800e-02	3.965522e-03	2.877267e+00	1.749214e-02	
21	1.212800e-02	3.965708e-03	2.877267e+00	1.749214e-02	
22	1.222800e-02	3.965873e-03	2.877267e+00	1.749214e-02	
23	1.232800e-02	3.965912e-03	2.877267e+00	1.749214e-02	
24	1.242800e-02	3.965841e-03	2.877267e+00	1.749214e-02	
25	1.252800e-02	3.965734e-03	2.877267e+00	1.749214e-02	
26	1.262800e-02	3.965619e-03	2.877267e+00	1.749214e-02	
27	1.272800e-02	3.965516e-03	2.877267e+00	1.749214e-02	
28	1.282800e-02	3.965439e-03	2.877267e+00	1.749214e-02	
29	1.292800e-02	3.965432e-03	2.877267e+00	1.749214e-02	
30	1.302800e-02	3.965523e-03	2.877267e+00	1.749214e-02	
31	1.312800e-02	3.965709e-03	2.877267e+00	1.749214e-02	
32	1.322800e-02	3.965874e-03	2.877267e+00	1.749214e-02	
33	1.332800e-02	3.965912e-03	2.877267e+00	1.749214e-02	
34	1.342800e-02	3.965841e-03	2.877267e+00	1.749214e-02	
35	1.352800e-02	3.965735e-03	2.877267e+00	1.749214e-02	
36	1.362800e-02	3.965619e-03	2.877267e+00	1.749214e-02	
37	1.372800e-02	3.965516e-03	2.877267e+00	1.749214e-02	
38	1.382800e-02	3.965440e-03	2.877267e+00	1.749214e-02	
39	1.392800e-02	3.965432e-03	2.877267e+00	1.749214e-02	
40	1.402800e-02	3.965523e-03	2.877267e+00	1.749214e-02	
41	1.412800e-02	3.965709e-03	2.877267e+00	1.749214e-02	
42	1.422800e-02	3.965874e-03	2.877267e+00	1.749214e-02	
43	1.432800e-02	3.965913e-03	2.877267e+00	1.749214e-02	
44	1.442800e-02	3.965841e-03	2.877267e+00	1.749214e-02	
45	1.452800e-02	3.965735e-03	2.877267e+00	1.749214e-02	
46	1.462800e-02	3.965619e-03	2.877267e+00	1.749214e-02	
47	1.472800e-02	3.965516e-03	2.877267e+00	1.749214e-02	
48	1.482800e-02	3.965440e-03	2.877267e+00	1.749214e-02	
49	1.492800e-02	3.965432e-03	2.877267e+00	1.749214e-02	
50	1.500000e-02	3.965492e-03	2.877267e+00	1.749214e-02	

                                kicad schematic
                                Transient Analysis  Wed Jul 01 09:51:39  2026
--------------------------------------------------------------------------------
Index   time            output          q.x1.q1#collCX  q.x1.q2#collCX  
--------------------------------------------------------------------------------
0	1.002800e-02	3.924530e+00	-3.28048e-09	3.965522e-03	
1	1.012800e-02	3.924530e+00	-2.14869e-09	3.965709e-03	
2	1.022800e-02	3.924530e+00	-1.58446e-10	3.965875e-03	
3	1.032800e-02	3.924530e+00	2.013931e-09	3.965915e-03	
4	1.042800e-02	3.924530e+00	3.306128e-09	3.965843e-03	
5	1.052800e-02	3.924530e+00	3.477100e-09	3.965737e-03	
6	1.062800e-02	3.924530e+00	2.335043e-09	3.965620e-03	
7	1.072800e-02	3.924530e+00	5.311165e-10	3.965517e-03	
8	1.082800e-02	3.924530e+00	-1.52443e-09	3.965440e-03	
9	1.092800e-02	3.924530e+00	-2.91668e-09	3.965432e-03	
10	1.102800e-02	3.924530e+00	-3.28011e-09	3.965523e-03	
11	1.112800e-02	3.924530e+00	-2.14978e-09	3.965710e-03	
12	1.122800e-02	3.924530e+00	-1.58387e-10	3.965876e-03	
13	1.132800e-02	3.924530e+00	2.012869e-09	3.965916e-03	
14	1.142800e-02	3.924530e+00	3.306481e-09	3.965844e-03	
15	1.152800e-02	3.924530e+00	3.476346e-09	3.965737e-03	
16	1.162800e-02	3.924530e+00	2.335585e-09	3.965620e-03	
17	1.172800e-02	3.924530e+00	5.304516e-10	3.965517e-03	
18	1.182800e-02	3.924530e+00	-1.52388e-09	3.965440e-03	
19	1.192800e-02	3.924530e+00	-2.91739e-09	3.965432e-03	
20	1.202800e-02	3.924530e+00	-3.27970e-09	3.965523e-03	
21	1.212800e-02	3.924530e+00	-2.15075e-09	3.965711e-03	
22	1.222800e-02	3.924530e+00	-1.58222e-10	3.965877e-03	
23	1.232800e-02	3.924530e+00	2.011917e-09	3.965916e-03	
24	1.242800e-02	3.924530e+00	3.306877e-09	3.965844e-03	
25	1.252800e-02	3.924530e+00	3.475636e-09	3.965737e-03	
26	1.262800e-02	3.924530e+00	2.336129e-09	3.965621e-03	
27	1.272800e-02	3.924530e+00	5.298124e-10	3.965517e-03	
28	1.282800e-02	3.924530e+00	-1.52332e-09	3.965440e-03	
29	1.292800e-02	3.924530e+00	-2.91806e-09	3.965432e-03	
30	1.302800e-02	3.924530e+00	-3.27926e-09	3.965524e-03	
31	1.312800e-02	3.924530e+00	-2.15163e-09	3.965711e-03	
32	1.322800e-02	3.924530e+00	-1.57977e-10	3.965878e-03	
33	1.332800e-02	3.924530e+00	2.011053e-09	3.965917e-03	
34	1.342800e-02	3.924530e+00	3.307302e-09	3.965845e-03	
35	1.352800e-02	3.924530e+00	3.474964e-09	3.965738e-03	
36	1.362800e-02	3.924530e+00	2.336670e-09	3.965621e-03	
37	1.372800e-02	3.924530e+00	5.291960e-10	3.965517e-03	
38	1.382800e-02	3.924530e+00	-1.52277e-09	3.965440e-03	
39	1.392800e-02	3.924530e+00	-2.91870e-09	3.965432e-03	
40	1.402800e-02	3.924530e+00	-3.27880e-09	3.965524e-03	
41	1.412800e-02	3.924530e+00	-2.15244e-09	3.965712e-03	
42	1.422800e-02	3.924530e+00	-1.57672e-10	3.965878e-03	
43	1.432800e-02	3.924530e+00	2.010262e-09	3.965917e-03	
44	1.442800e-02	3.924530e+00	3.307749e-09	3.965845e-03	
45	1.452800e-02	3.924530e+00	3.474323e-09	3.965738e-03	
46	1.462800e-02	3.924530e+00	2.337207e-09	3.965621e-03	
47	1.472800e-02	3.924530e+00	5.286003e-10	3.965517e-03	
48	1.482800e-02	3.924530e+00	-1.52223e-09	3.965440e-03	
49	1.492800e-02	3.924530e+00	-2.91931e-09	3.965433e-03	
50	1.500000e-02	3.924530e+00	-3.23270e-09	3.965493e-03	

                                kicad schematic
                                Transient Analysis  Wed Jul 01 09:51:39  2026
--------------------------------------------------------------------------------
Index   time            q.x1.q3#collCX  q.x1.q4#collCX  q.x1.q5#collCX  
--------------------------------------------------------------------------------
0	1.002800e-02	3.965520e-03	7.170555e-01	6.145794e-01	
1	1.012800e-02	3.965703e-03	7.170554e-01	6.145793e-01	
2	1.022800e-02	3.965866e-03	7.170555e-01	6.145794e-01	
3	1.032800e-02	3.965904e-03	7.170557e-01	6.145796e-01	
4	1.042800e-02	3.965835e-03	7.170559e-01	6.145798e-01	
5	1.052800e-02	3.965730e-03	7.170560e-01	6.145799e-01	
6	1.062800e-02	3.965615e-03	7.170560e-01	6.145799e-01	
7	1.072800e-02	3.965514e-03	7.170559e-01	6.145798e-01	
8	1.082800e-02	3.965438e-03	7.170557e-01	6.145796e-01	
9	1.092800e-02	3.965431e-03	7.170556e-01	6.145795e-01	
10	1.102800e-02	3.965520e-03	7.170555e-01	6.145794e-01	
11	1.112800e-02	3.965704e-03	7.170554e-01	6.145793e-01	
12	1.122800e-02	3.965867e-03	7.170555e-01	6.145794e-01	
13	1.132800e-02	3.965905e-03	7.170557e-01	6.145796e-01	
14	1.142800e-02	3.965835e-03	7.170559e-01	6.145798e-01	
15	1.152800e-02	3.965730e-03	7.170560e-01	6.145799e-01	
16	1.162800e-02	3.965616e-03	7.170560e-01	6.145799e-01	
17	1.172800e-02	3.965514e-03	7.170559e-01	6.145798e-01	
18	1.182800e-02	3.965438e-03	7.170557e-01	6.145796e-01	
19	1.192800e-02	3.965431e-03	7.170556e-01	6.145795e-01	
20	1.202800e-02	3.965521e-03	7.170555e-01	6.145794e-01	
21	1.212800e-02	3.965704e-03	7.170554e-01	6.145793e-01	
22	1.222800e-02	3.965867e-03	7.170555e-01	6.145794e-01	
23	1.232800e-02	3.965906e-03	7.170557e-01	6.145796e-01	
24	1.242800e-02	3.965835e-03	7.170559e-01	6.145798e-01	
25	1.252800e-02	3.965730e-03	7.170560e-01	6.145799e-01	
26	1.262800e-02	3.965616e-03	7.170560e-01	6.145799e-01	
27	1.272800e-02	3.965514e-03	7.170559e-01	6.145798e-01	
28	1.282800e-02	3.965439e-03	7.170557e-01	6.145796e-01	
29	1.292800e-02	3.965431e-03	7.170556e-01	6.145795e-01	
30	1.302800e-02	3.965521e-03	7.170555e-01	6.145794e-01	
31	1.312800e-02	3.965705e-03	7.170554e-01	6.145793e-01	
32	1.322800e-02	3.965868e-03	7.170555e-01	6.145794e-01	
33	1.332800e-02	3.965906e-03	7.170557e-01	6.145796e-01	
34	1.342800e-02	3.965836e-03	7.170559e-01	6.145798e-01	
35	1.352800e-02	3.965731e-03	7.170560e-01	6.145799e-01	
36	1.362800e-02	3.965616e-03	7.170560e-01	6.145799e-01	
37	1.372800e-02	3.965514e-03	7.170559e-01	6.145798e-01	
38	1.382800e-02	3.965439e-03	7.170557e-01	6.145796e-01	
39	1.392800e-02	3.965431e-03	7.170556e-01	6.145795e-01	
40	1.402800e-02	3.965521e-03	7.170555e-01	6.145794e-01	
41	1.412800e-02	3.965705e-03	7.170554e-01	6.145793e-01	
42	1.422800e-02	3.965868e-03	7.170555e-01	6.145794e-01	
43	1.432800e-02	3.965907e-03	7.170557e-01	6.145796e-01	
44	1.442800e-02	3.965836e-03	7.170559e-01	6.145798e-01	
45	1.452800e-02	3.965731e-03	7.170560e-01	6.145799e-01	
46	1.462800e-02	3.965616e-03	7.170560e-01	6.145799e-01	
47	1.472800e-02	3.965514e-03	7.170559e-01	6.145798e-01	
48	1.482800e-02	3.965439e-03	7.170557e-01	6.145796e-01	
49	1.492800e-02	3.965432e-03	7.170556e-01	6.145795e-01	
50	1.500000e-02	3.965491e-03	7.170555e-01	6.145794e-01	

                                kicad schematic
                                Transient Analysis  Wed Jul 01 09:51:39  2026
--------------------------------------------------------------------------------
Index   time            q.x1.q6#collCX  q.x1.q7#collCX  q.x1.q8#collCX  
--------------------------------------------------------------------------------
0	1.002800e-02	6.151301e-01	3.225874e+00	1.274972e+00	
1	1.012800e-02	6.151301e-01	3.225874e+00	1.274972e+00	
2	1.022800e-02	6.151302e-01	3.225874e+00	1.274972e+00	
3	1.032800e-02	6.151304e-01	3.225874e+00	1.274972e+00	
4	1.042800e-02	6.151306e-01	3.225874e+00	1.274972e+00	
5	1.052800e-02	6.151307e-01	3.225874e+00	1.274972e+00	
6	1.062800e-02	6.151307e-01	3.225874e+00	1.274972e+00	
7	1.072800e-02	6.151306e-01	3.225874e+00	1.274972e+00	
8	1.082800e-02	6.151304e-01	3.225874e+00	1.274972e+00	
9	1.092800e-02	6.151302e-01	3.225874e+00	1.274972e+00	
10	1.102800e-02	6.151301e-01	3.225874e+00	1.274972e+00	
11	1.112800e-02	6.151301e-01	3.225874e+00	1.274972e+00	
12	1.122800e-02	6.151302e-01	3.225874e+00	1.274972e+00	
13	1.132800e-02	6.151304e-01	3.225874e+00	1.274972e+00	
14	1.142800e-02	6.151306e-01	3.225874e+00	1.274972e+00	
15	1.152800e-02	6.151307e-01	3.225874e+00	1.274972e+00	
16	1.162800e-02	6.151307e-01	3.225874e+00	1.274972e+00	
17	1.172800e-02	6.151306e-01	3.225874e+00	1.274972e+00	
18	1.182800e-02	6.151304e-01	3.225874e+00	1.274972e+00	
19	1.192800e-02	6.151302e-01	3.225874e+00	1.274972e+00	
20	1.202800e-02	6.151301e-01	3.225874e+00	1.274972e+00	
21	1.212800e-02	6.151301e-01	3.225874e+00	1.274972e+00	
22	1.222800e-02	6.151302e-01	3.225874e+00	1.274972e+00	
23	1.232800e-02	6.151304e-01	3.225874e+00	1.274972e+00	
24	1.242800e-02	6.151306e-01	3.225874e+00	1.274972e+00	
25	1.252800e-02	6.151307e-01	3.225874e+00	1.274972e+00	
26	1.262800e-02	6.151307e-01	3.225874e+00	1.274972e+00	
27	1.272800e-02	6.151306e-01	3.225874e+00	1.274972e+00	
28	1.282800e-02	6.151304e-01	3.225874e+00	1.274972e+00	
29	1.292800e-02	6.151302e-01	3.225874e+00	1.274972e+00	
30	1.302800e-02	6.151301e-01	3.225874e+00	1.274972e+00	
31	1.312800e-02	6.151301e-01	3.225874e+00	1.274972e+00	
32	1.322800e-02	6.151302e-01	3.225874e+00	1.274972e+00	
33	1.332800e-02	6.151304e-01	3.225874e+00	1.274972e+00	
34	1.342800e-02	6.151306e-01	3.225874e+00	1.274972e+00	
35	1.352800e-02	6.151307e-01	3.225874e+00	1.274972e+00	
36	1.362800e-02	6.151307e-01	3.225874e+00	1.274972e+00	
37	1.372800e-02	6.151306e-01	3.225874e+00	1.274972e+00	
38	1.382800e-02	6.151304e-01	3.225874e+00	1.274972e+00	
39	1.392800e-02	6.151302e-01	3.225874e+00	1.274972e+00	
40	1.402800e-02	6.151301e-01	3.225874e+00	1.274972e+00	
41	1.412800e-02	6.151301e-01	3.225874e+00	1.274972e+00	
42	1.422800e-02	6.151302e-01	3.225874e+00	1.274972e+00	
43	1.432800e-02	6.151304e-01	3.225874e+00	1.274972e+00	
44	1.442800e-02	6.151306e-01	3.225874e+00	1.274972e+00	
45	1.452800e-02	6.151307e-01	3.225874e+00	1.274972e+00	
46	1.462800e-02	6.151307e-01	3.225874e+00	1.274972e+00	
47	1.472800e-02	6.151306e-01	3.225874e+00	1.274972e+00	
48	1.482800e-02	6.151304e-01	3.225874e+00	1.274972e+00	
49	1.492800e-02	6.151302e-01	3.225874e+00	1.274972e+00	
50	1.500000e-02	6.151302e-01	3.225874e+00	1.274972e+00	

                                kicad schematic
                                Transient Analysis  Wed Jul 01 09:51:39  2026
--------------------------------------------------------------------------------
Index   time            q.x1.q9#collCX  q.x1.q10#collCX q.x1.q11#collCX 
--------------------------------------------------------------------------------
0	1.002800e-02	3.226561e+00	1.701185e-02	3.917446e+00	
1	1.012800e-02	3.226561e+00	1.701185e-02	3.917446e+00	
2	1.022800e-02	3.226561e+00	1.701185e-02	3.917446e+00	
3	1.032800e-02	3.226561e+00	1.701185e-02	3.917446e+00	
4	1.042800e-02	3.226561e+00	1.701185e-02	3.917446e+00	
5	1.052800e-02	3.226561e+00	1.701185e-02	3.917446e+00	
6	1.062800e-02	3.226561e+00	1.701185e-02	3.917446e+00	
7	1.072800e-02	3.226561e+00	1.701185e-02	3.917446e+00	
8	1.082800e-02	3.226561e+00	1.701185e-02	3.917446e+00	
9	1.092800e-02	3.226561e+00	1.701185e-02	3.917446e+00	
10	1.102800e-02	3.226561e+00	1.701185e-02	3.917446e+00	
11	1.112800e-02	3.226561e+00	1.701185e-02	3.917446e+00	
12	1.122800e-02	3.226561e+00	1.701185e-02	3.917446e+00	
13	1.132800e-02	3.226561e+00	1.701185e-02	3.917446e+00	
14	1.142800e-02	3.226561e+00	1.701185e-02	3.917446e+00	
15	1.152800e-02	3.226561e+00	1.701185e-02	3.917446e+00	
16	1.162800e-02	3.226561e+00	1.701185e-02	3.917446e+00	
17	1.172800e-02	3.226561e+00	1.701185e-02	3.917446e+00	
18	1.182800e-02	3.226561e+00	1.701185e-02	3.917446e+00	
19	1.192800e-02	3.226561e+00	1.701185e-02	3.917446e+00	
20	1.202800e-02	3.226561e+00	1.701185e-02	3.917446e+00	
21	1.212800e-02	3.226561e+00	1.701185e-02	3.917446e+00	
22	1.222800e-02	3.226561e+00	1.701185e-02	3.917446e+00	
23	1.232800e-02	3.226561e+00	1.701185e-02	3.917446e+00	
24	1.242800e-02	3.226561e+00	1.701185e-02	3.917446e+00	
25	1.252800e-02	3.226561e+00	1.701185e-02	3.917446e+00	
26	1.262800e-02	3.226561e+00	1.701185e-02	3.917446e+00	
27	1.272800e-02	3.226561e+00	1.701185e-02	3.917446e+00	
28	1.282800e-02	3.226561e+00	1.701185e-02	3.917446e+00	
29	1.292800e-02	3.226561e+00	1.701185e-02	3.917446e+00	
30	1.302800e-02	3.226561e+00	1.701185e-02	3.917446e+00	
31	1.312800e-02	3.226561e+00	1.701185e-02	3.917446e+00	
32	1.322800e-02	3.226561e+00	1.701185e-02	3.917446e+00	
33	1.332800e-02	3.226561e+00	1.701185e-02	3.917446e+00	
34	1.342800e-02	3.226561e+00	1.701185e-02	3.917446e+00	
35	1.352800e-02	3.226561e+00	1.701185e-02	3.917446e+00	
36	1.362800e-02	3.226561e+00	1.701185e-02	3.917446e+00	
37	1.372800e-02	3.226561e+00	1.701185e-02	3.917446e+00	
38	1.382800e-02	3.226561e+00	1.701185e-02	3.917446e+00	
39	1.392800e-02	3.226561e+00	1.701185e-02	3.917446e+00	
40	1.402800e-02	3.226561e+00	1.701185e-02	3.917446e+00	
41	1.412800e-02	3.226561e+00	1.701185e-02	3.917446e+00	
42	1.422800e-02	3.226561e+00	1.701185e-02	3.917446e+00	
43	1.432800e-02	3.226561e+00	1.701185e-02	3.917446e+00	
44	1.442800e-02	3.226561e+00	1.701185e-02	3.917446e+00	
45	1.452800e-02	3.226561e+00	1.701185e-02	3.917446e+00	
46	1.462800e-02	3.226561e+00	1.701185e-02	3.917446e+00	
47	1.472800e-02	3.226561e+00	1.701185e-02	3.917446e+00	
48	1.482800e-02	3.226561e+00	1.701185e-02	3.917446e+00	
49	1.492800e-02	3.226561e+00	1.701185e-02	3.917446e+00	
50	1.500000e-02	3.226561e+00	1.701185e-02	3.917446e+00	

                                kicad schematic
                                Transient Analysis  Wed Jul 01 09:51:39  2026
--------------------------------------------------------------------------------
Index   time            q.x1.q12#collCX q.x1.q13#collCX q.x1.q14#collCX 
--------------------------------------------------------------------------------
