Title: kicad schematic
Date: Wed Jul 01 12:12:59  2026
Plotname: Transient Analysis
Flags: real
No. Variables: 20
No. Points: 59      
Variables:
	0	time	time
	1	v(in)	voltage
	2	v(out)	voltage
	3	v(x1.net-_q1-pad2_)	voltage
	4	v(x1.net-_c2-pad1_)	voltage
	5	v(x1.net-_c1-pad1_)	voltage
	6	v(x1.net-_c1-pad2_)	voltage
	7	v(x1.net-_c2-pad2_)	voltage
	8	v(x1.b)	voltage
	9	v(x1.net-_q5-pad2_)	voltage
	10	v(x1.net-_q5-pad3_)	voltage
	11	v(x1.c)	voltage
	12	v(q.x1.q6#collCX)	voltage
	13	v(q.x1.q4#collCX)	voltage
	14	v(q.x1.q2#collCX)	voltage
	15	v(q.x1.q1#collCX)	voltage
	16	v(q.x1.q7#collCX)	voltage
	17	v(q.x1.q5#collCX)	voltage
	18	v(q.x1.q3#collCX)	voltage
	19	i(v1)	current
Values:
0		0.000000000000000e+00
	1.200000000000000e+01
	5.977505415336523e+00
	6.319829411206775e-01
	5.316224492502110e+00
	5.944966239493501e+00
	6.319829411206775e-01
	4.659020021499301e-01
	4.660644569802033e-01
	5.432746287223742e+00
	5.976613634131619e+00
	2.460566392108536e-03
	5.432745355978015e+00
	5.316223476228615e+00
	5.977505415330508e+00
	5.944340003729356e+00
	5.432746939750506e+00
	5.316225123549269e+00
	6.320003971717427e-01
	-8.856609683328641e-04
1		1.000000000000000e-05
	1.200000000000000e+01
	5.977129374122275e+00
	6.319811419056013e-01
	5.315850030275368e+00
	5.944592505039825e+00
	6.319800294372904e-01
	4.660559808473047e-01
	4.662418107148117e-01
	5.432241117985900e+00
	5.976232954960070e+00
	2.477096975626306e-03
	5.432240181207445e+00
	5.315849008153259e+00
	5.977129374116261e+00
	5.943966315475264e+00
	5.432241773770238e+00
	5.315850664231338e+00
	6.319985982572676e-01
	-8.857162685114300e-04
2		2.000000000000001e-05
	1.200000000000000e+01
	5.977010626807941e+00
	6.319844285729131e-01
	5.315727404950852e+00
	5.944469823065525e+00
	6.319840484698925e-01
	4.659741037539969e-01
	4.661357327824588e-01
	5.432175188842859e+00
	5.976116466615697e+00
	2.465917139206975e-03
	5.432174255259225e+00
	5.315726385905271e+00
	5.977010626801927e+00
	5.943843555079485e+00
	5.432175843281393e+00
	5.315728037844805e+00
	6.320018849586249e-01
	-8.857337313517734e-04
3		4.000000000000001e-05
	1.200000000000000e+01
	5.976935263010407e+00
	6.319865878636612e-01
	5.315649559010183e+00
	5.944391872844217e+00
	6.319867260831782e-01
	4.659018847236520e-01
	4.660634566563871e-01
	5.432173315402617e+00
	5.976043445977890e+00
	2.460644802740465e-03
	5.432172384201901e+00
	5.315648542742144e+00
	5.976935263004393e+00
	5.943765553286417e+00
	5.432173968000036e+00
	5.315650190143701e+00
	6.320040442304382e-01
	-8.857448142631753e-04
4		8.000000000000002e-05
	1.200000000000000e+01
	5.976940119177339e+00
	6.319864590012143e-01
	5.315654353399692e+00
	5.944396881403017e+00
	6.319863288903249e-01
	4.659047489610572e-01
	4.660681094785808e-01
	5.432181568665984e+00
	5.976048316838285e+00
	2.460645846667531e-03
	5.432180637322000e+00
	5.315653337054624e+00
	5.976940119171326e+00
	5.943770564957350e+00
	5.432182221168142e+00
	5.315654984406055e+00
	6.320039154804524e-01
	-8.857441001209795e-04
5		1.600000000000000e-04
	1.200000000000000e+01
	5.976934079052591e+00
	6.319866218822783e-01
	5.315648316966398e+00
	5.944390647572595e+00
	6.319867470042094e-01
	4.659007815847753e-01
	4.660623230059259e-01
	5.432173371109146e+00
	5.976042296469197e+00
	2.460543710246785e-03
	5.432172439936163e+00
	5.315647300735967e+00
	5.976934079046578e+00
	5.943764327196830e+00
	5.432174023675750e+00
	5.315648948068681e+00
	6.320040782587149e-01
	-8.857449883746189e-04
6		3.200000000000001e-04
	1.200000000000000e+01
	5.976939838450498e+00
	6.319864652197458e-01
	5.315654070103565e+00
	5.944396592837792e+00
	6.319863424789859e-01
	4.659044596093122e-01
	4.660678396734549e-01
	5.432181437023764e+00
	5.976048031081389e+00
	2.460669520346544e-03
	5.432180505676879e+00
	5.315653053753264e+00
	5.976939838444485e+00
	5.943770276234380e+00
	5.432182089532157e+00
	5.315654701116021e+00
	6.320039216962221e-01
	-8.857441414043385e-04
7		6.400000000000002e-04
	1.200000000000000e+01
	5.976933864874579e+00
	6.319866282881874e-01
	5.315648090937872e+00
	5.944390425687701e+00
	6.319867497962346e-01
	4.659005863121878e-01
	4.660621180116547e-01
	5.432173426860938e+00
	5.976042090067829e+00
	2.460518334763490e-03
	5.432172495694616e+00
	5.315647074715280e+00
	5.976933864868566e+00
	5.943764105159681e+00
	5.432174079420749e+00
	5.315648722033369e+00
	6.320040846669763e-01
	-8.857450198713854e-04
8		1.280000000000000e-03
	1.200000000000000e+01
	5.976939924808775e+00
	6.319864626171936e-01
	5.315654161617151e+00
	5.944396682330315e+00
	6.319863417339624e-01
	4.659045370908459e-01
	4.660679222905011e-01
	5.432181411840951e+00
	5.976048114259140e+00
	2.460680551007622e-03
	5.432180480491414e+00
	5.315653145263734e+00
	5.976939924802761e+00
	5.943770365788719e+00
	5.432182064352162e+00
	5.315654792632436e+00
	6.320039190925320e-01
	-8.857441287045918e-04
9		2.560000000000001e-03
	1.200000000000000e+01
	5.976933826675107e+00
	6.319866294469143e-01
	5.315648050347249e+00
	5.944390386092629e+00
	6.319867500158710e-01
	4.659005523969074e-01
	4.660620814780587e-01
	5.432173439694646e+00
	5.976042053303238e+00
	2.460513179103993e-03
	5.432172508529502e+00
	5.315647034126038e+00
	5.976933826669095e+00
	5.943764065537113e+00
	5.432174092253174e+00
	5.315648681441456e+00
	6.320040858262619e-01
	-8.857450254889548e-04
10		4.560000000000002e-03
	1.200000000000000e+01
	5.976939946939906e+00
	6.319864619442741e-01
	5.315654185112773e+00
	5.944396705270913e+00
	6.319863415771458e-01
	4.659045568008667e-01
	4.660679434587966e-01
	5.432181404457353e+00
	5.976048135536423e+00
	2.460683576884981e-03
	5.432180473107094e+00
	5.315653168758538e+00
	5.976939946933891e+00
	5.943770388745270e+00
	5.432182056969316e+00
	5.315654816128808e+00
	6.320039184193016e-01
	-8.857441254500138e-04
11		6.560000000000002e-03
	1.200000000000000e+01
	5.976933815804910e+00
	6.319866297742754e-01
	5.315648038680588e+00
	5.944390374824166e+00
	6.319867499392393e-01
	4.659005431206698e-01
	4.660620710943256e-01
	5.432173442910060e+00
	5.976042042783830e+00
	2.460511701587231e-03
	5.432172511745142e+00
	5.315647022459699e+00
	5.976933815798895e+00
	5.943764054260840e+00
	5.432174095468244e+00
	5.315648669774433e+00
	6.320040861538461e-01
	-8.857450270875132e-04
12		8.560000000000002e-03
	1.200000000000000e+01
	5.976939963146812e+00
	6.319864614480992e-01
	5.315654202346482e+00
	5.944396722074132e+00
	6.319863414858062e-01
	4.659045711523502e-01
	4.660679589580511e-01
	5.432181398318494e+00
	5.976048151097910e+00
	2.460685899256838e-03
	5.432180466967688e+00
	5.315653185991636e+00
	5.976939963140797e+00
	5.943770405560235e+00
	5.432182050831025e+00
	5.315654833363086e+00
	6.320039179228862e-01
	-8.857441230666452e-04
13		1.056000000000000e-02
	1.200000000000000e+01
	5.976933801564929e+00
	6.319866302086468e-01
	5.315648023497193e+00
	5.944390360060461e+00
	6.319867499678248e-01
	4.659005306488369e-01
	4.660620574806382e-01
	5.432173447992442e+00
	5.976042029083246e+00
	2.460509675403066e-03
	5.432172516827956e+00
	5.315647007276810e+00
	5.976933801558914e+00
	5.943764039486831e+00
	5.432174100550138e+00
	5.315648654590544e+00
	6.320040865884522e-01
	-8.857450291816280e-04
14		1.256000000000000e-02
	1.200000000000000e+01
	5.976939977147357e+00
	6.319864610209327e-01
	5.315654217281540e+00
	5.944396736589789e+00
	6.319863414653055e-01
	4.659045833899572e-01
	4.660679723420718e-01
	5.432181393421148e+00
	5.976048164571447e+00
	2.460687903869069e-03
	5.432180462069921e+00
	5.315653200926199e+00
	5.976939977141342e+00
	5.943770420086023e+00
	5.432182045934157e+00
	5.315654848298628e+00
	6.320039174954855e-01
	-8.857441210077416e-04
15		1.456000000000000e-02
	1.200000000000000e+01
	5.976933788319558e+00
	6.319866306142488e-01
	5.315648009345685e+00
	5.944390346325806e+00
	6.319867499659129e-01
	4.659005191373710e-01
	4.660620448206339e-01
	5.432173452998720e+00
	5.976042016343746e+00
	2.460507728514455e-03
	5.432172521834635e+00
	5.315646993125770e+00
	5.976933788313543e+00
	5.943764025742559e+00
	5.432174105555956e+00
	5.315648640438569e+00
	6.320040869942867e-01
	-8.857450311294767e-04
16		1.656000000000000e-02
	1.200000000000000e+01
	5.976939990007158e+00
	6.319864606264944e-01
	5.315654231033234e+00
	5.944396749925466e+00
	6.319863414791929e-01
	4.659045945284900e-01
	4.660679846323334e-01
	5.432181388464689e+00
	5.976048176938241e+00
	2.460689817126014e-03
	5.432180457113074e+00
	5.315653214677439e+00
	5.976939990001143e+00
	5.943770433431052e+00
	5.432182040978146e+00
	5.315654862050778e+00
	6.320039171008154e-01
	-8.857441191165944e-04
17		1.856000000000000e-02
	1.200000000000000e+01
	5.976933775772830e+00
	6.319866309996784e-01
	5.315647995918940e+00
	5.944390333314056e+00
	6.319867499422277e-01
	4.659005083027258e-01
	4.660620328305777e-01
	5.432173457963155e+00
	5.976042004280234e+00
	2.460505836682478e-03
	5.432172526799449e+00
	5.315646979699467e+00
	5.976933775766815e+00
	5.943764012721674e+00
	5.432174110519949e+00
	5.315648627011376e+00
	6.320040873799475e-01
	-8.857450329745837e-04
18		2.056000000000001e-02
	1.200000000000000e+01
	5.976940001855544e+00
	6.319864602614058e-01
	5.315654243734341e+00
	5.944396762214494e+00
	6.319863415239760e-01
	4.659046046921542e-01
	4.660679959528269e-01
	5.432181383606916e+00
	5.976048188328648e+00
	2.460691649485042e-03
	5.432180452254947e+00
	5.315653227378131e+00
	5.976940001849529e+00
	5.943770445728729e+00
	5.432182036120795e+00
	5.315654874752315e+00
	6.320039167354974e-01
	-8.857441173741846e-04
19		2.256000000000001e-02
	1.200000000000000e+01
	5.976933763790661e+00
	6.319866313689203e-01
	5.315647983077536e+00
	5.944390320886259e+00
	6.319867499008588e-01
	4.659004980161404e-01
	4.660620213819124e-01
	5.432173462871717e+00
	5.976041992762521e+00
	2.460503988968460e-03
	5.432172531708371e+00
	5.315646966858484e+00
	5.976933763784646e+00
	5.943764000285128e+00
	5.432174115428085e+00
	5.315648614169540e+00
	6.320040877494195e-01
	-8.857450347366675e-04
20		2.456000000000001e-02
	1.200000000000000e+01
	5.976940013549532e+00
	6.319864599005217e-01
	5.315654256276989e+00
	5.944396774344034e+00
	6.319863415744366e-01
	4.659046146991497e-01
	4.660680071251205e-01
	5.432181378757006e+00
	5.976048199568252e+00
	2.460693471895415e-03
	5.432180447404687e+00
	5.315653239920371e+00
	5.976940013543517e+00
	5.943770457866819e+00
	5.432182031271303e+00
	5.315654887295388e+00
	6.320039163743836e-01
	-8.857441156544805e-04
21		2.656000000000001e-02
	1.200000000000000e+01
	5.976933752782696e+00
	6.319866317098950e-01
	5.315647971247426e+00
	5.944390309466661e+00
	6.319867498297860e-01
	4.659004886680598e-01
	4.660620108673287e-01
	5.432173467696637e+00
	5.976041982185650e+00
	2.460502219441918e-03
	5.432172536533619e+00
	5.315646955028758e+00
	5.976933752776682e+00
	5.943763988857458e+00
	5.432174120252606e+00
	5.315648602339022e+00
	6.320040880906221e-01
	-8.857450363554857e-04
22		2.856000000000001e-02
	1.200000000000000e+01
	5.976940024352204e+00
	6.319864595657021e-01
	5.315654267893871e+00
	5.944396785551129e+00
	6.319863416523389e-01
	4.659046238474041e-01
	4.660680174428030e-01
	5.432181374007641e+00
	5.976048209947794e+00
	2.460695223018780e-03
	5.432180442655000e+00
	5.315653251536879e+00
	5.976940024346189e+00
	5.943770469081843e+00
	5.432182026522331e+00
	5.315654898912671e+00
	6.320039160393365e-01
	-8.857441140658523e-04
23		3.056000000000001e-02
	1.200000000000000e+01
	5.976933741945245e+00
	6.319866320458736e-01
	5.315647959593611e+00
	5.944390298223468e+00
	6.319867497523739e-01
	4.659004794907496e-01
	4.660620005163736e-01
	5.432173472436480e+00
	5.976041971772509e+00
	2.460500461627708e-03
	5.432172541273786e+00
	5.315646943375319e+00
	5.976933741939230e+00
	5.943763977606308e+00
	5.432174124992057e+00
	5.315648590684805e+00
	6.320040884268288e-01
	-8.857450379492287e-04
24		3.256000000000001e-02
	1.200000000000000e+01
	5.976940034621129e+00
	6.319864592462162e-01
	5.315654278957850e+00
	5.944396796206051e+00
	6.319863417468954e-01
	4.659046324785330e-01
	4.660680272486574e-01
	5.432181369298295e+00
	5.976048219810998e+00
	2.460696932380149e-03
	5.432180437945351e+00
	5.315653262600502e+00
	5.976940034615114e+00
	5.943770479744328e+00
	5.432182021813362e+00
	5.315654909977037e+00
	6.320039157196238e-01
	-8.857441125557162e-04
25		3.456000000000001e-02
	1.200000000000000e+01
	5.976933732270965e+00
	6.319866323481135e-01
	5.315647949147487e+00
	5.944390288183886e+00
	6.319867496399567e-01
	4.659004714306588e-01
	4.660619912806231e-01
	5.432173477122086e+00
	5.976041962483718e+00
	2.460498798049352e-03
	5.432172545959678e+00
	5.315646932929528e+00
	5.976933732264950e+00
	5.943763967559576e+00
	5.432174129677299e+00
	5.315648580238311e+00
	6.320040887292939e-01
	-8.857450393719169e-04
26		3.656000000000002e-02
	1.200000000000000e+01
	5.976940043977927e+00
	6.319864589531053e-01
	5.315654289074510e+00
	5.944396805917225e+00
	6.319863418690271e-01
	4.659046402325123e-01
	4.660680361799748e-01
	5.432181364611553e+00
	5.976048228791596e+00
	2.460698568394770e-03
	5.432180433258333e+00
	5.315653272716842e+00
	5.976940043971912e+00
	5.943770489462435e+00
	5.432182017126976e+00
	5.315654920094059e+00
	6.320039154262886e-01
	-8.857441111797165e-04
27		3.856000000000002e-02
	1.200000000000000e+01
	5.976933723069381e+00
	6.319866326368718e-01
	5.315647939191662e+00
	5.944390278633175e+00
	6.319867495129021e-01
	4.659004638279732e-01
	4.660619824981497e-01
	5.432173481815550e+00
	5.976041953653720e+00
	2.460497171663167e-03
	5.432172550653414e+00
	5.315646922974019e+00
	5.976933723063366e+00
	5.943763958002036e+00
	5.432174134370413e+00
	5.315648570282127e+00
	6.320040890182765e-01
	-8.857450407250909e-04
28		4.056000000000002e-02
	1.200000000000000e+01
	5.976940052936898e+00
	6.319864586716534e-01
	5.315654298778702e+00
	5.944396815216630e+00
	6.319863420039458e-01
	4.659046476005840e-01
	4.660680447297884e-01
	5.432181360039717e+00
	5.976048237389918e+00
	2.460700173561102e-03
	5.432180428686235e+00
	5.315653282420730e+00
	5.976940052930884e+00
	5.943770498768496e+00
	5.432182012555481e+00
	5.315654929798603e+00
	6.320039151446126e-01
	-8.857441098622207e-04
29		4.256000000000002e-02
	1.200000000000000e+01
	5.976933714392732e+00
	6.319866329105167e-01
	5.315647929780019e+00
	5.944390269625501e+00
	6.319867493696356e-01
	4.659004567321786e-01
	4.660619742190290e-01
	5.432173486496158e+00
	5.976041945332267e+00
	2.460495586864318e-03
	5.432172555334276e+00
	5.315646913562672e+00
	5.976933714386718e+00
	5.943763948987894e+00
	5.432174139050685e+00
	5.315648560870137e+00
	6.320040892921446e-01
	-8.857450420010687e-04
30		4.456000000000002e-02
	1.200000000000000e+01
	5.976940061839382e+00
	6.319864583916229e-01
	5.315654308425215e+00
	5.944396824457838e+00
	6.319863421413658e-01
	4.659046549089204e-01
	4.660680532253199e-01
	5.432181355451660e+00
	5.976048245931646e+00
	2.460701776087642e-03
	5.432180424097917e+00
	5.315653292066940e+00
	5.976940061833368e+00
	5.943770508016325e+00
	5.432182007967763e+00
	5.315654939445468e+00
	6.320039148643581e-01
	-8.857441085530320e-04
31		4.656000000000002e-02
	1.200000000000000e+01
	5.976933706386214e+00
	6.319866331645790e-01
	5.315647921064444e+00
	5.944390261311483e+00
	6.319867492057296e-01
	4.659004502814093e-01
	4.660619665824382e-01
	5.432173491045437e+00
	5.976041937655750e+00
	2.460494055767890e-03
	5.432172559883788e+00
	5.315646904847365e+00
	5.976933706380199e+00
	5.943763940667876e+00
	5.432174143599647e+00
	5.315648552154233e+00
	6.320040895464287e-01
	-8.857450431784978e-04
32		4.856000000000003e-02
	1.200000000000000e+01
	5.976940069595721e+00
	6.319864581446633e-01
	5.315654316881415e+00
	5.944396832513072e+00
	6.319863423128553e-01
	4.659046611187191e-01
	4.660680606220148e-01
	5.432181350918690e+00
	5.976048253365782e+00
	2.460703285395193e-03
	5.432180419564722e+00
	5.315653300522880e+00
	5.976940069589706e+00
	5.943770516077389e+00
	5.432182003435105e+00
	5.315654947901987e+00
	6.320039146171772e-01
	-8.857441074123939e-04
33		5.056000000000003e-02
	1.200000000000000e+01
	5.976933698773978e+00
	6.319866334072203e-01
	5.315647912757600e+00
	5.944390253405393e+00
	6.319867490294533e-01
	4.659004442114672e-01
	4.660619593239262e-01
	5.432173495575599e+00
	5.976041930361131e+00
	2.460492555770630e-03
	5.432172564414170e+00
	5.315646896540776e+00
	5.976933698767963e+00
	5.943763932756057e+00
	5.432174148129502e+00
	5.315648543847074e+00
	6.320040897892909e-01
	-8.857450442979443e-04
34		5.256000000000003e-02
	1.200000000000000e+01
	5.976940076783427e+00
	6.319864579144728e-01
	5.315654324747496e+00
	5.944396839979796e+00
	6.319863425020327e-01
	4.659046667816005e-01
	4.660680674734953e-01
	5.432181346439718e+00
	5.976048260250682e+00
	2.460704749260503e-03
	5.432180415085544e+00
	5.315653308388722e+00
	5.976940076777412e+00
	5.943770523549547e+00
	5.432181998956428e+00
	5.315654955768373e+00
	6.320039143867668e-01
	-8.857441063553783e-04
35		5.456000000000003e-02
	1.200000000000000e+01
	5.976933691919688e+00
	6.319866336279802e-01
	5.315647905237644e+00
	5.944390246283525e+00
	6.319867488304195e-01
	4.659004388687144e-01
	4.660619527920999e-01
	5.432173500075064e+00
	5.976041923799531e+00
	2.460491117165725e-03
	5.432172568913831e+00
	5.315646889021046e+00
	5.976933691913674e+00
	5.943763925628982e+00
	5.432174152628680e+00
	5.315648536326821e+00
	6.320040900102701e-01
	-8.857450453059281e-04
36		5.656000000000003e-02
	1.200000000000000e+01
	5.976940083634787e+00
	6.319864576937774e-01
	5.315654332264394e+00
	5.944396847098668e+00
	6.319863427015464e-01
	4.659046721197326e-01
	4.660680740024561e-01
	5.432181341983335e+00
	5.976048266809938e+00
	2.460706186807121e-03
	5.432180410628965e+00
	5.315653315905396e+00
	5.976940083628772e+00
	5.943770530673623e+00
	5.432181994500330e+00
	5.315654963285569e+00
	6.320039141658520e-01
	-8.857441053478253e-04
37		5.856000000000004e-02
	1.200000000000000e+01
	5.976933685316197e+00
	6.319866338417378e-01
	5.315647897977658e+00
	5.944390239420930e+00
	6.319867486235607e-01
	4.659004337688243e-01
	4.660619465007886e-01
	5.432173504567590e+00
	5.976041917481391e+00
	2.460489697951913e-03
	5.432172573406545e+00
	5.315646881761277e+00
	5.976933685310183e+00
	5.943763918761348e+00
	5.432174157120928e+00
	5.315648529066543e+00
	6.320040902242465e-01
	-8.857450462770297e-04
38		6.056000000000004e-02
	1.200000000000000e+01
	5.976940089693793e+00
	6.319864574960001e-01
	5.315654338958772e+00
	5.944396853397699e+00
	6.319863429247674e-01
	4.659046766985968e-01
	4.660680797717576e-01
	5.432181337543236e+00
	5.976048272602529e+00
	2.460707560048249e-03
	5.432180406188696e+00
	5.315653322599577e+00
	5.976940089687778e+00
	5.943770536977312e+00
	5.432181990060497e+00
	5.315654969980224e+00
	6.320039139678575e-01
	-8.857441044567952e-04
39		6.256000000000003e-02
	1.200000000000000e+01
	5.976933679019078e+00
	6.319866340463265e-01
	5.315647891035449e+00
	5.944390232875580e+00
	6.319867484067790e-01
	4.659004289644028e-01
	4.660619405032579e-01
	5.432173508991423e+00
	5.976041911458333e+00
	2.460488302894246e-03
	5.432172577830556e+00
	5.315646874819273e+00
	5.976933679013063e+00
	5.943763912211178e+00
	5.432174161544491e+00
