    * /home/fossee/updatedexamples/invertingamplifier/invertingamplifier.cir
    Transient Analysis  Thu Mar  3 22:37:21  2016
--------------------------------------------------------------------------------
Index   time            in              net-_r1-pad2_   net-_r4-pad1_   
--------------------------------------------------------------------------------
0	0.000000e+00	0.000000e+00	0.000000e+00	0.000000e+00	
1	1.000000e-05	6.283175e-03	-6.09356e-04	-3.04526e-07	
2	1.454354e-05	9.137947e-03	-5.27356e-04	-2.63546e-07	
3	2.363063e-05	1.484743e-02	-5.76435e-04	-2.88073e-07	
4	4.180481e-05	2.626598e-02	-5.09335e-04	-2.54540e-07	
5	7.815316e-05	4.910015e-02	-5.90487e-04	-2.95096e-07	
6	1.508499e-04	9.474630e-02	-5.05462e-04	-2.52605e-07	
7	2.962433e-04	1.858666e-01	-5.99671e-04	-2.99685e-07	
8	5.870301e-04	3.667547e-01	-5.10230e-04	-2.54987e-07	
9	1.168604e-03	7.178721e-01	-5.97803e-04	-2.98752e-07	
10	2.331751e-03	1.337522e+00	-4.39255e-04	-2.19518e-07	
11	4.331751e-03	1.956088e+00	-2.77345e-04	-1.38603e-07	
12	6.331751e-03	1.827495e+00	1.831727e-04	9.154056e-08	
13	8.331751e-03	1.000861e+00	3.806520e-04	1.902309e-07	
14	1.033175e-02	-2.08068e-01	6.262096e-04	3.129483e-07	
15	1.233175e-02	-1.33752e+00	4.386991e-04	2.192399e-07	
16	1.433175e-02	-1.95609e+00	2.779016e-04	1.388813e-07	
17	1.633175e-02	-1.82750e+00	-1.83731e-04	-9.18194e-08	
18	1.833175e-02	-1.00086e+00	-3.80093e-04	-1.89951e-07	
19	2.033175e-02	2.080682e-01	-6.26770e-04	-3.13228e-07	
20	2.233175e-02	1.337522e+00	-4.38138e-04	-2.18959e-07	
21	2.433175e-02	1.956088e+00	-2.78464e-04	-1.39162e-07	
22	2.633175e-02	1.827495e+00	1.842944e-04	9.210114e-08	
23	2.833175e-02	1.000861e+00	3.795279e-04	1.896691e-07	
24	3.033175e-02	-2.08068e-01	6.273360e-04	3.135113e-07	
25	3.233175e-02	-1.33752e+00	4.375704e-04	2.186759e-07	
26	3.433175e-02	-1.95609e+00	2.790327e-04	1.394466e-07	
27	3.633175e-02	-1.82750e+00	-1.84864e-04	-9.23858e-08	
28	3.833175e-02	-1.00086e+00	-3.78957e-04	-1.89384e-07	
29	4.033175e-02	2.080682e-01	-6.27908e-04	-3.13797e-07	
30	4.233175e-02	1.337522e+00	-4.36997e-04	-2.18389e-07	
31	4.433175e-02	1.956088e+00	-2.79607e-04	-1.39734e-07	
32	4.633175e-02	1.827495e+00	1.854397e-04	9.267351e-08	
33	4.833175e-02	1.000861e+00	3.783802e-04	1.890956e-07	
34	5.033175e-02	-2.08068e-01	6.284861e-04	3.140860e-07	
35	5.233175e-02	-1.33752e+00	4.364179e-04	2.180999e-07	
36	5.433175e-02	-1.95609e+00	2.801875e-04	1.400238e-07	
37	5.633175e-02	-1.82750e+00	-1.86021e-04	-9.29642e-08	
38	5.833175e-02	-1.00086e+00	-3.77797e-04	-1.88804e-07	
39	6.033175e-02	2.080682e-01	-6.29070e-04	-3.14378e-07	
40	6.233175e-02	1.337522e+00	-4.35833e-04	-2.17807e-07	
41	6.433175e-02	1.956088e+00	-2.80774e-04	-1.40317e-07	
42	6.633175e-02	1.827495e+00	1.866091e-04	9.325791e-08	
43	6.833175e-02	1.000861e+00	3.772084e-04	1.885099e-07	
44	7.033175e-02	-2.08068e-01	6.296604e-04	3.146728e-07	
45	7.233175e-02	-1.33752e+00	4.352412e-04	2.175118e-07	
46	7.433175e-02	-1.95609e+00	2.813667e-04	1.406130e-07	
47	7.633175e-02	-1.82750e+00	-1.87203e-04	-9.35547e-08	
48	7.833175e-02	-1.00086e+00	-3.76613e-04	-1.88213e-07	
49	8.033175e-02	2.080682e-01	-6.30257e-04	-3.14971e-07	
50	8.233175e-02	1.337522e+00	-4.34644e-04	-2.17213e-07	
51	8.433175e-02	1.956088e+00	-2.81966e-04	-1.40912e-07	
52	8.633175e-02	1.827495e+00	1.878030e-04	9.385460e-08	
53	8.833175e-02	1.000861e+00	3.760119e-04	1.879120e-07	
54	9.033175e-02	-2.08068e-01	6.308593e-04	3.152720e-07	

Index   time            in              net-_r1-pad2_   net-_r4-pad1_   
--------------------------------------------------------------------------------
55	9.233175e-02	-1.33752e+00	4.340398e-04	2.169114e-07	
56	9.433175e-02	-1.95609e+00	2.825706e-04	1.412147e-07	
57	9.633175e-02	-1.82750e+00	-1.88409e-04	-9.41576e-08	
58	9.833175e-02	-1.00086e+00	-3.75404e-04	-1.87608e-07	
59	1.000000e-01	-2.44929e-15	-6.12305e-04	-3.05999e-07	

    * /home/fossee/updatedexamples/invertingamplifier/invertingamplifier.cir
    Transient Analysis  Thu Mar  3 22:37:21  2016
--------------------------------------------------------------------------------
Index   time            out             x1.1            x1.2            
--------------------------------------------------------------------------------
0	0.000000e+00	0.000000e+00	0.000000e+00	0.000000e+00	
1	1.000000e-05	-3.50735e-02	-3.82210e-02	-3.82210e-02	
2	1.454354e-05	-4.88552e-02	-5.32442e-02	-5.32442e-02	
3	2.363063e-05	-7.76972e-02	-8.46813e-02	-8.46813e-02	
4	4.180481e-05	-1.34387e-01	-1.46474e-01	-1.46474e-01	
5	7.815316e-05	-2.49045e-01	-2.71450e-01	-2.71450e-01	
6	1.508499e-04	-4.76766e-01	-5.19667e-01	-5.19667e-01	
7	2.962433e-04	-9.32932e-01	-1.01689e+00	-1.01689e+00	
8	5.870301e-04	-1.83684e+00	-2.00214e+00	-2.00214e+00	
9	1.168604e-03	-3.59295e+00	-3.91630e+00	-3.91630e+00	
10	2.331751e-03	-6.69025e+00	-7.29236e+00	-7.29236e+00	
11	4.331751e-03	-9.78211e+00	-1.06625e+01	-1.06625e+01	
12	6.331751e-03	-9.13638e+00	-9.95865e+00	-9.95865e+00	
13	8.331751e-03	-5.00202e+00	-5.45221e+00	-5.45221e+00	
14	1.033175e-02	1.044100e+00	1.138059e+00	1.138059e+00	
15	1.233175e-02	6.690245e+00	7.292360e+00	7.292360e+00	
16	1.433175e-02	9.782109e+00	1.066250e+01	1.066250e+01	
17	1.633175e-02	9.136372e+00	9.958649e+00	9.958649e+00	
18	1.833175e-02	5.002023e+00	5.452210e+00	5.452210e+00	
19	2.033175e-02	-1.04410e+00	-1.13806e+00	-1.13806e+00	
20	2.233175e-02	-6.69024e+00	-7.29236e+00	-7.29236e+00	
21	2.433175e-02	-9.78211e+00	-1.06625e+01	-1.06625e+01	
22	2.633175e-02	-9.13637e+00	-9.95864e+00	-9.95864e+00	
23	2.833175e-02	-5.00203e+00	-5.45221e+00	-5.45221e+00	
24	3.033175e-02	1.044107e+00	1.138067e+00	1.138067e+00	
25	3.233175e-02	6.690238e+00	7.292353e+00	7.292353e+00	
26	3.433175e-02	9.782116e+00	1.066250e+01	1.066250e+01	
27	3.633175e-02	9.136366e+00	9.958641e+00	9.958641e+00	
28	3.833175e-02	5.002029e+00	5.452218e+00	5.452218e+00	
29	4.033175e-02	-1.04411e+00	-1.13807e+00	-1.13807e+00	
30	4.233175e-02	-6.69023e+00	-7.29235e+00	-7.29235e+00	
31	4.433175e-02	-9.78212e+00	-1.06625e+01	-1.06625e+01	
32	4.633175e-02	-9.13636e+00	-9.95864e+00	-9.95864e+00	
33	4.833175e-02	-5.00203e+00	-5.45222e+00	-5.45222e+00	
34	5.033175e-02	1.044114e+00	1.138074e+00	1.138074e+00	
35	5.233175e-02	6.690231e+00	7.292345e+00	7.292345e+00	
36	5.433175e-02	9.782123e+00	1.066251e+01	1.066251e+01	
37	5.633175e-02	9.136359e+00	9.958634e+00	9.958634e+00	
38	5.833175e-02	5.002036e+00	5.452225e+00	5.452225e+00	
39	6.033175e-02	-1.04412e+00	-1.13808e+00	-1.13808e+00	
40	6.233175e-02	-6.69023e+00	-7.29234e+00	-7.29234e+00	
41	6.433175e-02	-9.78213e+00	-1.06625e+01	-1.06625e+01	
42	6.633175e-02	-9.13636e+00	-9.95863e+00	-9.95863e+00	
43	6.833175e-02	-5.00204e+00	-5.45223e+00	-5.45223e+00	
44	7.033175e-02	1.044121e+00	1.138082e+00	1.138082e+00	
45	7.233175e-02	6.690224e+00	7.292337e+00	7.292337e+00	
46	7.433175e-02	9.782130e+00	1.066252e+01	1.066252e+01	
47	7.633175e-02	9.136352e+00	9.958626e+00	9.958626e+00	
48	7.833175e-02	5.002043e+00	5.452233e+00	5.452233e+00	
49	8.033175e-02	-1.04412e+00	-1.13809e+00	-1.13809e+00	
50	8.233175e-02	-6.69022e+00	-7.29233e+00	-7.29233e+00	
51	8.433175e-02	-9.78213e+00	-1.06625e+01	-1.06625e+01	
52	8.633175e-02	-9.13635e+00	-9.95862e+00	-9.95862e+00	
53	8.833175e-02	-5.00205e+00	-5.45224e+00	-5.45224e+00	
54	9.033175e-02	1.044128e+00	1.138090e+00	1.138090e+00	

Index   time            out             x1.1            x1.2            
--------------------------------------------------------------------------------
55	9.233175e-02	6.690217e+00	7.292330e+00	7.292330e+00	
56	9.433175e-02	9.782137e+00	1.066253e+01	1.066253e+01	
57	9.633175e-02	9.136344e+00	9.958618e+00	9.958618e+00	
58	9.833175e-02	5.002051e+00	5.452241e+00	5.452241e+00	
59	1.000000e-01	-3.67536e-03	-3.99696e-03	-3.99696e-03	

    * /home/fossee/updatedexamples/invertingamplifier/invertingamplifier.cir
    Transient Analysis  Thu Mar  3 22:37:21  2016
--------------------------------------------------------------------------------
Index   time            x1.4            
--------------------------------------------------------------------------------
0	0.000000e+00	0.000000e+00	
1	1.000000e-05	-6.09052e+01	
2	1.454354e-05	-5.27093e+01	
3	2.363063e-05	-5.76147e+01	
4	4.180481e-05	-5.09081e+01	
5	7.815316e-05	-5.90192e+01	
6	1.508499e-04	-5.05210e+01	
7	2.962433e-04	-5.99371e+01	
8	5.870301e-04	-5.09975e+01	
9	1.168604e-03	-5.97504e+01	
10	2.331751e-03	-4.39035e+01	
11	4.331751e-03	-2.77206e+01	
12	6.331751e-03	1.830811e+01	
13	8.331751e-03	3.804618e+01	
14	1.033175e-02	6.258967e+01	
15	1.233175e-02	4.384799e+01	
16	1.433175e-02	2.777627e+01	
17	1.633175e-02	-1.83639e+01	
18	1.833175e-02	-3.79903e+01	
19	2.033175e-02	-6.26457e+01	
20	2.233175e-02	-4.37919e+01	
21	2.433175e-02	-2.78325e+01	
22	2.633175e-02	1.842023e+01	
23	2.833175e-02	3.793382e+01	
24	3.033175e-02	6.270225e+01	
25	3.233175e-02	4.373517e+01	
26	3.433175e-02	2.788932e+01	
27	3.633175e-02	-1.84772e+01	
28	3.833175e-02	-3.78768e+01	
29	4.033175e-02	-6.27594e+01	
30	4.233175e-02	-4.36779e+01	
31	4.433175e-02	-2.79467e+01	
32	4.633175e-02	1.853470e+01	
33	4.833175e-02	3.781911e+01	
34	5.033175e-02	6.281720e+01	
35	5.233175e-02	4.361998e+01	
36	5.433175e-02	2.800475e+01	
37	5.633175e-02	-1.85928e+01	
38	5.833175e-02	-3.77609e+01	
39	6.033175e-02	-6.28756e+01	
40	6.233175e-02	-4.35615e+01	
41	6.433175e-02	-2.80634e+01	
42	6.633175e-02	1.865158e+01	
43	6.833175e-02	3.770199e+01	
44	7.033175e-02	6.293457e+01	
45	7.233175e-02	4.350237e+01	
46	7.433175e-02	2.812261e+01	
47	7.633175e-02	-1.87109e+01	
48	7.833175e-02	-3.76425e+01	
49	8.033175e-02	-6.29942e+01	
50	8.233175e-02	-4.34426e+01	
51	8.433175e-02	-2.81825e+01	
52	8.633175e-02	1.877092e+01	
53	8.833175e-02	3.758240e+01	
54	9.033175e-02	6.305440e+01	

Index   time            x1.4            
--------------------------------------------------------------------------------
55	9.233175e-02	4.338228e+01	
56	9.433175e-02	2.824294e+01	
57	9.633175e-02	-1.88315e+01	
58	9.833175e-02	-3.75217e+01	
59	1.000000e-01	-6.11999e+01	
