Title: kicad schematic
Date: Tue Jun 30 02:52:00  2026
Plotname: Transient Analysis
Flags: real
No. Variables: 12
No. Points: 84      
Variables:
	0	time	time
	1	v(net-_r8-pad1_)	voltage
	2	v(net-_r7-pad1_)	voltage
	3	v(net-_r2-pad2_)	voltage
	4	v(net-_r5-pad1_)	voltage
	5	v(net-_r4-pad1_)	voltage
	6	v(net-_r3-pad2_)	voltage
	7	v(net-_r1-pad2_)	voltage
	8	v(out)	voltage
	9	v(net-_r6-pad1_)	voltage
	10	v(inp)	voltage
	11	i(v1)	current
Values:
0		0.000000000000000e+00
	3.278204945431203e-22
	7.801577053216779e-26
	7.485988314770565e-26
	-3.279733701968969e-22
	1.639385305467405e-22
	-1.639385305467211e-22
	1.639385305467405e-22
	-1.639385305467211e-22
	0.000000000000000e+00
	0.000000000000000e+00
	1.639385305467405e-25
1		7.500000000000001e-06
	1.057249770833527e-28
	9.905020568400111e-32
	9.803169324132597e-32
	-1.059220589823831e-28
	5.290855244731501e-29
	-5.290855244731238e-29
	1.177751231504170e-02
	3.449235283333504e-06
	0.000000000000000e+00
	1.178096155032061e-02
	-3.449235278911669e-09
2		1.500000000000000e-05
	-1.861903228101740e-25
	-8.768477142383222e-29
	-8.589192273546581e-29
	1.863638995045181e-25
	-9.313291117704635e-26
	9.313291117704171e-26
	2.355738152305686e-02
	4.476173815315038e-06
	0.000000000000000e+00
	2.356185769686712e-02
	-4.476173810253492e-09
3		3.000000000000000e-05
	-3.172947393510705e-28
	-2.973742019935610e-31
	-2.943175094101184e-31
	3.178864310627891e-28
	-1.587856692590335e-28
	1.587856692590255e-28
	4.711560652935219e-02
	7.585636368934195e-06
	0.000000000000000e+00
	4.712319216572004e-02
	-7.585636367845791e-09
4		6.000000000000001e-05
	1.268060348411469e-28
	1.185237034310689e-31
	1.173021071124352e-31
	-1.270418606517916e-28
	6.345812793785758e-29
	-6.345812793785224e-29
	9.422014263419319e-02
	2.205594286832964e-05
	0.000000000000000e+00
	9.424219857704089e-02
	-2.205594284769260e-08
5		1.200000000000000e-04
	2.314619146074030e-31
	4.325590612587773e-34
	4.303271729735110e-34
	-2.323248008418847e-31
	1.159396522383122e-31
	-1.159396522383004e-31
	1.882610159738443e-01
	1.898973758408722e-04
	0.000000000000000e+00
	1.884509133496727e-01
	-1.898973758284253e-07
6		2.400000000000000e-04
	-7.425881291186688e-36
	-2.764079722034051e-38
	-2.756906015661717e-38
	7.481091148569953e-36
	-3.726517261103011e-36
	3.726517261102601e-36
	3.672001502551008e-01
	9.433877384631143e-03
	0.000000000000000e+00
	3.766340276396637e-01
	-9.433877384562941e-06
7		4.800000000000001e-04
	-4.377390288374931e-58
	-1.365148467153123e-58
	-1.365093197596264e-58
	7.107631953127931e-58
	-2.871081555975648e-58
	2.871081555975321e-58
	6.128811025375041e-01
	1.382468430664904e-01
	0.000000000000000e+00
	7.511279456037855e-01
	-1.382468430662814e-04
8		9.337543645206118e-04
	5.169675303227984e-59
	1.602963779515607e-59
	1.602898595667531e-59
	-8.375537678414476e-59
	3.386098027985590e-59
	-3.386098027985444e-59
	9.863108724210632e-01
	4.594812269687044e-01
	0.000000000000000e+00
	1.445792099389632e+00
	-4.594812269685695e-04
9		1.841263093561835e-03
	-2.229387346522705e-69
	4.708849200409234e-69
	4.708825336617225e-69
	-7.188287190502083e-69
	1.239649830936203e-69
	-1.239649830936102e-69
	1.649457000668805e+00
	1.084176226038154e+00
	0.000000000000000e+00
	2.733633226706677e+00
	-1.084176226037872e-03
10		2.841263093561835e-03
	-5.941987133076301e-68
	-1.046259907637457e-66
	-1.046249265926853e-66
	2.151929044894223e-66
	-5.528037259044373e-67
	5.528037259042840e-67
	2.238430396608538e+00
	1.655126183786898e+00
	0.000000000000000e+00
	3.893556580394575e+00
	-1.655126183786037e-03
11		3.841263093561836e-03
	2.409563166761400e-70
	-5.104242928859325e-70
	-5.104216993679881e-70
	7.798896755772835e-70
	-1.347251745886108e-70
	1.347251745885734e-70
	2.632710032453644e+00
	2.039641455536777e+00
	0.000000000000000e+00
	4.672351487989593e+00
	-2.039641455535949e-03
12		4.841263093561836e-03
	-1.198731809726361e-70
	2.543906701541465e-70
	2.543893754788870e-70
	-3.889068646601497e-70
	6.725434491366475e-71
	-6.725434491364611e-71
	2.794938131064870e+00
	2.198845946689311e+00
	0.000000000000000e+00
	4.993784077753144e+00
	-2.198845946688275e-03
13		5.841263093561836e-03
	-1.825085051883876e-73
	2.480549609400001e-73
	2.480543300823868e-73
	-3.136007858337380e-73
	3.277108404120637e-74
	-3.277108404119728e-74
	2.710254944683780e+00
	2.116135343563207e+00
	0.000000000000000e+00
	4.826390288246630e+00
	-2.116135343562851e-03
14		6.841263093561836e-03
	4.543554955550276e-74
	-6.179303079479950e-74
	-6.179287336078643e-74
	7.815035460001809e-74
	-8.178205613844588e-75
	8.178205613842320e-75
	2.386759134301672e+00
	1.799796655586914e+00
	0.000000000000000e+00
	4.186555789888060e+00
	-1.799796655586388e-03
15		7.841263093561836e-03
	7.848994530788196e-77
	-9.045030253050765e-77
	-9.045018741697989e-77
	1.024105446395067e-76
	-5.979787422668752e-78
	5.979787422667093e-78
	1.854641657346535e+00
	1.282270384019931e+00
	0.000000000000000e+00
	3.136912041365855e+00
	-1.282270384019320e-03
16		8.841263093561837e-03
	-3.407555133603658e-81
	3.649548305446716e-81
	3.649545976360967e-81
	-3.891539148199962e-81
	1.209886710247988e-82
	-1.209886710247653e-82
	1.160063529898636e+00
	6.201419561847912e-01
	0.000000000000000e+00
	1.780205486083399e+00
	-6.201419561847627e-04
17		9.841263093561838e-03
	-7.692679715785086e-95
	7.724636814143719e-95
	7.724636506566374e-95
	-7.756593604916263e-95
	1.597750395110907e-97
	-1.597750395110464e-97
	2.484953652571567e-01
	7.446491450260737e-04
	0.000000000000000e+00
	2.492400144021381e-01
	-7.446491449813715e-07
18		1.084126309356184e-02
	5.217731182589483e-92
	-5.261371357310706e-92
	-5.261370937289706e-92
	5.305011112004978e-92
	-2.181866001421386e-94
	2.181866001420781e-94
	-1.306117557102641e+00
	-5.249343712610870e-06
	0.000000000000000e+00
	-1.306122806446096e+00
	5.249343455141636e-09
19		1.184126309356184e-02
	2.552287886200000e-95
	-2.562915520067919e-95
	-2.562915417780181e-95
	2.573543051645197e-95
	-5.313469333483572e-98
	5.313469333482098e-98
	-2.733629563703693e+00
	-3.663002932761414e-06
	0.000000000000000e+00
	-2.733633226706683e+00
	3.663002989470754e-09
20		1.284126309356184e-02
	-1.273960930500966e-95
	1.279270215343295e-95
	1.279270164243047e-95
	-1.284579449083927e-95
	2.654468769159197e-98
	-2.654468769158461e-98
	-3.893552278479429e+00
	-4.301915009094110e-06
	0.000000000000000e+00
	-3.893556580394579e+00
	4.301915149627911e-09
21		1.384126309356184e-02
	-3.030511089653173e-102
	3.033658863944943e-102
	3.033658833647543e-102
	-3.036806607935876e-102
	1.573784189658713e-105
	-1.573784189658276e-105
	-4.672348876379826e+00
	-2.611610954401262e-06
	0.000000000000000e+00
	-4.672351487989596e+00
	2.611609770455936e-09
22		1.484126309356184e-02
	7.569798603864453e-103
	-7.577664681355102e-103
	-7.577664605643928e-103
	7.585530683125990e-103
	-3.932781464599989e-106
	3.932781464598898e-106
	-4.993780916060877e+00
	-3.161694110117623e-06
	0.000000000000000e+00
	-4.993784077753144e+00
	3.161692267369953e-09
23		1.584126309356184e-02
	2.693982751194125e-109
	-2.694682198993865e-109
	-2.694682192260747e-109
	2.695381640057432e-109
	-3.497010214845631e-113
	3.497010214844661e-113
	-4.826388851969766e+00
	-1.436277369600966e-06
	0.000000000000000e+00
	-4.826390288246627e+00
	1.436276861332964e-09
24		1.684126309356184e-02
	-4.487408490760427e-110
	4.488573905188291e-110
	4.488573893969625e-110
	-4.489739308392401e-110
	5.826690941478190e-114
	-5.826690941476575e-114
	-4.186553784800478e+00
	-2.005087643350531e-06
	0.000000000000000e+00
	-4.186555789888052e+00
	2.005087574273590e-09
25		1.784126309356185e-02
	-2.127793270833304e-116
	2.127931431806160e-116
	2.127931430475454e-116
	-2.128069591445899e-116
	6.907596641795317e-121
	-6.907596641793401e-121
	-3.136911690134429e+00
	-3.512323205423080e-07
	0.000000000000000e+00
	-3.136912041365845e+00
	3.512314159133390e-10
26		1.884126309356185e-02
	2.658600431702449e-117
	-2.658773095997034e-117
	-2.658773094334006e-117
	2.658945758625577e-117
	-8.632649848741074e-122
	8.632649848738681e-122
	-1.780204465358090e+00
	-1.020725250999686e-06
	0.000000000000000e+00
	-1.780205486083387e+00
	1.020725296386332e-09
27		1.984126309356185e-02
	1.575420998217942e-123
	-1.575446584023413e-123
	-1.575446583776446e-123
	1.575472169580131e-123
	-1.279206503455434e-128
	1.279206503455079e-128
	-2.492406256917521e-01
	6.112895487027165e-07
	0.000000000000000e+00
	-2.492400144021231e-01
	-6.112896289416775e-10
28		2.084126309356185e-02
	-2.270456296855555e-135
	2.270460910118949e-135
	2.270460910073519e-135
	-2.270465523334341e-135
	2.306479566630535e-141
	-2.306479566629895e-141
	9.130470371721737e-01
	3.930757692740303e-01
	0.000000000000000e+00
	1.306122806446104e+00
	-3.930757692739305e-04
29		2.184126309356185e-02
	-3.274337897089298e-145
	3.274338729174265e-145
	3.274338729164771e-145
	-3.274339561246026e-145
	4.160134731464751e-152
	-4.160134731463597e-152
	1.649002840052891e+00
	1.084630386653866e+00
	0.000000000000000e+00
	2.733633226706693e+00
	-1.084630386653802e-03
30		2.284126309356185e-02
	1.344891088017181e-142
	-1.344891771505662e-142
	-1.344891771498474e-142
	1.344892454985430e-142
	-3.417211484563763e-149
	3.417211484562816e-149
	2.238461987237511e+00
	1.655094593157850e+00
	0.000000000000000e+00
	3.893556580394586e+00
	-1.655094593157075e-03
31		2.384126309356185e-02
	6.554389274142884e-146
	-6.554390939040498e-146
	-6.554390939021504e-146
	6.554392603911690e-146
	-8.323907622300884e-153
	8.323907622298576e-153
	2.632811473690138e+00
	2.039540014299642e+00
	0.000000000000000e+00
	4.672351487989600e+00
	-2.039540014299462e-03
32		2.484126309356185e-02
	-3.270019650658779e-146
	3.270020482195876e-146
	3.270020482186391e-146
	-3.270021313719780e-146
	4.157395589696082e-153
	-4.157395589694928e-153
	2.794964649442434e+00
	2.198819428311306e+00
	0.000000000000000e+00
	4.993784077753145e+00
	-2.198819428310711e-03
33		2.584126309356185e-02
	-3.186935397587450e-149
	3.186935802669158e-149
	3.186935802663816e-149
	-3.186936207741912e-149
	2.025258590517483e-156
	-2.025258590516922e-156
	2.710249598804508e+00
	2.116140689442474e+00
	0.000000000000000e+00
	4.826390288246624e+00
	-2.116140689442116e-03
34		2.684126309356185e-02
	7.943094426084803e-150
	-7.943095437248068e-150
	-7.943095437234736e-150
	7.943096448388996e-150
	-5.055442067764726e-157
	5.055442067763324e-157
	2.386754863196312e+00
	1.799800926692256e+00
	0.000000000000000e+00
	4.186555789888048e+00
	-1.799800926691735e-03
35		2.784126309356185e-02
	1.162279203954593e-152
	-1.162279277877394e-152
	-1.162279277876155e-152
	1.162279351797639e-152
	-3.695834588435447e-160
	3.695834588434422e-160
	1.854641121899535e+00
	1.282270919466653e+00
	0.000000000000000e+00
	3.136912041365838e+00
	-1.282270919466304e-03
36		2.884126309356186e-02
	-4.691267976965495e-157
	4.691268126561248e-157
	4.691268126557682e-157
	-4.691268276148117e-157
	7.479041239690558e-165
	-7.479041239688485e-165
	1.160063609268134e+00
	6.201418768156347e-01
	0.000000000000000e+00
	1.780205486083379e+00
	-6.201418768152448e-04
37		2.984126309356186e-02
	-9.926103965045022e-171
	9.926103984807128e-171
	9.926103984802443e-171
	-9.926104004553297e-171
	9.874968452075740e-180
	-9.874968452073000e-180
	2.484951558960592e-01
	7.448585061249423e-04
	0.000000000000000e+00
	2.492400144021104e-01
	-7.448585060512475e-07
38		3.084126309356186e-02
	2.778840113370017e-164
	-2.778840135535962e-164
	-2.778840135534489e-164
	2.778840157697284e-164
	-1.108072492315836e-172
	1.108072492315529e-172
	-1.306117334164697e+00
	-5.472281902801633e-06
	0.000000000000000e+00
	-1.306122806446121e+00
	5.472281423574837e-09
39		3.184126309356185e-02
	1.352633963734809e-167
	-1.352633969131618e-167
	-1.352633969130953e-167
	1.352633974526229e-167
	-2.697486697393957e-176
	2.697486697393209e-176
	-2.733629780307284e+00
	-3.446399838716743e-06
	0.000000000000000e+00
	-2.733633226706704e+00
	3.446399420188595e-09
40		3.284126309356186e-02
	-6.756584502879164e-168
	6.756584529850065e-168
	6.756584529846743e-168
	-6.756584556809988e-168
	1.348086613677499e-176
	-1.348086613677125e-176
	-3.893552061879804e+00
	-4.518515900354209e-06
	0.000000000000000e+00
	-3.893556580394594e+00
	4.518514790628758e-09
41		3.384126309356186e-02
	-1.601666544319310e-174
	1.601666545919388e-174
	1.601666545918646e-174
	-1.601666547516908e-174
	7.991086028251278e-184
	-7.991086028249062e-184
	-4.672349092978383e+00
	-2.395012235175518e-06
	0.000000000000000e+00
	-4.672351487989604e+00
	2.395011221463517e-09
42		3.484126309356186e-02
	4.002214080255966e-175
	-4.002214084255184e-175
	-4.002214084253332e-175
	4.002214088248013e-175
	-1.997284770745559e-184
	1.997284770745005e-184
	-4.993780699462196e+00
	-3.378290743429616e-06
	0.000000000000000e+00
	-4.993784077753146e+00
	3.378290949936080e-09
43		3.584126309356186e-02
	1.422872819344385e-181
	-1.422872819701121e-181
	-1.422872819700471e-181
	1.422872820055594e-181
	-1.775759059693748e-191
	1.775759059693256e-191
	-4.826389068564145e+00
	-1.219682816693249e-06
	0.000000000000000e+00
	-4.826390288246622e+00
	1.219682477411610e-09
44		3.684126309356186e-02
	-2.370682066690683e-182
	2.370682067285143e-182
	2.370682067284064e-182
	-2.370682067875836e-182
	2.959117150612361e-192
	-2.959117150611540e-192
	-4.186553568208190e+00
	-2.221680086064005e-06
	0.000000000000000e+00
	-4.186555789888038e+00
	2.221679847903835e-09
45		3.784126309356186e-02
	-1.123680261292617e-188
	1.123680261364009e-188
	1.123680261363498e-188
	-1.123680261433616e-188
	3.507739757245331e-199
	-3.507739757244358e-199
	-3.136911906724504e+00
	-1.346420603790873e-07
	0.000000000000000e+00
	-3.136912041365825e+00
	1.346413210957798e-10
46		3.884126309356186e-02
	1.404255747906489e-189
	-1.404255747995717e-189
	-1.404255747995080e-189
	1.404255748082716e-189
	-4.384138867114013e-200
	4.384138867112797e-200
	-1.780204248770279e+00
	-1.237313189962168e-06
	0.000000000000000e+00
	-1.780205486083363e+00
	1.237313083587988e-09
47		3.984126309356186e-02
	8.319644392616842e-196
	-8.319644392755892e-196
	-8.319644392752119e-196
	8.319644392881738e-196
	-6.496044767946162e-207
	6.496044767944360e-207
	-2.492408422768684e-01
	8.278747791569597e-07
	0.000000000000000e+00
	-2.492400144021022e-01
	-8.278747662448030e-10
48		4.084126309356186e-02
	-1.199165054718412e-207
	1.199165054722069e-207
	1.199165054721525e-207
	-1.199165054723823e-207
	1.171358376821396e-219
	-1.171358376821071e-219
	9.130470484634242e-01
	3.930757579829275e-01
	0.000000000000000e+00
	1.306122806446129e+00
	-3.930757579827045e-04
49		4.184126309356186e-02
	-1.729118214890392e-217
	1.729118214892710e-217
	1.729118214891926e-217
	-1.729118214892284e-217
	2.112592562911733e-230
	-2.112592562911148e-230
	1.649002836026522e+00
	1.084630390680801e+00
	0.000000000000000e+00
	2.733633226706711e+00
	-1.084630390680189e-03
50		4.284126309356186e-02
	7.103171023973683e-215
	-7.103171023984941e-215
	-7.103171023981720e-215
	7.103171023984926e-215
	-1.735449711207106e-227
	1.735449711206625e-227
	2.238461988724751e+00
	1.655094591670575e+00
	0.000000000000000e+00
	3.893556580394606e+00
	-1.655094591669854e-03
51		4.384126309356186e-02
	3.461761939682601e-218
	-3.461761939687241e-218
	-3.461761939685672e-218
	3.461761939686388e-218
	-4.227342235191580e-231
	4.227342235190408e-231
	2.632811473317657e+00
	2.039540014672837e+00
	0.000000000000000e+00
	4.672351487989607e+00
	-2.039540014671950e-03
52		4.484126309356187e-02
	-1.727091743227412e-218
	1.727091743229728e-218
	1.727091743228945e-218
	-1.727091743229302e-218
	2.111356293943154e-231
	-2.111356293942568e-231
	2.794964650871929e+00
	2.198819426881837e+00
	0.000000000000000e+00
	4.993784077753147e+00
	-2.198819426881219e-03
53		4.584126309356187e-02
	-1.683209645933730e-221
	1.683209645935781e-221
	1.683209645935018e-221
	-1.683209645935161e-221
	1.028538729184810e-234
	-1.028538729184525e-234
	2.710249597199746e+00
	2.116140691047553e+00
	0.000000000000000e+00
	4.826390288246619e+00
	-2.116140691046873e-03
54		4.684126309356187e-02
	4.195219761600965e-222
	-4.195219761606078e-222
	-4.195219761604175e-222
	4.195219761604533e-222
	-2.567434153999426e-235
	2.567434153998714e-235
	2.386754864953301e+00
	1.799800924934701e+00
	0.000000000000000e+00
	4.186555789888033e+00
	-1.799800924934732e-03
55		4.784126309356187e-02
	6.138685782607334e-225
	-6.138685782614440e-225
	-6.138685782611656e-225
	6.138685782611802e-225
	-1.876949964283721e-238
	1.876949964283201e-238
	1.854641119746838e+00
	1.282270921619109e+00
	0.000000000000000e+00
	3.136912041365819e+00
	-1.282270921618981e-03
56		4.884126309356187e-02
	-2.477736911317683e-229
	2.477736911320476e-229
	2.477736911319352e-229
	-2.477736911319336e-229
	3.798272368861458e-243
	-3.798272368860404e-243
	1.160063616291245e+00
	6.201418697922838e-01
	0.000000000000000e+00
	1.780205486083347e+00
	-6.201418697921017e-04
57		4.984126309356187e-02
	-5.242563862948121e-243
	5.242563862953878e-243
	5.242563862951502e-243
	-5.242563862951315e-243
	5.015057151484678e-258
	-5.015057151483288e-258
	2.484949465557824e-01
	7.450678464057441e-04
	0.000000000000000e+00
	2.492400144020939e-01
	-7.450678463114891e-07
58		5.084126309356187e-02
	1.467670273520774e-236
	-1.467670273522394e-236
	-1.467670273521729e-236
	1.467670273521685e-236
	-5.627407304459288e-251
	5.627407304457727e-251
	-1.306117117601960e+00
	-5.688844625004399e-06
	0.000000000000000e+00
	-1.306122806446145e+00
	5.688844184788266e-09
59		5.184126309356187e-02
	7.144062164864412e-240
	-7.144062164872271e-240
	-7.144062164869034e-240
	7.144062164868794e-240
	-1.369933506143726e-254
	1.369933506143346e-254
	-2.733629996868262e+00
	-3.229839348045674e-06
	0.000000000000000e+00
	-2.733633226706726e+00
	3.229838463521262e-09
60		5.284126309356187e-02
	-3.568552986614646e-240
	3.568552986618570e-240
	3.568552986616954e-240
	-3.568552986616834e-240
	6.846332265678360e-255
	-6.846332265676461e-255
	-3.893551845321064e+00
	-4.735074188776544e-06
	0.000000000000000e+00
	-3.893556580394616e+00
	4.735073552003533e-09
61		5.384126309356187e-02
	-8.459350890601968e-247
	8.459350890611249e-247
	8.459350890607415e-247
	-8.459350890607106e-247
	4.058317140601499e-262
	-4.058317140600373e-262
	-4.672349309534341e+00
	-2.178456118047786e-06
	0.000000000000000e+00
	-4.672351487989613e+00
	2.178455272075497e-09
62		5.484126309356187e-02
	2.113806607516419e-247
	-2.113806607518737e-247
	-2.113806607517779e-247
	2.113806607517702e-247
	-1.014332093425456e-262
	1.014332093425175e-262
	-4.993780482908336e+00
	-3.594844775059162e-06
	0.000000000000000e+00
	-4.993784077753148e+00
	3.594844812451758e-09
63		5.584126309356188e-02
	7.515035189576770e-254
	-7.515035189585009e-254
	-7.515035189581603e-254
	7.515035189581325e-254
	-9.018290385131274e-270
	9.018290385128774e-270
	-4.826389285115918e+00
	-1.003130865053478e-06
	0.000000000000000e+00
	-4.826390288246615e+00
	1.003130696564103e-09
64		5.684126309356188e-02
	-1.252097792035186e-254
	1.252097792036558e-254
	1.252097792035991e-254
	-1.252097792035944e-254
	1.502803975695153e-270
	-1.502803975694737e-270
	-4.186553351658502e+00
	-2.438229927924597e-06
	0.000000000000000e+00
	-4.186555789888024e+00
	2.438229521062318e-09
65		5.784126309356188e-02
	-5.934821854111430e-261
	5.934821854117936e-261
	5.934821854115247e-261
	-5.934821854115024e-261
	1.781424994208614e-277
	-1.781424994208120e-277
	-3.136912123271986e+00
	8.190559936053511e-08
	0.000000000000000e+00
	-3.136912041365813e+00
	-8.190617325001814e-11
66		5.884126309356188e-02
	7.416707393124575e-262
	-7.416707393132706e-262
	-7.416707393129343e-262
	7.416707393129065e-262
	-2.226509118821186e-278
	2.226509118820569e-278
	-1.780204032225068e+00
	-1.453858528957553e-06
	0.000000000000000e+00
	-1.780205486083339e+00
	1.453858271185243e-09
67		5.984126309356188e-02
	4.394097596822379e-268
	-4.394097596827196e-268
	-4.394097596825205e-268
	4.394097596825041e-268
	-3.299052185731471e-285
	3.299052185730556e-285
	-2.492410588195006e-01
	1.044417410177138e-06
	0.000000000000000e+00
	-2.492400144020857e-01
