Title: kicad schematic
Date: Sat Nov 29 21:45:33  2025
Plotname: Transient Analysis
Flags: real
No. Variables: 47
No. Points: 59      
Variables:
	0	time	time
	1	v(v_y7n)	voltage
	2	v(v_y9n)	voltage
	3	v(v_y10n)	voltage
	4	v(v_y0n)	voltage
	5	v(v_y2n)	voltage
	6	v(v_y1n)	voltage
	7	v(v_y6n)	voltage
	8	v(v_y5n)	voltage
	9	v(v_y4n)	voltage
	10	v(v_y3n)	voltage
	11	v(v_y8n)	voltage
	12	v(v_y14n)	voltage
	13	v(v_y13n)	voltage
	14	v(net-_v_a0-pad1_)	voltage
	15	v(net-_v_a2-pad1_)	voltage
	16	v(net-_v_a1-pad1_)	voltage
	17	v(net-_v_e1n1-pad1_)	voltage
	18	v(net-_v_a3-pad1_)	voltage
	19	v(net-_v1-pad1_)	voltage
	20	v(v_y11n)	voltage
	21	v(net-_v_e0n1-pad1_)	voltage
	22	v(v_y15n)	voltage
	23	v(v_y12n)	voltage
	24	i(v_e0n1)	current
	25	i(v1)	current
	26	i(v_a3)	current
	27	i(v_e1n1)	current
	28	i(v_a1)	current
	29	i(v_a2)	current
	30	i(v_a0)	current
	31	i(a3)	current
	32	i(a3)	current
	33	i(a3)	current
	34	i(a3)	current
	35	i(a3)	current
	36	i(a2)	current
	37	i(a2)	current
	38	i(a2)	current
	39	i(a2)	current
	40	i(a2)	current
	41	i(a2)	current
	42	i(a2)	current
	43	i(a2)	current
	44	i(a1)	current
	45	i(a1)	current
	46	i(a1)	current
Values:
0		0.000000000000000e+00
	5.000000000000000e+00
	5.000000000000000e+00
	5.000000000000000e+00
	5.000000000000000e+00
	5.000000000000000e+00
	5.000000000000000e+00
	5.000000000000000e+00
	5.000000000000000e+00
	5.000000000000000e+00
	0.000000000000000e+00
	5.000000000000000e+00
	5.000000000000000e+00
	5.000000000000000e+00
	5.000000000000000e+00
	0.000000000000000e+00
	5.000000000000000e+00
	0.000000000000000e+00
	0.000000000000000e+00
	5.000000000000000e+00
	5.000000000000000e+00
	0.000000000000000e+00
	5.000000000000000e+00
	5.000000000000000e+00
	0.000000000000000e+00
	0.000000000000000e+00
	0.000000000000000e+00
	0.000000000000000e+00
	0.000000000000000e+00
	0.000000000000000e+00
	0.000000000000000e+00
	-5.000000000000000e-03
	-5.000000000000000e-03
	-5.000000000000000e-03
	-5.000000000000000e-03
	-5.000000000000000e-03
	-5.000000000000000e-03
	-5.000000000000000e-03
	-5.000000000000000e-03
	0.000000000000000e+00
	-5.000000000000000e-03
	-5.000000000000000e-03
	-5.000000000000000e-03
	-5.000000000000000e-03
	-5.000000000000000e-03
	-5.000000000000000e-03
	-5.000000000000000e-03
1		1.000000000000000e-02
	5.000000000000000e+00
	5.000000000000000e+00
	5.000000000000000e+00
	5.000000000000000e+00
	5.000000000000000e+00
	5.000000000000000e+00
	5.000000000000000e+00
	5.000000000000000e+00
	5.000000000000000e+00
	0.000000000000000e+00
	5.000000000000000e+00
	5.000000000000000e+00
	5.000000000000000e+00
	5.000000000000000e+00
	0.000000000000000e+00
	5.000000000000000e+00
	0.000000000000000e+00
	0.000000000000000e+00
	5.000000000000000e+00
	5.000000000000000e+00
	0.000000000000000e+00
	5.000000000000000e+00
	5.000000000000000e+00
	0.000000000000000e+00
	0.000000000000000e+00
	0.000000000000000e+00
	0.000000000000000e+00
	0.000000000000000e+00
	0.000000000000000e+00
	0.000000000000000e+00
	-5.000000000000000e-03
	-5.000000000000000e-03
	-5.000000000000000e-03
	-5.000000000000000e-03
	-5.000000000000000e-03
	-5.000000000000000e-03
	-5.000000000000000e-03
	-5.000000000000000e-03
	0.000000000000000e+00
	-5.000000000000000e-03
	-5.000000000000000e-03
	-5.000000000000000e-03
	-5.000000000000000e-03
	-5.000000000000000e-03
	-5.000000000000000e-03
	-5.000000000000000e-03
2		2.000000000000000e-02
	5.000000000000000e+00
	5.000000000000000e+00
	5.000000000000000e+00
	5.000000000000000e+00
	5.000000000000000e+00
	5.000000000000000e+00
	5.000000000000000e+00
	5.000000000000000e+00
	5.000000000000000e+00
	0.000000000000000e+00
	5.000000000000000e+00
	5.000000000000000e+00
	5.000000000000000e+00
	5.000000000000000e+00
	0.000000000000000e+00
	5.000000000000000e+00
	0.000000000000000e+00
	0.000000000000000e+00
	5.000000000000000e+00
	5.000000000000000e+00
	0.000000000000000e+00
	5.000000000000000e+00
	5.000000000000000e+00
	0.000000000000000e+00
	0.000000000000000e+00
	0.000000000000000e+00
	0.000000000000000e+00
	0.000000000000000e+00
	0.000000000000000e+00
	0.000000000000000e+00
	-5.000000000000000e-03
	-5.000000000000000e-03
	-5.000000000000000e-03
	-5.000000000000000e-03
	-5.000000000000000e-03
	-5.000000000000000e-03
	-5.000000000000000e-03
	-5.000000000000000e-03
	0.000000000000000e+00
	-5.000000000000000e-03
	-5.000000000000000e-03
	-5.000000000000000e-03
	-5.000000000000000e-03
	-5.000000000000000e-03
	-5.000000000000000e-03
	-5.000000000000000e-03
3		4.000000000000000e-02
	5.000000000000000e+00
	5.000000000000000e+00
	5.000000000000000e+00
	5.000000000000000e+00
	5.000000000000000e+00
	5.000000000000000e+00
	5.000000000000000e+00
	5.000000000000000e+00
	5.000000000000000e+00
	0.000000000000000e+00
	5.000000000000000e+00
	5.000000000000000e+00
	5.000000000000000e+00
	5.000000000000000e+00
	0.000000000000000e+00
	5.000000000000000e+00
	0.000000000000000e+00
	0.000000000000000e+00
	5.000000000000000e+00
	5.000000000000000e+00
	0.000000000000000e+00
	5.000000000000000e+00
	5.000000000000000e+00
	0.000000000000000e+00
	0.000000000000000e+00
	0.000000000000000e+00
	0.000000000000000e+00
	0.000000000000000e+00
	0.000000000000000e+00
	0.000000000000000e+00
	-5.000000000000000e-03
	-5.000000000000000e-03
	-5.000000000000000e-03
	-5.000000000000000e-03
	-5.000000000000000e-03
	-5.000000000000000e-03
	-5.000000000000000e-03
	-5.000000000000000e-03
	0.000000000000000e+00
	-5.000000000000000e-03
	-5.000000000000000e-03
	-5.000000000000000e-03
	-5.000000000000000e-03
	-5.000000000000000e-03
	-5.000000000000000e-03
	-5.000000000000000e-03
4		8.000000000000000e-02
	5.000000000000000e+00
	5.000000000000000e+00
	5.000000000000000e+00
	5.000000000000000e+00
	5.000000000000000e+00
	5.000000000000000e+00
	5.000000000000000e+00
	5.000000000000000e+00
	5.000000000000000e+00
	0.000000000000000e+00
	5.000000000000000e+00
	5.000000000000000e+00
	5.000000000000000e+00
	5.000000000000000e+00
	0.000000000000000e+00
	5.000000000000000e+00
	0.000000000000000e+00
	0.000000000000000e+00
	5.000000000000000e+00
	5.000000000000000e+00
	0.000000000000000e+00
	5.000000000000000e+00
	5.000000000000000e+00
	0.000000000000000e+00
	0.000000000000000e+00
	0.000000000000000e+00
	0.000000000000000e+00
	0.000000000000000e+00
	0.000000000000000e+00
	0.000000000000000e+00
	-5.000000000000000e-03
	-5.000000000000000e-03
	-5.000000000000000e-03
	-5.000000000000000e-03
	-5.000000000000000e-03
	-5.000000000000000e-03
	-5.000000000000000e-03
	-5.000000000000000e-03
	0.000000000000000e+00
	-5.000000000000000e-03
	-5.000000000000000e-03
	-5.000000000000000e-03
	-5.000000000000000e-03
	-5.000000000000000e-03
	-5.000000000000000e-03
	-5.000000000000000e-03
5		1.600000000000000e-01
	5.000000000000000e+00
	5.000000000000000e+00
	5.000000000000000e+00
	5.000000000000000e+00
	5.000000000000000e+00
	5.000000000000000e+00
	5.000000000000000e+00
	5.000000000000000e+00
	5.000000000000000e+00
	0.000000000000000e+00
	5.000000000000000e+00
	5.000000000000000e+00
	5.000000000000000e+00
	5.000000000000000e+00
	0.000000000000000e+00
	5.000000000000000e+00
	0.000000000000000e+00
	0.000000000000000e+00
	5.000000000000000e+00
	5.000000000000000e+00
	0.000000000000000e+00
	5.000000000000000e+00
	5.000000000000000e+00
	0.000000000000000e+00
	0.000000000000000e+00
	0.000000000000000e+00
	0.000000000000000e+00
	0.000000000000000e+00
	0.000000000000000e+00
	0.000000000000000e+00
	-5.000000000000000e-03
	-5.000000000000000e-03
	-5.000000000000000e-03
	-5.000000000000000e-03
	-5.000000000000000e-03
	-5.000000000000000e-03
	-5.000000000000000e-03
	-5.000000000000000e-03
	0.000000000000000e+00
	-5.000000000000000e-03
	-5.000000000000000e-03
	-5.000000000000000e-03
	-5.000000000000000e-03
	-5.000000000000000e-03
	-5.000000000000000e-03
	-5.000000000000000e-03
6		3.200000000000000e-01
	5.000000000000000e+00
	5.000000000000000e+00
	5.000000000000000e+00
	5.000000000000000e+00
	5.000000000000000e+00
	5.000000000000000e+00
	5.000000000000000e+00
	5.000000000000000e+00
	5.000000000000000e+00
	0.000000000000000e+00
	5.000000000000000e+00
	5.000000000000000e+00
	5.000000000000000e+00
	5.000000000000000e+00
	0.000000000000000e+00
	5.000000000000000e+00
	0.000000000000000e+00
	0.000000000000000e+00
	5.000000000000000e+00
	5.000000000000000e+00
	0.000000000000000e+00
	5.000000000000000e+00
	5.000000000000000e+00
	0.000000000000000e+00
	0.000000000000000e+00
	0.000000000000000e+00
	0.000000000000000e+00
	0.000000000000000e+00
	0.000000000000000e+00
	0.000000000000000e+00
	-5.000000000000000e-03
	-5.000000000000000e-03
	-5.000000000000000e-03
	-5.000000000000000e-03
	-5.000000000000000e-03
	-5.000000000000000e-03
	-5.000000000000000e-03
	-5.000000000000000e-03
	0.000000000000000e+00
	-5.000000000000000e-03
	-5.000000000000000e-03
	-5.000000000000000e-03
	-5.000000000000000e-03
	-5.000000000000000e-03
	-5.000000000000000e-03
	-5.000000000000000e-03
7		6.400000000000000e-01
	5.000000000000000e+00
	5.000000000000000e+00
	5.000000000000000e+00
	5.000000000000000e+00
	5.000000000000000e+00
	5.000000000000000e+00
	5.000000000000000e+00
	5.000000000000000e+00
	5.000000000000000e+00
	0.000000000000000e+00
	5.000000000000000e+00
	5.000000000000000e+00
	5.000000000000000e+00
	5.000000000000000e+00
	0.000000000000000e+00
	5.000000000000000e+00
	0.000000000000000e+00
	0.000000000000000e+00
	5.000000000000000e+00
	5.000000000000000e+00
	0.000000000000000e+00
	5.000000000000000e+00
	5.000000000000000e+00
	0.000000000000000e+00
	0.000000000000000e+00
	0.000000000000000e+00
	0.000000000000000e+00
	0.000000000000000e+00
	0.000000000000000e+00
	0.000000000000000e+00
	-5.000000000000000e-03
	-5.000000000000000e-03
	-5.000000000000000e-03
	-5.000000000000000e-03
	-5.000000000000000e-03
	-5.000000000000000e-03
	-5.000000000000000e-03
	-5.000000000000000e-03
	0.000000000000000e+00
	-5.000000000000000e-03
	-5.000000000000000e-03
	-5.000000000000000e-03
	-5.000000000000000e-03
	-5.000000000000000e-03
	-5.000000000000000e-03
	-5.000000000000000e-03
8		1.280000000000000e+00
	5.000000000000000e+00
	5.000000000000000e+00
	5.000000000000000e+00
	5.000000000000000e+00
	5.000000000000000e+00
	5.000000000000000e+00
	5.000000000000000e+00
	5.000000000000000e+00
	5.000000000000000e+00
	0.000000000000000e+00
	5.000000000000000e+00
	5.000000000000000e+00
	5.000000000000000e+00
	5.000000000000000e+00
	0.000000000000000e+00
	5.000000000000000e+00
	0.000000000000000e+00
	0.000000000000000e+00
	5.000000000000000e+00
	5.000000000000000e+00
	0.000000000000000e+00
	5.000000000000000e+00
	5.000000000000000e+00
	0.000000000000000e+00
	0.000000000000000e+00
	0.000000000000000e+00
	0.000000000000000e+00
	0.000000000000000e+00
	0.000000000000000e+00
	0.000000000000000e+00
	-5.000000000000000e-03
	-5.000000000000000e-03
	-5.000000000000000e-03
	-5.000000000000000e-03
	-5.000000000000000e-03
	-5.000000000000000e-03
	-5.000000000000000e-03
	-5.000000000000000e-03
	0.000000000000000e+00
	-5.000000000000000e-03
	-5.000000000000000e-03
	-5.000000000000000e-03
	-5.000000000000000e-03
	-5.000000000000000e-03
	-5.000000000000000e-03
	-5.000000000000000e-03
9		2.560000000000000e+00
	5.000000000000000e+00
	5.000000000000000e+00
	5.000000000000000e+00
	5.000000000000000e+00
	5.000000000000000e+00
	5.000000000000000e+00
	5.000000000000000e+00
	5.000000000000000e+00
	5.000000000000000e+00
	0.000000000000000e+00
	5.000000000000000e+00
	5.000000000000000e+00
	5.000000000000000e+00
	5.000000000000000e+00
	0.000000000000000e+00
	5.000000000000000e+00
	0.000000000000000e+00
	0.000000000000000e+00
	5.000000000000000e+00
	5.000000000000000e+00
	0.000000000000000e+00
	5.000000000000000e+00
	5.000000000000000e+00
	0.000000000000000e+00
	0.000000000000000e+00
	0.000000000000000e+00
	0.000000000000000e+00
	0.000000000000000e+00
	0.000000000000000e+00
	0.000000000000000e+00
	-5.000000000000000e-03
	-5.000000000000000e-03
	-5.000000000000000e-03
	-5.000000000000000e-03
	-5.000000000000000e-03
	-5.000000000000000e-03
	-5.000000000000000e-03
	-5.000000000000000e-03
	0.000000000000000e+00
	-5.000000000000000e-03
	-5.000000000000000e-03
	-5.000000000000000e-03
	-5.000000000000000e-03
	-5.000000000000000e-03
	-5.000000000000000e-03
	-5.000000000000000e-03
10		4.560000000000000e+00
	5.000000000000000e+00
	5.000000000000000e+00
	5.000000000000000e+00
	5.000000000000000e+00
	5.000000000000000e+00
	5.000000000000000e+00
	5.000000000000000e+00
	5.000000000000000e+00
	5.000000000000000e+00
	0.000000000000000e+00
	5.000000000000000e+00
	5.000000000000000e+00
	5.000000000000000e+00
	5.000000000000000e+00
	0.000000000000000e+00
	5.000000000000000e+00
	0.000000000000000e+00
	0.000000000000000e+00
	5.000000000000000e+00
	5.000000000000000e+00
	0.000000000000000e+00
	5.000000000000000e+00
	5.000000000000000e+00
	0.000000000000000e+00
	0.000000000000000e+00
	0.000000000000000e+00
	0.000000000000000e+00
	0.000000000000000e+00
	0.000000000000000e+00
	0.000000000000000e+00
	-5.000000000000000e-03
	-5.000000000000000e-03
	-5.000000000000000e-03
	-5.000000000000000e-03
	-5.000000000000000e-03
	-5.000000000000000e-03
	-5.000000000000000e-03
	-5.000000000000000e-03
	0.000000000000000e+00
	-5.000000000000000e-03
	-5.000000000000000e-03
	-5.000000000000000e-03
	-5.000000000000000e-03
	-5.000000000000000e-03
	-5.000000000000000e-03
	-5.000000000000000e-03
11		6.560000000000000e+00
	5.000000000000000e+00
	5.000000000000000e+00
	5.000000000000000e+00
	5.000000000000000e+00
	5.000000000000000e+00
	5.000000000000000e+00
	5.000000000000000e+00
	5.000000000000000e+00
	5.000000000000000e+00
	0.000000000000000e+00
	5.000000000000000e+00
	5.000000000000000e+00
	5.000000000000000e+00
	5.000000000000000e+00
	0.000000000000000e+00
	5.000000000000000e+00
	0.000000000000000e+00
	0.000000000000000e+00
	5.000000000000000e+00
	5.000000000000000e+00
	0.000000000000000e+00
	5.000000000000000e+00
	5.000000000000000e+00
	0.000000000000000e+00
	0.000000000000000e+00
	0.000000000000000e+00
	0.000000000000000e+00
	0.000000000000000e+00
	0.000000000000000e+00
	0.000000000000000e+00
	-5.000000000000000e-03
	-5.000000000000000e-03
	-5.000000000000000e-03
	-5.000000000000000e-03
	-5.000000000000000e-03
	-5.000000000000000e-03
	-5.000000000000000e-03
	-5.000000000000000e-03
	0.000000000000000e+00
	-5.000000000000000e-03
	-5.000000000000000e-03
	-5.000000000000000e-03
	-5.000000000000000e-03
	-5.000000000000000e-03
	-5.000000000000000e-03
	-5.000000000000000e-03
12		8.560000000000000e+00
	5.000000000000000e+00
	5.000000000000000e+00
	5.000000000000000e+00
	5.000000000000000e+00
	5.000000000000000e+00
	5.000000000000000e+00
	5.000000000000000e+00
	5.000000000000000e+00
	5.000000000000000e+00
	0.000000000000000e+00
	5.000000000000000e+00
	5.000000000000000e+00
	5.000000000000000e+00
	5.000000000000000e+00
	0.000000000000000e+00
	5.000000000000000e+00
	0.000000000000000e+00
	0.000000000000000e+00
	5.000000000000000e+00
	5.000000000000000e+00
	0.000000000000000e+00
	5.000000000000000e+00
	5.000000000000000e+00
	0.000000000000000e+00
	0.000000000000000e+00
	0.000000000000000e+00
	0.000000000000000e+00
	0.000000000000000e+00
	0.000000000000000e+00
	0.000000000000000e+00
	-5.000000000000000e-03
	-5.000000000000000e-03
	-5.000000000000000e-03
	-5.000000000000000e-03
	-5.000000000000000e-03
	-5.000000000000000e-03
	-5.000000000000000e-03
	-5.000000000000000e-03
	0.000000000000000e+00
	-5.000000000000000e-03
	-5.000000000000000e-03
	-5.000000000000000e-03
	-5.000000000000000e-03
	-5.000000000000000e-03
	-5.000000000000000e-03
	-5.000000000000000e-03
13		1.056000000000000e+01
	5.000000000000000e+00
	5.000000000000000e+00
	5.000000000000000e+00
	5.000000000000000e+00
	5.000000000000000e+00
	5.000000000000000e+00
	5.000000000000000e+00
	5.000000000000000e+00
	5.000000000000000e+00
	0.000000000000000e+00
	5.000000000000000e+00
	5.000000000000000e+00
	5.000000000000000e+00
	5.000000000000000e+00
	0.000000000000000e+00
	5.000000000000000e+00
	0.000000000000000e+00
	0.000000000000000e+00
	5.000000000000000e+00
	5.000000000000000e+00
	0.000000000000000e+00
	5.000000000000000e+00
	5.000000000000000e+00
	0.000000000000000e+00
	0.000000000000000e+00
	0.000000000000000e+00
	0.000000000000000e+00
	0.000000000000000e+00
	0.000000000000000e+00
	0.000000000000000e+00
	-5.000000000000000e-03
	-5.000000000000000e-03
	-5.000000000000000e-03
	-5.000000000000000e-03
	-5.000000000000000e-03
	-5.000000000000000e-03
	-5.000000000000000e-03
	-5.000000000000000e-03
	0.000000000000000e+00
	-5.000000000000000e-03
	-5.000000000000000e-03
	-5.000000000000000e-03
	-5.000000000000000e-03
	-5.000000000000000e-03
	-5.000000000000000e-03
	-5.000000000000000e-03
14		1.256000000000000e+01
	5.000000000000000e+00
	5.000000000000000e+00
	5.000000000000000e+00
	5.000000000000000e+00
	5.000000000000000e+00
	5.000000000000000e+00
	5.000000000000000e+00
	5.000000000000000e+00
	5.000000000000000e+00
	0.000000000000000e+00
	5.000000000000000e+00
	5.000000000000000e+00
	5.000000000000000e+00
	5.000000000000000e+00
	0.000000000000000e+00
	5.000000000000000e+00
	0.000000000000000e+00
	0.000000000000000e+00
	5.000000000000000e+00
	5.000000000000000e+00
	0.000000000000000e+00
	5.000000000000000e+00
	5.000000000000000e+00
	0.000000000000000e+00
	0.000000000000000e+00
	0.000000000000000e+00
	0.000000000000000e+00
	0.000000000000000e+00
	0.000000000000000e+00
	0.000000000000000e+00
	-5.000000000000000e-03
	-5.000000000000000e-03
	-5.000000000000000e-03
	-5.000000000000000e-03
	-5.000000000000000e-03
	-5.000000000000000e-03
	-5.000000000000000e-03
	-5.000000000000000e-03
	0.000000000000000e+00
	-5.000000000000000e-03
	-5.000000000000000e-03
	-5.000000000000000e-03
	-5.000000000000000e-03
	-5.000000000000000e-03
	-5.000000000000000e-03
	-5.000000000000000e-03
15		1.456000000000000e+01
	5.000000000000000e+00
	5.000000000000000e+00
	5.000000000000000e+00
	5.000000000000000e+00
	5.000000000000000e+00
	5.000000000000000e+00
	5.000000000000000e+00
	5.000000000000000e+00
	5.000000000000000e+00
	0.000000000000000e+00
	5.000000000000000e+00
	5.000000000000000e+00
	5.000000000000000e+00
	5.000000000000000e+00
	0.000000000000000e+00
	5.000000000000000e+00
	0.000000000000000e+00
	0.000000000000000e+00
	5.000000000000000e+00
	5.000000000000000e+00
	0.000000000000000e+00
	5.000000000000000e+00
	5.000000000000000e+00
	0.000000000000000e+00
	0.000000000000000e+00
	0.000000000000000e+00
	0.000000000000000e+00
	0.000000000000000e+00
	0.000000000000000e+00
	0.000000000000000e+00
	-5.000000000000000e-03
	-5.000000000000000e-03
	-5.000000000000000e-03
	-5.000000000000000e-03
	-5.000000000000000e-03
	-5.000000000000000e-03
	-5.000000000000000e-03
	-5.000000000000000e-03
	0.000000000000000e+00
	-5.000000000000000e-03
	-5.000000000000000e-03
	-5.000000000000000e-03
	-5.000000000000000e-03
	-5.000000000000000e-03
	-5.000000000000000e-03
	-5.000000000000000e-03
16		1.656000000000000e+01
	5.000000000000000e+00
	5.000000000000000e+00
	5.000000000000000e+00
	5.000000000000000e+00
	5.000000000000000e+00
	5.000000000000000e+00
	5.000000000000000e+00
	5.000000000000000e+00
	5.000000000000000e+00
	0.000000000000000e+00
	5.000000000000000e+00
	5.000000000000000e+00
	5.000000000000000e+00
	5.000000000000000e+00
	0.000000000000000e+00
	5.000000000000000e+00
	0.000000000000000e+00
	0.000000000000000e+00
	5.000000000000000e+00
	5.000000000000000e+00
	0.000000000000000e+00
	5.000000000000000e+00
	5.000000000000000e+00
	0.000000000000000e+00
	0.000000000000000e+00
	0.000000000000000e+00
	0.000000000000000e+00
	0.000000000000000e+00
	0.000000000000000e+00
	0.000000000000000e+00
	-5.000000000000000e-03
	-5.000000000000000e-03
	-5.000000000000000e-03
	-5.000000000000000e-03
	-5.000000000000000e-03
	-5.000000000000000e-03
	-5.000000000000000e-03
	-5.000000000000000e-03
	0.000000000000000e+00
	-5.000000000000000e-03
	-5.000000000000000e-03
	-5.000000000000000e-03
	-5.000000000000000e-03
	-5.000000000000000e-03
	-5.000000000000000e-03
	-5.000000000000000e-03
17		1.856000000000000e+01
	5.000000000000000e+00
	5.000000000000000e+00
	5.000000000000000e+00
	5.000000000000000e+00
	5.000000000000000e+00
	5.000000000000000e+00
