Title: kicad schematic
Date: Mon Jan 05 12:27:37  2026
Plotname: Transient Analysis
Flags: real
No. Variables: 13
No. Points: 3564    
Variables:
	0	time	time
	1	v(b)	voltage
	2	v(d)	voltage
	3	v(c)	voltage
	4	v(clk)	voltage
	5	v(net-_v2-pad1_)	voltage
	6	v(a)	voltage
	7	i(v2)	current
	8	i(v1)	current
	9	i(a2)	current
	10	i(a2)	current
	11	i(a2)	current
	12	i(a2)	current
Values:
0		0.000000000000000e+00
	0.000000000000000e+00
	0.000000000000000e+00
	0.000000000000000e+00
	0.000000000000000e+00
	5.000000000000000e+00
	0.000000000000000e+00
	0.000000000000000e+00
	0.000000000000000e+00
	0.000000000000000e+00
	0.000000000000000e+00
	0.000000000000000e+00
	0.000000000000000e+00
1		1.000000000000001e-11
	0.000000000000000e+00
	0.000000000000000e+00
	0.000000000000000e+00
	5.000000000000000e-02
	5.000000000000000e+00
	0.000000000000000e+00
	0.000000000000000e+00
	0.000000000000000e+00
	0.000000000000000e+00
	0.000000000000000e+00
	0.000000000000000e+00
	0.000000000000000e+00
2		2.000000000000002e-11
	0.000000000000000e+00
	0.000000000000000e+00
	0.000000000000000e+00
	1.000000000000000e-01
	5.000000000000000e+00
	0.000000000000000e+00
	0.000000000000000e+00
	0.000000000000000e+00
	0.000000000000000e+00
	0.000000000000000e+00
	0.000000000000000e+00
	0.000000000000000e+00
3		4.000000000000004e-11
	0.000000000000000e+00
	0.000000000000000e+00
	0.000000000000000e+00
	2.000000000000000e-01
	5.000000000000000e+00
	0.000000000000000e+00
	0.000000000000000e+00
	0.000000000000000e+00
	0.000000000000000e+00
	0.000000000000000e+00
	0.000000000000000e+00
	0.000000000000000e+00
4		8.000000000000007e-11
	0.000000000000000e+00
	0.000000000000000e+00
	0.000000000000000e+00
	4.000000000000000e-01
	5.000000000000000e+00
	0.000000000000000e+00
	0.000000000000000e+00
	0.000000000000000e+00
	0.000000000000000e+00
	0.000000000000000e+00
	0.000000000000000e+00
	0.000000000000000e+00
5		1.600000000000001e-10
	0.000000000000000e+00
	0.000000000000000e+00
	0.000000000000000e+00
	8.000000000000000e-01
	5.000000000000000e+00
	0.000000000000000e+00
	0.000000000000000e+00
	0.000000000000000e+00
	0.000000000000000e+00
	0.000000000000000e+00
	0.000000000000000e+00
	0.000000000000000e+00
6		3.200000000000003e-10
	0.000000000000000e+00
	0.000000000000000e+00
	0.000000000000000e+00
	1.600000000000000e+00
	5.000000000000000e+00
	0.000000000000000e+00
	0.000000000000000e+00
	0.000000000000000e+00
	0.000000000000000e+00
	0.000000000000000e+00
	0.000000000000000e+00
	0.000000000000000e+00
7		6.400000000000006e-10
	0.000000000000000e+00
	0.000000000000000e+00
	0.000000000000000e+00
	3.200000000000000e+00
	5.000000000000000e+00
	0.000000000000000e+00
	0.000000000000000e+00
	0.000000000000000e+00
	0.000000000000000e+00
	0.000000000000000e+00
	0.000000000000000e+00
	0.000000000000000e+00
8		1.000000000000001e-09
	0.000000000000000e+00
	0.000000000000000e+00
	0.000000000000000e+00
	5.000000000000000e+00
	5.000000000000000e+00
	0.000000000000000e+00
	0.000000000000000e+00
	0.000000000000000e+00
	0.000000000000000e+00
	0.000000000000000e+00
	0.000000000000000e+00
	0.000000000000000e+00
9		1.064000000000001e-09
	0.000000000000000e+00
	0.000000000000000e+00
	0.000000000000000e+00
	5.000000000000000e+00
	5.000000000000000e+00
	0.000000000000000e+00
	0.000000000000000e+00
	0.000000000000000e+00
	0.000000000000000e+00
	0.000000000000000e+00
	0.000000000000000e+00
	0.000000000000000e+00
10		1.192000000000001e-09
	0.000000000000000e+00
	0.000000000000000e+00
	0.000000000000000e+00
	5.000000000000000e+00
	5.000000000000000e+00
	0.000000000000000e+00
	0.000000000000000e+00
	0.000000000000000e+00
	0.000000000000000e+00
	0.000000000000000e+00
	0.000000000000000e+00
	0.000000000000000e+00
11		1.448000000000001e-09
	0.000000000000000e+00
	0.000000000000000e+00
	0.000000000000000e+00
	5.000000000000000e+00
	5.000000000000000e+00
	0.000000000000000e+00
	0.000000000000000e+00
	0.000000000000000e+00
	0.000000000000000e+00
	0.000000000000000e+00
	0.000000000000000e+00
	0.000000000000000e+00
12		1.960000000000002e-09
	0.000000000000000e+00
	0.000000000000000e+00
	0.000000000000000e+00
	5.000000000000000e+00
	5.000000000000000e+00
	0.000000000000000e+00
	0.000000000000000e+00
	0.000000000000000e+00
	0.000000000000000e+00
	0.000000000000000e+00
	0.000000000000000e+00
	0.000000000000000e+00
13		2.984000000000003e-09
	0.000000000000000e+00
	0.000000000000000e+00
	0.000000000000000e+00
	5.000000000000000e+00
	5.000000000000000e+00
	0.000000000000000e+00
	0.000000000000000e+00
	0.000000000000000e+00
	0.000000000000000e+00
	0.000000000000000e+00
	0.000000000000000e+00
	0.000000000000000e+00
14		5.032000000000005e-09
	0.000000000000000e+00
	0.000000000000000e+00
	0.000000000000000e+00
	5.000000000000000e+00
	5.000000000000000e+00
	0.000000000000000e+00
	0.000000000000000e+00
	0.000000000000000e+00
	0.000000000000000e+00
	0.000000000000000e+00
	0.000000000000000e+00
	0.000000000000000e+00
15		9.128000000000009e-09
	0.000000000000000e+00
	0.000000000000000e+00
	0.000000000000000e+00
	5.000000000000000e+00
	5.000000000000000e+00
	0.000000000000000e+00
	0.000000000000000e+00
	0.000000000000000e+00
	0.000000000000000e+00
	0.000000000000000e+00
	0.000000000000000e+00
	0.000000000000000e+00
16		1.732000000000002e-08
	0.000000000000000e+00
	0.000000000000000e+00
	0.000000000000000e+00
	5.000000000000000e+00
	5.000000000000000e+00
	0.000000000000000e+00
	0.000000000000000e+00
	0.000000000000000e+00
	0.000000000000000e+00
	0.000000000000000e+00
	0.000000000000000e+00
	0.000000000000000e+00
17		3.370400000000003e-08
	0.000000000000000e+00
	0.000000000000000e+00
	0.000000000000000e+00
	5.000000000000000e+00
	5.000000000000000e+00
	0.000000000000000e+00
	0.000000000000000e+00
	0.000000000000000e+00
	0.000000000000000e+00
	0.000000000000000e+00
	0.000000000000000e+00
	0.000000000000000e+00
18		6.647200000000007e-08
	0.000000000000000e+00
	0.000000000000000e+00
	0.000000000000000e+00
	5.000000000000000e+00
	5.000000000000000e+00
	0.000000000000000e+00
	0.000000000000000e+00
	0.000000000000000e+00
	0.000000000000000e+00
	0.000000000000000e+00
	0.000000000000000e+00
	0.000000000000000e+00
19		1.320080000000001e-07
	0.000000000000000e+00
	0.000000000000000e+00
	0.000000000000000e+00
	5.000000000000000e+00
	5.000000000000000e+00
	0.000000000000000e+00
	0.000000000000000e+00
	0.000000000000000e+00
	0.000000000000000e+00
	0.000000000000000e+00
	0.000000000000000e+00
	0.000000000000000e+00
20		2.630800000000003e-07
	0.000000000000000e+00
	0.000000000000000e+00
	0.000000000000000e+00
	5.000000000000000e+00
	5.000000000000000e+00
	0.000000000000000e+00
	0.000000000000000e+00
	0.000000000000000e+00
	0.000000000000000e+00
	0.000000000000000e+00
	0.000000000000000e+00
	0.000000000000000e+00
21		5.252240000000005e-07
	0.000000000000000e+00
	0.000000000000000e+00
	0.000000000000000e+00
	5.000000000000000e+00
	5.000000000000000e+00
	0.000000000000000e+00
	0.000000000000000e+00
	0.000000000000000e+00
	0.000000000000000e+00
	0.000000000000000e+00
	0.000000000000000e+00
	0.000000000000000e+00
22		1.049512000000001e-06
	0.000000000000000e+00
	0.000000000000000e+00
	0.000000000000000e+00
	5.000000000000000e+00
	5.000000000000000e+00
	0.000000000000000e+00
	0.000000000000000e+00
	0.000000000000000e+00
	0.000000000000000e+00
	0.000000000000000e+00
	0.000000000000000e+00
	0.000000000000000e+00
23		2.098088000000002e-06
	0.000000000000000e+00
	0.000000000000000e+00
	0.000000000000000e+00
	5.000000000000000e+00
	5.000000000000000e+00
	0.000000000000000e+00
	0.000000000000000e+00
	0.000000000000000e+00
	0.000000000000000e+00
	0.000000000000000e+00
	0.000000000000000e+00
	0.000000000000000e+00
24		4.195240000000005e-06
	0.000000000000000e+00
	0.000000000000000e+00
	0.000000000000000e+00
	5.000000000000000e+00
	5.000000000000000e+00
	0.000000000000000e+00
	0.000000000000000e+00
	0.000000000000000e+00
	0.000000000000000e+00
	0.000000000000000e+00
	0.000000000000000e+00
	0.000000000000000e+00
25		8.389544000000009e-06
	0.000000000000000e+00
	0.000000000000000e+00
	0.000000000000000e+00
	5.000000000000000e+00
	5.000000000000000e+00
	0.000000000000000e+00
	0.000000000000000e+00
	0.000000000000000e+00
	0.000000000000000e+00
	0.000000000000000e+00
	0.000000000000000e+00
	0.000000000000000e+00
26		1.677815200000002e-05
	0.000000000000000e+00
	0.000000000000000e+00
	0.000000000000000e+00
	5.000000000000000e+00
	5.000000000000000e+00
	0.000000000000000e+00
	0.000000000000000e+00
	0.000000000000000e+00
	0.000000000000000e+00
	0.000000000000000e+00
	0.000000000000000e+00
	0.000000000000000e+00
27		3.355536800000003e-05
	0.000000000000000e+00
	0.000000000000000e+00
	0.000000000000000e+00
	5.000000000000000e+00
	5.000000000000000e+00
	0.000000000000000e+00
	0.000000000000000e+00
	0.000000000000000e+00
	0.000000000000000e+00
	0.000000000000000e+00
	0.000000000000000e+00
	0.000000000000000e+00
28		6.710980000000007e-05
	0.000000000000000e+00
	0.000000000000000e+00
	0.000000000000000e+00
	5.000000000000000e+00
	5.000000000000000e+00
	0.000000000000000e+00
	0.000000000000000e+00
	0.000000000000000e+00
	0.000000000000000e+00
	0.000000000000000e+00
	0.000000000000000e+00
	0.000000000000000e+00
29		1.342186640000001e-04
	0.000000000000000e+00
	0.000000000000000e+00
	0.000000000000000e+00
	5.000000000000000e+00
	5.000000000000000e+00
	0.000000000000000e+00
	0.000000000000000e+00
	0.000000000000000e+00
	0.000000000000000e+00
	0.000000000000000e+00
	0.000000000000000e+00
	0.000000000000000e+00
30		2.684363920000003e-04
	0.000000000000000e+00
	0.000000000000000e+00
	0.000000000000000e+00
	5.000000000000000e+00
	5.000000000000000e+00
	0.000000000000000e+00
	0.000000000000000e+00
	0.000000000000000e+00
	0.000000000000000e+00
	0.000000000000000e+00
	0.000000000000000e+00
	0.000000000000000e+00
31		5.368718480000005e-04
	0.000000000000000e+00
	0.000000000000000e+00
	0.000000000000000e+00
	5.000000000000000e+00
	5.000000000000000e+00
	0.000000000000000e+00
	0.000000000000000e+00
	0.000000000000000e+00
	0.000000000000000e+00
	0.000000000000000e+00
	0.000000000000000e+00
	0.000000000000000e+00
32		1.073742760000001e-03
	0.000000000000000e+00
	0.000000000000000e+00
	0.000000000000000e+00
	5.000000000000000e+00
	5.000000000000000e+00
	0.000000000000000e+00
	0.000000000000000e+00
	0.000000000000000e+00
	0.000000000000000e+00
	0.000000000000000e+00
	0.000000000000000e+00
	0.000000000000000e+00
33		2.073742760000001e-03
	0.000000000000000e+00
	0.000000000000000e+00
	0.000000000000000e+00
	5.000000000000000e+00
	5.000000000000000e+00
	0.000000000000000e+00
	0.000000000000000e+00
	0.000000000000000e+00
	0.000000000000000e+00
	0.000000000000000e+00
	0.000000000000000e+00
	0.000000000000000e+00
34		3.073742760000001e-03
	0.000000000000000e+00
	0.000000000000000e+00
	0.000000000000000e+00
	5.000000000000000e+00
	5.000000000000000e+00
	0.000000000000000e+00
	0.000000000000000e+00
	0.000000000000000e+00
	0.000000000000000e+00
	0.000000000000000e+00
	0.000000000000000e+00
	0.000000000000000e+00
35		4.073742760000001e-03
	0.000000000000000e+00
	0.000000000000000e+00
	0.000000000000000e+00
	5.000000000000000e+00
	5.000000000000000e+00
	0.000000000000000e+00
	0.000000000000000e+00
	0.000000000000000e+00
	0.000000000000000e+00
	0.000000000000000e+00
	0.000000000000000e+00
	0.000000000000000e+00
36		5.073742760000001e-03
	0.000000000000000e+00
	0.000000000000000e+00
	0.000000000000000e+00
	5.000000000000000e+00
	5.000000000000000e+00
	0.000000000000000e+00
	0.000000000000000e+00
	0.000000000000000e+00
	0.000000000000000e+00
	0.000000000000000e+00
	0.000000000000000e+00
	0.000000000000000e+00
37		6.073742760000001e-03
	0.000000000000000e+00
	0.000000000000000e+00
	0.000000000000000e+00
	5.000000000000000e+00
	5.000000000000000e+00
	0.000000000000000e+00
	0.000000000000000e+00
	0.000000000000000e+00
	0.000000000000000e+00
	0.000000000000000e+00
	0.000000000000000e+00
	0.000000000000000e+00
38		7.073742760000001e-03
	0.000000000000000e+00
	0.000000000000000e+00
	0.000000000000000e+00
	5.000000000000000e+00
	5.000000000000000e+00
	0.000000000000000e+00
	0.000000000000000e+00
	0.000000000000000e+00
	0.000000000000000e+00
	0.000000000000000e+00
	0.000000000000000e+00
	0.000000000000000e+00
39		8.073742760000002e-03
	0.000000000000000e+00
	0.000000000000000e+00
	0.000000000000000e+00
	5.000000000000000e+00
	5.000000000000000e+00
	0.000000000000000e+00
	0.000000000000000e+00
	0.000000000000000e+00
	0.000000000000000e+00
	0.000000000000000e+00
	0.000000000000000e+00
	0.000000000000000e+00
40		9.073742760000003e-03
	0.000000000000000e+00
	0.000000000000000e+00
	0.000000000000000e+00
	5.000000000000000e+00
	5.000000000000000e+00
	0.000000000000000e+00
	0.000000000000000e+00
	0.000000000000000e+00
	0.000000000000000e+00
	0.000000000000000e+00
	0.000000000000000e+00
	0.000000000000000e+00
41		1.007374276000000e-02
	0.000000000000000e+00
	0.000000000000000e+00
	0.000000000000000e+00
	5.000000000000000e+00
	5.000000000000000e+00
	0.000000000000000e+00
	0.000000000000000e+00
	0.000000000000000e+00
	0.000000000000000e+00
	0.000000000000000e+00
	0.000000000000000e+00
	0.000000000000000e+00
42		1.107374276000000e-02
	0.000000000000000e+00
	0.000000000000000e+00
	0.000000000000000e+00
	5.000000000000000e+00
	5.000000000000000e+00
	0.000000000000000e+00
	0.000000000000000e+00
	0.000000000000000e+00
	0.000000000000000e+00
	0.000000000000000e+00
	0.000000000000000e+00
	0.000000000000000e+00
43		1.207374276000001e-02
	0.000000000000000e+00
	0.000000000000000e+00
	0.000000000000000e+00
	5.000000000000000e+00
	5.000000000000000e+00
	0.000000000000000e+00
	0.000000000000000e+00
	0.000000000000000e+00
	0.000000000000000e+00
	0.000000000000000e+00
	0.000000000000000e+00
	0.000000000000000e+00
44		1.307374276000001e-02
	0.000000000000000e+00
	0.000000000000000e+00
	0.000000000000000e+00
	5.000000000000000e+00
	5.000000000000000e+00
	0.000000000000000e+00
	0.000000000000000e+00
	0.000000000000000e+00
	0.000000000000000e+00
	0.000000000000000e+00
	0.000000000000000e+00
	0.000000000000000e+00
45		1.407374276000001e-02
	0.000000000000000e+00
	0.000000000000000e+00
	0.000000000000000e+00
	5.000000000000000e+00
	5.000000000000000e+00
	0.000000000000000e+00
	0.000000000000000e+00
	0.000000000000000e+00
	0.000000000000000e+00
	0.000000000000000e+00
	0.000000000000000e+00
	0.000000000000000e+00
46		1.507374276000001e-02
	0.000000000000000e+00
	0.000000000000000e+00
	0.000000000000000e+00
	5.000000000000000e+00
	5.000000000000000e+00
	0.000000000000000e+00
	0.000000000000000e+00
	0.000000000000000e+00
	0.000000000000000e+00
	0.000000000000000e+00
	0.000000000000000e+00
	0.000000000000000e+00
47		1.607374276000001e-02
	0.000000000000000e+00
	0.000000000000000e+00
	0.000000000000000e+00
	5.000000000000000e+00
	5.000000000000000e+00
	0.000000000000000e+00
	0.000000000000000e+00
	0.000000000000000e+00
	0.000000000000000e+00
	0.000000000000000e+00
	0.000000000000000e+00
	0.000000000000000e+00
48		1.707374276000001e-02
	0.000000000000000e+00
	0.000000000000000e+00
	0.000000000000000e+00
	5.000000000000000e+00
	5.000000000000000e+00
	0.000000000000000e+00
	0.000000000000000e+00
	0.000000000000000e+00
	0.000000000000000e+00
	0.000000000000000e+00
	0.000000000000000e+00
	0.000000000000000e+00
49		1.807374276000001e-02
	0.000000000000000e+00
	0.000000000000000e+00
	0.000000000000000e+00
	5.000000000000000e+00
	5.000000000000000e+00
	0.000000000000000e+00
	0.000000000000000e+00
	0.000000000000000e+00
	0.000000000000000e+00
	0.000000000000000e+00
	0.000000000000000e+00
	0.000000000000000e+00
50		1.907374276000001e-02
	0.000000000000000e+00
	0.000000000000000e+00
	0.000000000000000e+00
	5.000000000000000e+00
	5.000000000000000e+00
	0.000000000000000e+00
	0.000000000000000e+00
	0.000000000000000e+00
	0.000000000000000e+00
	0.000000000000000e+00
	0.000000000000000e+00
	0.000000000000000e+00
51		2.007374276000001e-02
	0.000000000000000e+00
	0.000000000000000e+00
	0.000000000000000e+00
	5.000000000000000e+00
	5.000000000000000e+00
	0.000000000000000e+00
	0.000000000000000e+00
	0.000000000000000e+00
	0.000000000000000e+00
	0.000000000000000e+00
	0.000000000000000e+00
	0.000000000000000e+00
52		2.107374276000001e-02
	0.000000000000000e+00
	0.000000000000000e+00
	0.000000000000000e+00
	5.000000000000000e+00
	5.000000000000000e+00
	0.000000000000000e+00
	0.000000000000000e+00
	0.000000000000000e+00
	0.000000000000000e+00
	0.000000000000000e+00
	0.000000000000000e+00
	0.000000000000000e+00
53		2.207374276000001e-02
	0.000000000000000e+00
	0.000000000000000e+00
	0.000000000000000e+00
	5.000000000000000e+00
	5.000000000000000e+00
	0.000000000000000e+00
	0.000000000000000e+00
	0.000000000000000e+00
	0.000000000000000e+00
	0.000000000000000e+00
	0.000000000000000e+00
	0.000000000000000e+00
54		2.307374276000002e-02
	0.000000000000000e+00
	0.000000000000000e+00
	0.000000000000000e+00
	5.000000000000000e+00
	5.000000000000000e+00
	0.000000000000000e+00
	0.000000000000000e+00
	0.000000000000000e+00
	0.000000000000000e+00
	0.000000000000000e+00
	0.000000000000000e+00
	0.000000000000000e+00
55		2.407374276000002e-02
	0.000000000000000e+00
	0.000000000000000e+00
	0.000000000000000e+00
	5.000000000000000e+00
	5.000000000000000e+00
	0.000000000000000e+00
	0.000000000000000e+00
	0.000000000000000e+00
	0.000000000000000e+00
	0.000000000000000e+00
	0.000000000000000e+00
	0.000000000000000e+00
56		2.507374276000002e-02
	0.000000000000000e+00
	0.000000000000000e+00
	0.000000000000000e+00
	5.000000000000000e+00
	5.000000000000000e+00
	0.000000000000000e+00
	0.000000000000000e+00
	0.000000000000000e+00
	0.000000000000000e+00
	0.000000000000000e+00
	0.000000000000000e+00
	0.000000000000000e+00
57		2.607374276000002e-02
	0.000000000000000e+00
	0.000000000000000e+00
	0.000000000000000e+00
	5.000000000000000e+00
	5.000000000000000e+00
	0.000000000000000e+00
	0.000000000000000e+00
	0.000000000000000e+00
	0.000000000000000e+00
	0.000000000000000e+00
	0.000000000000000e+00
	0.000000000000000e+00
58		2.707374276000002e-02
	0.000000000000000e+00
	0.000000000000000e+00
	0.000000000000000e+00
	5.000000000000000e+00
	5.000000000000000e+00
	0.000000000000000e+00
	0.000000000000000e+00
	0.000000000000000e+00
	0.000000000000000e+00
	0.000000000000000e+00
	0.000000000000000e+00
	0.000000000000000e+00
59		2.807374276000002e-02
	0.000000000000000e+00
	0.000000000000000e+00
	0.000000000000000e+00
	5.000000000000000e+00
	5.000000000000000e+00
	0.000000000000000e+00
	0.000000000000000e+00
	0.000000000000000e+00
	0.000000000000000e+00
	0.000000000000000e+00
	0.000000000000000e+00
	0.000000000000000e+00
60		2.907374276000002e-02
	0.000000000000000e+00
	0.000000000000000e+00
	0.000000000000000e+00
	5.000000000000000e+00
	5.000000000000000e+00
	0.000000000000000e+00
	0.000000000000000e+00
	0.000000000000000e+00
	0.000000000000000e+00
	0.000000000000000e+00
	0.000000000000000e+00
	0.000000000000000e+00
61		3.007374276000002e-02
	0.000000000000000e+00
	0.000000000000000e+00
	0.000000000000000e+00
	5.000000000000000e+00
	5.000000000000000e+00
	0.000000000000000e+00
	0.000000000000000e+00
	0.000000000000000e+00
	0.000000000000000e+00
	0.000000000000000e+00
	0.000000000000000e+00
	0.000000000000000e+00
62		3.107374276000002e-02
	0.000000000000000e+00
	0.000000000000000e+00
