Title: kicad schematic
Date: Fri Jul 03 08:59:50  2026
Plotname: Transient Analysis
Flags: real
No. Variables: 14
No. Points: 59      
Variables:
	0	time	time
	1	v(net-_c3-pad1_)	voltage
	2	v(net-_c4-pad1_)	voltage
	3	v(net-_r4-pad2_)	voltage
	4	v(net-_c2-pad1_)	voltage
	5	v(inp)	voltage
	6	v(net-_c1-pad2_)	voltage
	7	v(x1.net-_q1-pad3_)	voltage
	8	v(q.x1.q1#collCX)	voltage
	9	v(q.x1.q2#collCX)	voltage
	10	v(q.x1.q3#collCX)	voltage
	11	i(v1)	current
	12	i(v2)	current
	13	i(v3)	current
Values:
0		0.000000000000000e+00
	8.999999999171498e+00
	6.000000002278592e+00
	9.000000000000000e+00
	9.000000000000000e+00
	0.000000000000000e+00
	6.000000002364036e+00
	5.851479413964190e+00
	8.999999999983428e+00
	5.851479413952469e+00
	8.999999999154928e+00
	0.000000000000000e+00
	-1.800000033140847e-03
	-2.999999997721410e-03
1		5.000000000000001e-06
	9.000000060886951e+00
	6.001610354583124e+00
	9.000000000000000e+00
	9.000000000000000e+00
	4.712387042492637e-03
	6.001892228869264e+00
	5.853112096304130e+00
	9.000000001578842e+00
	5.853112095157553e+00
	9.000000062228121e+00
	-5.640321074529275e-06
	-1.799997203418613e-03
	-2.998389645416877e-03
2		1.000000000000000e-05
	9.000000052801578e+00
	6.002863054106546e+00
	9.000000000000000e+00
	9.000000000000000e+00
	9.424762457638692e-03
	6.003203119652148e+00
	5.854307125101963e+00
	9.000000001088907e+00
	5.854307124259674e+00
	9.000000053841440e+00
	-6.802969264526476e-06
	-1.799997855060909e-03
	-2.997136945893456e-03
3		2.000000000000001e-05
	9.000000025786070e+00
	6.004701849787118e+00
	9.000000000000000e+00
	9.000000000000000e+00
	1.884943189667686e-02
	6.005113130810691e+00
	5.856054684530517e+00
	9.000000000488775e+00
	5.856054684134855e+00
	9.000000026263931e+00
	-8.226347296464223e-06
	-1.799998995501539e-03
	-2.995298150212883e-03
4		4.000000000000001e-05
	9.000000001999402e+00
	6.006042208420438e+00
	9.000000000000000e+00
	9.000000000000000e+00
	3.769811965005783e-02
	6.006503785823557e+00
	5.857327874335387e+00
	9.000000000064205e+00
	5.857327874265160e+00
	9.000000002053461e+00
	-9.231685444054116e-06
	-1.799999895807147e-03
	-2.993957791579563e-03
5		8.000000000000002e-05
	8.999999999398906e+00
	6.006327583188390e+00
	9.000000000000000e+00
	9.000000000000000e+00
	7.539028633001245e-02
	6.006800878172130e+00
	5.857599631397606e+00
	8.999999999964750e+00
	5.857599631397090e+00
	8.999999999371509e+00
	-9.465851721637830e-06
	-1.800000047271766e-03
	-2.993672416811611e-03
6		1.600000000000000e-04
	8.999999998555044e+00
	6.006254537203085e+00
	9.000000000000000e+00
	9.000000000000000e+00
	1.507329545393087e-01
	6.006723987506788e+00
	5.857530280052061e+00
	8.999999999993539e+00
	5.857530280035109e+00
	8.999999998541309e+00
	-9.389037997021600e-06
	-1.800000035361293e-03
	-2.993745462796916e-03
7		3.200000000000001e-04
	8.999999999814207e+00
	6.006271869172902e+00
	9.000000000000000e+00
	9.000000000000000e+00
	3.010851445536447e-01
	6.006742007544958e+00
	5.857547913942074e+00
	8.999999999973873e+00
	5.857547913934791e+00
	8.999999999795486e+00
	-9.402733249999282e-06
	-1.800000029842153e-03
	-2.993728130827098e-03
8		6.400000000000002e-04
	8.999999998370006e+00
	6.006156632020258e+00
	9.000000000000000e+00
	9.000000000000000e+00
	5.991299415432212e-01
	6.006618270755450e+00
	5.857438814889679e+00
	8.999999999989328e+00
	5.857438814875864e+00
	8.999999998352322e+00
	-9.232800111193468e-06
	-1.800000043273187e-03
	-2.993843367979743e-03
9		1.280000000000000e-03
	8.999999999748431e+00
	6.005836218502831e+00
	9.000000000000000e+00
	9.000000000000000e+00
	1.174121000511607e+00
	6.006273542475626e+00
	5.857133259489681e+00
	8.999999999972598e+00
	5.857133259483349e+00
	8.999999999728526e+00
	-8.746443240313173e-06
	-1.800000032432081e-03
	-2.994163781497169e-03
10		2.280000000000001e-03
	8.999999998148800e+00
	6.004800932923560e+00
	9.000000000000000e+00
	9.000000000000000e+00
	1.969757267258870e+00
	6.005160359320328e+00
	5.856138348860331e+00
	8.999999999984507e+00
	5.856138348850115e+00
	8.999999998126615e+00
	-7.188545757738087e-06
	-1.800000052515571e-03
	-2.995199067076441e-03
11		3.280000000000001e-03
	8.999999999540911e+00
	6.003278846734553e+00
	9.000000000000000e+00
	9.000000000000000e+00
	2.572579968580957e+00
	6.003523880782230e+00
	5.854671819753244e+00
	8.999999999968233e+00
	5.854671819750192e+00
	8.999999999516914e+00
	-4.900637839465690e-06
	-1.800000040947936e-03
	-2.996721153265448e-03
12		4.280000000000001e-03
	8.999999998024068e+00
	6.001451746933599e+00
	9.000000000000000e+00
	9.000000000000000e+00
	2.923580618359732e+00
	6.001559679216840e+00
	5.852909378508242e+00
	8.999999999981808e+00
	5.852909378500089e+00
	8.999999997999330e+00
	-2.158659187417598e-06
	-1.800000057709639e-03
	-2.998548253066402e-03
13		5.280000000000001e-03
	8.999999999472790e+00
	5.999467459127454e+00
	9.000000000000000e+00
	9.000000000000000e+00
	2.988400827429517e+00
	5.999426481840247e+00
	5.850993839992528e+00
	8.999999999966883e+00
	5.850993839990550e+00
	8.999999999447491e+00
	8.195910584900138e-07
	-1.800000043660432e-03
	-3.000532540872547e-03
14		6.280000000000001e-03
	8.999999998056060e+00
	5.997549565735569e+00
	9.000000000000000e+00
	9.000000000000000e+00
	2.760695542097611e+00
	5.997364900858581e+00
	5.849141563177909e+00
	8.999999999982487e+00
	5.849141563169325e+00
	8.999999998031903e+00
	3.693283028514803e-06
	-1.800000056391582e-03
	-3.002450434264432e-03
15		7.280000000000001e-03
	8.999999999566356e+00
	5.995858045340578e+00
	9.000000000000000e+00
	9.000000000000000e+00
	2.262754142208311e+00
	5.995546588507719e+00
	5.847507206458636e+00
	8.999999999969004e+00
	5.847507206455151e+00
	8.999999999542986e+00
	6.229178722253967e-06
	-1.800000039667182e-03
	-3.004141954659424e-03
16		8.280000000000001e-03
	8.999999998235941e+00
	5.994584729740714e+00
	9.000000000000000e+00
	9.000000000000000e+00
	1.543318601344519e+00
	5.994178120579311e+00
	5.846276676246135e+00
	8.999999999986338e+00
	5.846276676234750e+00
	8.999999998215326e+00
	8.132162736453730e-06
	-1.800000048941541e-03
	-3.005415270259287e-03
17		9.280000000000002e-03
	8.999999999782263e+00
	5.993829430458664e+00
	9.000000000000000e+00
	9.000000000000000e+00
	6.728122828481430e-01
	5.993366345786249e+00
	5.845546532135738e+00
	8.999999999973733e+00
	5.845546532128777e+00
	8.999999999763270e+00
	9.261728137612587e-06
	-1.800000030620197e-03
	-3.006170569541337e-03
18		1.028000000000000e-02
	8.999999998498359e+00
	5.993689561866603e+00
	9.000000000000000e+00
	9.000000000000000e+00
	-2.635535896522314e-01
	5.993216430853117e+00
	5.845411520781759e+00
	8.999999999991928e+00
	5.845411520766238e+00
	8.999999998482936e+00
	9.462591013732229e-06
	-1.800000038103988e-03
	-3.006310438133398e-03
19		1.128000000000000e-02
	9.000000000035149e+00
	5.994156612464543e+00
	9.000000000000000e+00
	9.000000000000000e+00
	-1.174121000511610e+00
	5.993718673665266e+00
	5.845863468599045e+00
	8.999999999979226e+00
	5.845863468588004e+00
	9.000000000021270e+00
	8.758802059698320e-06
	-1.800000020070414e-03
	-3.005843387535458e-03
20		1.228000000000000e-02
	8.999999998746194e+00
	5.995205856965669e+00
	9.000000000000000e+00
	9.000000000000000e+00
	-1.969757267258871e+00
	5.994847030568507e+00
	5.846879015604784e+00
	8.999999999997179e+00
	5.846879015585341e+00
	8.999999998735671e+00
	7.176490413311726e-06
	-1.800000027895265e-03
	-3.004794143034332e-03
21		1.328000000000001e-02
	9.000000000225523e+00
	5.996714740968186e+00
	9.000000000000000e+00
	9.000000000000000e+00
	-2.572579968580959e+00
	5.996469121675022e+00
	5.848339654308218e+00
	8.999999999983341e+00
	5.848339654294078e+00
	9.000000000215506e+00
	4.912405435260326e-06
	-1.800000012147862e-03
	-3.003285259031815e-03
22		1.428000000000001e-02
	8.999999998887700e+00
	5.998554326291725e+00
	9.000000000000000e+00
	9.000000000000000e+00
	-2.923580618359733e+00
	5.998446965958651e+00
	5.850121189963888e+00
	9.000000000000121e+00
	5.850121189942209e+00
	8.999999998879952e+00
	2.147164445987770e-06
	-1.800000022123882e-03
	-3.001445673708276e-03
23		1.528000000000001e-02
	9.000000000278106e+00
	6.000526807262442e+00
	9.000000000000000e+00
	9.000000000000000e+00
	-2.988400827429517e+00
	6.000567225901967e+00
	5.852032109675032e+00
	8.999999999984476e+00
	5.852032109659985e+00
	9.000000000269196e+00
	-8.083550657257867e-07
	-1.800000009961167e-03
	-2.999473192737558e-03
24		1.628000000000001e-02
	8.999999998871468e+00
	6.002455864734000e+00
	9.000000000000000e+00
	9.000000000000000e+00
	-2.760695542097610e+00
	6.002641076336602e+00
	5.853902220324733e+00
	8.999999999999662e+00
	5.853902220303332e+00
	8.999999998863339e+00
	-3.704273632219616e-06
	-1.800000022907255e-03
	-2.997544135266001e-03
25		1.728000000000001e-02
	9.000000000170131e+00
	6.004136829739052e+00
	9.000000000000000e+00
	9.000000000000000e+00
	-2.262754142208308e+00
	6.004447751846520e+00
	5.855533107424852e+00
	8.999999999982160e+00
	5.855533107411461e+00
	9.000000000159115e+00
	-6.218420855368134e-06
	-1.800000014435810e-03
	-2.995863170260949e-03
26		1.828000000000001e-02
	8.999999998705956e+00
	6.005420124272487e+00
	9.000000000000000e+00
	9.000000000000000e+00
	-1.543318601344513e+00
	6.005827257469270e+00
	5.856780285718263e+00
	8.999999999996009e+00
	5.856780285699523e+00
	8.999999998694461e+00
	-8.142699849452781e-06
	-1.800000029870574e-03
	-2.994579875727515e-03
27		1.928000000000001e-02
	8.999999999940387e+00
	6.006165990539473e+00
	9.000000000000000e+00
	9.000000000000000e+00
	-6.728122828481369e-01
	6.006628562009414e+00
	5.857507940390804e+00
	8.999999999977248e+00
	5.857507940381021e+00
	8.999999999924832e+00
	-9.251400429671893e-06
	-1.800000023942872e-03
	-2.993834009460528e-03
28		2.028000000000001e-02
	8.999999998456758e+00
	6.006314775154994e+00
	9.000000000000000e+00
	9.000000000000000e+00
	2.635535896522363e-01
	6.006788409786833e+00
	5.857658448804965e+00
	8.999999999990582e+00
	5.857658448790235e+00
	8.999999998440225e+00
	-9.472720064787209e-06
	-1.800000040281802e-03
	-2.993685224845007e-03
29		2.128000000000001e-02
	8.999999999674539e+00
	6.005839298145477e+00
	9.000000000000000e+00
	9.000000000000000e+00
	1.174121000511616e+00
	6.006276743112773e+00
	5.857204789591866e+00
	8.999999999971591e+00
	5.857204789586282e+00
	8.999999999653721e+00
	-8.748861485881633e-06
	-1.800000034917204e-03
	-2.994160701854524e-03
30		2.228000000000001e-02
	8.999999998221202e+00
	6.004798016387242e+00
	9.000000000000000e+00
	9.000000000000000e+00
	1.969757267258877e+00
	6.005157328024208e+00
	5.856203599998731e+00
	8.999999999985485e+00
	5.856203599987808e+00
	8.999999998199906e+00
	-7.186252150834902e-06
	-1.800000050089068e-03
	-2.995201983612759e-03
31		2.328000000000001e-02
	8.999999999472127e+00
	6.003281608741080e+00
	9.000000000000000e+00
	9.000000000000000e+00
	2.572579968580961e+00
	6.003526751641571e+00
	5.854741894863044e+00
	8.999999999967327e+00
	5.854741894860665e+00
	8.999999999447313e+00
	-4.902813403259530e-06
	-1.800000043228778e-03
	-2.996718391258921e-03
32		2.428000000000001e-02
	8.999999998091553e+00
	6.001449131217226e+00
	9.000000000000000e+00
	9.000000000000000e+00
	2.923580618359734e+00
	6.001556960239890e+00
	5.852973783977313e+00
	8.999999999982693e+00
	5.852973783968526e+00
	8.999999998067610e+00
	-2.156595420349511e-06
	-1.800000055474982e-03
	-2.998550868782776e-03
33		2.528000000000001e-02
	8.999999999408697e+00
	5.999469936242025e+00
	9.000000000000000e+00
	9.000000000000000e+00
	2.988400827429516e+00
	5.999429056916932e+00
	5.851062534552485e+00
	8.999999999966072e+00
	5.851062534551110e+00
	8.999999999382670e+00
	8.176331724947164e-07
	-1.800000045752981e-03
	-3.000530063757976e-03
34		2.628000000000002e-02
	8.999999998119184e+00
	5.997547219827816e+00
	9.000000000000000e+00
	9.000000000000000e+00
	2.760695542097605e+00
	5.997362462004686e+00
	5.849205122758772e+00
	8.999999999983283e+00
	5.849205122749619e+00
	8.999999998095742e+00
	3.695140635898595e-06
	-1.800000054332784e-03
	-3.002452780172185e-03
35		2.728000000000002e-02
	8.999999999506450e+00
	5.995860266932057e+00
	9.000000000000000e+00
	9.000000000000000e+00
	2.262754142208302e+00
	5.995548898292644e+00
	5.847574567361614e+00
	8.999999999968269e+00
	5.847574567358671e+00
	8.999999999482430e+00
	6.227416087646644e-06
	-1.800000041601635e-03
	-3.004139733067943e-03
36		2.828000000000002e-02
	8.999999998295095e+00
	5.994582625827246e+00
	9.000000000000000e+00
	9.000000000000000e+00
	1.543318601344507e+00
	5.994175932971494e+00
	5.846339375854677e+00
	8.999999999987054e+00
	5.846339375842783e+00
	8.999999998275118e+00
	8.133835423206252e-06
	-1.800000047042616e-03
	-3.005417374172754e-03
37		2.928000000000002e-02
	8.999999999726191e+00
	5.993831422868817e+00
	9.000000000000000e+00
	9.000000000000000e+00
	6.728122828481294e-01
	5.993368417627572e+00
	5.845612598447366e+00
	8.999999999973072e+00
	5.845612598440892e+00
	8.999999999706619e+00
	9.260140639842846e-06
	-1.800000032403659e-03
	-3.006168577131184e-03
38		3.028000000000002e-02
	8.999999998553871e+00
	5.993687675001381e+00
	9.000000000000000e+00
	9.000000000000000e+00
	-2.635535896522439e-01
	5.993214468592281e+00
	5.845473362205726e+00
	8.999999999992577e+00
	5.845473362189748e+00
	8.999999998539019e+00
	9.464097829458811e-06
	-1.800000036345395e-03
	-3.006312324998621e-03
39		3.128000000000002e-02
	8.999999999982400e+00
	5.994158399318344e+00
	9.000000000000000e+00
	9.000000000000000e+00
	-1.174121000511620e+00
	5.993720532090556e+00
	5.845928276037965e+00
	8.999999999978630e+00
	5.845928276027359e+00
	8.999999999968006e+00
	8.757371657694188e-06
	-1.800000021720649e-03
	-3.005841600681657e-03
40		3.228000000000002e-02
	8.999999998798454e+00
	5.995204164776418e+00
	9.000000000000000e+00
	9.000000000000000e+00
	-1.969757267258880e+00
	5.994845270427650e+00
	5.846940021005541e+00
	8.999999999997764e+00
	5.846940020985691e+00
	8.999999998788439e+00
	7.177848443992908e-06
	-1.800000026266346e-03
	-3.004795835223582e-03
41		3.328000000000002e-02
	9.000000000175833e+00
	5.996716343453989e+00
	9.000000000000000e+00
	9.000000000000000e+00
	-2.572579968580964e+00
	5.996470788682134e+00
	5.848403276468790e+00
	8.999999999982805e+00
	5.848403276455040e+00
	9.000000000165358e+00
	4.911115947538443e-06
	-1.800000013677305e-03
	-3.003283656546012e-03
42		3.428000000000002e-02
	8.999999998937056e+00
	5.998552808706557e+00
	9.000000000000000e+00
	9.000000000000000e+00
	-2.923580618359735e+00
	5.998445387099022e+00
	5.850181311535259e+00
	9.000000000000648e+00
	5.850181311513214e+00
	8.999999998929763e+00
	2.148389016374703e-06
	-1.800000020610426e-03
	-3.001447191293444e-03
43		3.528000000000002e-02
	9.000000000231150e+00
	6.000528244387611e+00
	9.000000000000000e+00
	9.000000000000000e+00
	-2.988400827429516e+00
	6.000568721224444e+00
	5.852094512637068e+00
	8.999999999983997e+00
	5.852094512622372e+00
	9.000000000221831e+00
	-8.095181524706084e-07
	-1.800000011378700e-03
	-2.999471755612390e-03
44		3.628000000000002e-02
	8.999999998918238e+00
	6.002454503755840e+00
	9.000000000000000e+00
	9.000000000000000e+00
	-2.760695542097606e+00
	6.002639660073555e+00
	5.853961449994801e+00
	9.000000000000139e+00
	5.853961449973070e+00
	8.999999998910514e+00
	-3.703168777185412e-06
	-1.800000021495052e-03
	-2.997545496244161e-03
45		3.728000000000002e-02
	9.000000000125713e+00
	6.004138118550456e+00
	9.000000000000000e+00
	9.000000000000000e+00
	-2.262754142208299e+00
	6.004449093182509e+00
	5.855594353139034e+00
	8.999999999981728e+00
	5.855594353125960e+00
	9.000000000114335e+00
	-6.219470558421698e-06
	-1.800000015755643e-03
	-2.995861881449545e-03
46		3.828000000000002e-02
	8.999999998750303e+00
	6.005418903756324e+00
	9.000000000000000e+00
	9.000000000000000e+00
	-1.543318601344503e+00
	6.005825987040963e+00
	5.856838647902210e+00
	8.999999999996438e+00
	5.856838647883176e+00
	8.999999998739170e+00
	-8.141702381685178e-06
	-1.800000028554294e-03
	-2.994581096243678e-03
47		3.928000000000002e-02
	8.999999999898144e+00
	6.006167146326211e+00
	9.000000000000000e+00
	9.000000000000000e+00
	-6.728122828481247e-01
	6.006629765232141e+00
	5.857568071718981e+00
	8.999999999976858e+00
	5.857568071709480e+00
	8.999999999882267e+00
	-9.252348424418873e-06
	-1.800000025179216e-03
	-2.993832853673790e-03
48		4.028000000000002e-02
	8.999999998498936e+00
	6.006313680619813e+00
	9.000000000000000e+00
	9.000000000000000e+00
	2.635535896522488e-01
	6.006787270158995e+00
	5.857715935815563e+00
	8.999999999990974e+00
	5.857715935800567e+00
	8.999999998482725e+00
	-9.471818927051542e-06
	-1.800000039045457e-03
	-2.993686319380189e-03
49		4.128000000000003e-02
	8.999999999634339e+00
	6.005840334619757e+00
	9.000000000000000e+00
	9.000000000000000e+00
	1.174121000511630e+00
	6.006277822458312e+00
	5.857263793201383e+00
	8.999999999971239e+00
	5.857263793196052e+00
	8.999999999613236e+00
	-8.749718244149750e-06
	-1.800000036073612e-03
	-2.994159665380244e-03
50		4.228000000000003e-02
	8.999999998261529e+00
	6.004797034846788e+00
	9.000000000000000e+00
	9.000000000000000e+00
	1.969757267258884e+00
	6.005156305714440e+00
	5.856260175788405e+00
	8.999999999985841e+00
	5.856260175777245e+00
	8.999999998240519e+00
	-7.185437425672798e-06
	-1.800000048927330e-03
	-2.995202965153213e-03
51		4.328000000000003e-02
	8.999999999433751e+00
	6.003282538204270e+00
	9.000000000000000e+00
	9.000000000000000e+00
	2.572579968580969e+00
	6.003527719881287e+00
	5.854799798513196e+00
	8.999999999967011e+00
	5.854799798511045e+00
	8.999999999408688e+00
	-4.903588317431979e-06
	-1.800000044312355e-03
	-2.996717461795731e-03
52		4.428000000000003e-02
	8.999999998130129e+00
	6.001448251024037e+00
	9.000000000000000e+00
	9.000000000000000e+00
	2.923580618359737e+00
	6.001556043155734e+00
	5.853029490548497e+00
	8.999999999983013e+00
	5.853029490539499e+00
	8.999999998106441e+00
	-2.155858212654448e-06
	-1.800000054384299e-03
	-2.998551748975964e-03
53		4.528000000000003e-02
	8.999999999371962e+00
	5.999470769724744e+00
	9.000000000000000e+00
	9.000000000000000e+00
	2.988400827429515e+00
	5.999429925502872e+00
	5.851119394528091e+00
	8.999999999965784e+00
	5.851119394526920e+00
	8.999999999345713e+00
	8.169316782016426e-07
	-1.800000046776162e-03
	-3.000529230275257e-03
54		4.628000000000003e-02
	8.999999998156095e+00
	5.997546430533384e+00
	9.000000000000000e+00
	9.000000000000000e+00
	2.760695542097602e+00
	5.997361639298447e+00
	5.849259964881058e+00
	8.999999999983574e+00
	5.849259964871715e+00
	8.999999998132878e+00
	3.695808304348108e-06
	-1.800000053302497e-03
	-3.002453569466617e-03
55		4.728000000000003e-02
	8.999999999471177e+00
	5.995861014329885e+00
	9.000000000000000e+00
	9.000000000000000e+00
	2.262754142208292e+00
	5.995549677498454e+00
	5.847630416700974e+00
	8.999999999968015e+00
	5.847630416698212e+00
	8.999999999446963e+00
	6.226780457438237e-06
	-1.800000042560868e-03
	-3.004138985670116e-03
56		4.828000000000003e-02
	8.999999998330599e+00
	5.994581918061344e+00
	9.000000000000000e+00
	9.000000000000000e+00
	1.543318601344498e+00
	5.994175194914941e+00
	5.846393392798374e+00
	8.999999999987317e+00
	5.846393392786310e+00
	8.999999998310823e+00
	8.134440708167361e-06
	-1.800000046070949e-03
	-3.005418081938657e-03
57		4.928000000000003e-02
	8.999999999692232e+00
	5.993832093054882e+00
	9.000000000000000e+00
	9.000000000000000e+00
	6.728122828481146e-01
	5.993369116665391e+00
	5.845667470973199e+00
	8.999999999972841e+00
	5.845667470966888e+00
	8.999999999672488e+00
	9.259564096769310e-06
	-1.800000033313154e-03
	-3.006167906945119e-03
58		5.000000000000001e-02
	8.999999998579955e+00
	5.993712992833862e+00
	9.000000000000000e+00
	9.000000000000000e+00
	-8.821231505667937e-15
	5.993241684995050e+00
	5.845551896857929e+00
	8.999999999992633e+00
	5.845551896841935e+00
	8.999999998565109e+00
	9.426126213725222e-06
	-1.800000035768079e-03
	-3.006287007166139e-03
