          *for invcmos with delay 62000 nanosec, so cap should be 1nf
          Transient Analysis  Wed Oct 23 08:51:15  2019
--------------------------------------------------------------------------------
Index   time            a2#branch_1_0   v.x1.v1#branch  v.x2.v1#branch  
--------------------------------------------------------------------------------
0	0.000000e+00	0.000000e+00	-8.10296e-12	-1.44365e-11	
1	1.000000e-09	-2.81078e-17	-8.10285e-12	-1.44365e-11	
2	1.002200e-09	2.173939e-01	-1.15227e-01	-2.74526e-05	
3	1.006600e-09	2.162815e-01	-1.13448e-01	-7.48490e-05	
4	1.010243e-09	2.184120e-01	-1.13038e-01	-1.11758e-04	
5	1.013853e-09	2.172991e-01	-1.11472e-01	-1.50114e-04	
6	1.021072e-09	2.204125e-01	-1.10247e-01	-2.25851e-04	
7	1.029746e-09	2.209561e-01	-1.07578e-01	-3.19174e-04	
8	1.037077e-09	2.251083e-01	-1.06654e-01	-4.00503e-04	
9	1.044524e-09	2.264092e-01	-1.04663e-01	-4.87674e-04	
10	1.052725e-09	2.323633e-01	-1.04138e-01	-5.90750e-04	
11	1.060435e-09	2.354511e-01	-1.02773e-01	-6.95387e-04	
12	1.069658e-09	2.439113e-01	-1.02939e-01	-8.29368e-04	
13	1.080335e-09	2.510799e-01	-1.02271e-01	-9.94574e-04	
14	1.094923e-09	2.663147e-01	-1.03510e-01	-1.23319e-03	
15	1.114447e-09	2.843269e-01	-1.04606e-01	-1.56812e-03	
16	1.144395e-09	3.179442e-01	-1.09102e-01	-2.10007e-03	
17	1.190797e-09	3.663899e-01	-1.15973e-01	-2.93245e-03	
18	1.283601e-09	5.487499e-01	-1.31536e-01	-4.33032e-03	
19	1.367572e-09	6.869171e-01	-1.43008e-01	-5.18245e-03	
20	1.468572e-09	6.638993e-01	-1.53553e-01	-5.94693e-03	
21	1.575043e-09	7.087558e-01	-1.61684e-01	-6.60929e-03	
22	1.744449e-09	7.155756e-01	-1.69761e-01	-7.32968e-03	
23	1.995252e-09	7.377316e-01	-1.76018e-01	-7.92003e-03	
24	2.000000e-09	7.498134e-01	-1.76074e-01	-7.92665e-03	
25	2.000968e-09	6.032277e-01	-1.20805e-01	-7.90845e-03	
26	2.002904e-09	5.301496e-01	-1.20018e-01	-7.87685e-03	
27	2.006775e-09	4.946923e-01	-1.18388e-01	-7.82068e-03	
28	2.014518e-09	4.093856e-01	-1.15275e-01	-7.72364e-03	
29	2.029459e-09	3.783576e-01	-1.09456e-01	-7.56518e-03	
30	2.047840e-09	3.325140e-01	-1.02789e-01	-7.38462e-03	
31	2.079088e-09	3.288911e-01	-9.24054e-02	-7.06326e-03	
32	2.128139e-09	2.842254e-01	-7.83721e-02	-6.48629e-03	
33	2.183865e-09	2.371959e-01	-6.50659e-02	-5.82424e-03	
34	2.248107e-09	1.818877e-01	-5.26591e-02	-5.10705e-03	
35	2.326304e-09	1.364069e-01	-4.06836e-02	-4.32089e-03	
36	2.396878e-09	9.925243e-02	-3.22625e-02	-3.68610e-03	
37	2.474793e-09	7.365848e-02	-2.49854e-02	-3.03297e-03	
38	2.547274e-09	4.389135e-02	-1.96751e-02	-2.45002e-03	
39	2.554737e-09	3.366325e-02	-1.91978e-02	-2.40654e-03	
40	2.565922e-09	4.044917e-02	-1.85142e-02	-2.34368e-03	
41	2.578642e-09	2.998465e-02	-1.77577e-02	-2.27518e-03	
42	2.604081e-09	3.565078e-02	-1.63497e-02	-2.14457e-03	
43	2.635687e-09	2.374005e-02	-1.47438e-02	-1.99289e-03	
44	2.690358e-09	2.761452e-02	-1.23454e-02	-1.75395e-03	
45	2.777848e-09	1.285724e-02	-9.27836e-03	-1.42710e-03	
46	2.952828e-09	1.360492e-02	-5.25991e-03	-9.35047e-04	
47	3.302787e-09	-2.04270e-03	-1.67270e-03	-3.75480e-04	
48	3.710524e-09	4.745747e-03	-7.00511e-04	-1.15819e-04	
49	4.291175e-09	-4.33351e-03	-4.91850e-04	-4.79768e-06	
50	4.826620e-09	4.345034e-03	-4.94953e-04	1.274213e-05	
51	5.608149e-09	-4.33393e-03	-4.92033e-04	1.737270e-05	
52	6.602216e-09	4.344829e-03	-4.94930e-04	1.719331e-05	
53	8.590352e-09	-4.33400e-03	-4.91980e-04	1.743737e-05	
54	1.256662e-08	4.344672e-03	-4.94826e-04	1.720508e-05	
