          * /home/saurabh/esim-workspace/cmosinvertor/cmosinvertor.cir
          Transient Analysis  Wed Mar 18 19:28:16  2020
--------------------------------------------------------------------------------
Index   time            a2#branch_1_0   v.x1.v1#branch  v.x2.v1#branch  
--------------------------------------------------------------------------------
0	0.000000e+00	0.000000e+00	-8.10296e-12	-1.44365e-11	
1	1.000000e-06	-4.48914e-20	-8.10296e-12	-1.44366e-11	
2	1.002200e-06	4.909255e-04	-1.15287e-04	-6.93981e-09	
3	1.006600e-06	5.686012e-04	-1.13412e-04	-1.00969e-08	
4	1.010958e-06	5.116119e-04	-1.12867e-04	-8.23937e-09	
5	1.015614e-06	5.501144e-04	-1.11006e-04	-9.31496e-09	
6	1.024341e-06	5.174058e-04	-1.09465e-04	-8.63148e-09	
7	1.032042e-06	5.412758e-04	-1.07118e-04	-9.13213e-09	
8	1.038639e-06	5.198675e-04	-1.06475e-04	-8.81729e-09	
9	1.044250e-06	5.357532e-04	-1.05092e-04	-9.04250e-09	
10	1.049306e-06	5.249057e-04	-1.05477e-04	-8.99864e-09	
11	1.054060e-06	5.362620e-04	-1.05370e-04	-9.12145e-09	
12	1.059064e-06	5.361825e-04	-1.07818e-04	-9.30124e-09	
13	1.063693e-06	5.513390e-04	-1.11024e-04	-9.56422e-09	
14	1.068442e-06	5.662308e-04	-1.18336e-04	-1.00578e-08	
15	1.073356e-06	5.963595e-04	-1.28625e-04	-1.07378e-08	
16	1.078856e-06	6.349084e-04	-1.44982e-04	-1.17809e-08	
17	1.085766e-06	6.874013e-04	-1.64966e-04	-1.30625e-08	
18	1.096726e-06	7.384655e-04	-1.86441e-04	-1.44185e-08	
19	1.108402e-06	7.484789e-04	-1.89922e-04	-1.46425e-08	
20	1.120099e-06	7.552393e-04	-1.93838e-04	-1.48114e-08	
21	1.138593e-06	7.524545e-04	-1.93093e-04	-1.46891e-08	
22	1.174901e-06	7.552102e-04	-1.98140e-04	-1.46237e-08	
23	1.247518e-06	7.516081e-04	-2.06686e-04	-1.40808e-08	
24	1.392752e-06	7.541208e-04	-2.45424e-04	-1.25777e-08	
25	1.630307e-06	7.509517e-04	-3.52346e-04	-7.89506e-09	
26	1.856191e-06	7.546668e-04	-5.35542e-04	-3.12173e-10	
27	1.927522e-06	6.886151e-04	-6.05377e-04	4.564577e-09	
28	1.947730e-06	2.863770e-04	-6.26507e-04	1.640824e-08	
29	1.960136e-06	6.043333e-04	-6.36489e-04	8.934075e-09	
30	1.968748e-06	2.826176e-04	-6.45923e-04	1.683328e-08	
31	1.976996e-06	6.067121e-04	-6.52222e-04	1.029470e-08	
32	1.993492e-06	2.882778e-04	-6.68222e-04	1.737379e-08	
33	2.000000e-06	6.131719e-04	-6.73041e-04	1.156578e-08	
34	2.001766e-06	4.092061e-05	-5.05608e-04	1.885255e-08	
35	2.005299e-06	-2.94195e-05	-4.69393e-04	2.130685e-08	
36	2.008784e-06	2.103147e-05	-4.95347e-04	1.993274e-08	
37	2.015754e-06	-1.78141e-05	-4.75386e-04	2.078087e-08	
38	2.029695e-06	1.639590e-05	-4.92955e-04	2.011113e-08	
39	2.057576e-06	-1.57310e-05	-4.76460e-04	2.070680e-08	
40	2.113339e-06	1.540859e-05	-4.92444e-04	2.014518e-08	
41	2.224865e-06	-1.52498e-05	-4.76704e-04	2.069097e-08	
42	2.447916e-06	1.517124e-05	-4.92315e-04	2.015383e-08	
43	2.894019e-06	-1.51319e-05	-4.76751e-04	2.068852e-08	
44	3.786224e-06	1.511247e-05	-4.92256e-04	2.015870e-08	
45	5.570634e-06	-1.51025e-05	-4.76710e-04	2.069338e-08	
46	9.139455e-06	1.509782e-05	-4.92136e-04	2.017058e-08	
47	1.627710e-05	-1.50952e-05	-4.76487e-04	2.071622e-08	
48	3.055238e-05	1.509416e-05	-4.91680e-04	2.021705e-08	
49	5.910294e-05	-1.50934e-05	-4.75577e-04	2.080804e-08	
50	1.162041e-04	1.509324e-05	-4.89845e-04	2.039756e-08	
51	2.304063e-04	-1.50929e-05	-4.71859e-04	2.115503e-08	
52	4.588109e-04	1.509301e-05	-4.82222e-04	2.099386e-08	
53	5.649591e-04	-1.50927e-05	-4.64273e-04	2.160226e-08	
54	6.376959e-04	1.509261e-05	-4.78067e-04	2.101477e-08	

Index   time            a2#branch_1_0   v.x1.v1#branch  v.x2.v1#branch  
--------------------------------------------------------------------------------
55	6.897459e-04	-1.50921e-05	-4.61339e-04	2.138338e-08	
56	7.356138e-04	1.509190e-05	-4.75744e-04	2.055980e-08	
57	7.805398e-04	-1.50913e-05	-4.59170e-04	2.057205e-08	
58	8.307175e-04	1.509116e-05	-4.73456e-04	1.902247e-08	
59	9.111222e-04	-1.50908e-05	-4.56002e-04	1.609481e-08	
60	1.005003e-03	1.509076e-05	-4.69186e-04	6.300094e-09	
61	1.111235e-03	-1.50904e-05	-4.51038e-04	-1.60088e-08	
62	1.236669e-03	1.509046e-05	-4.63361e-04	-7.08949e-08	
63	1.435443e-03	-1.50902e-05	-4.42734e-04	-2.47989e-07	
64	1.664687e-03	1.509031e-05	-4.52183e-04	-6.36826e-07	
65	1.960756e-03	-1.50900e-05	-4.28666e-04	-1.50768e-06	
66	2.325762e-03	1.509022e-05	-4.34008e-04	-3.27132e-06	
67	2.806421e-03	-1.50899e-05	-4.04723e-04	-6.92335e-06	
68	3.518999e-03	1.509031e-05	-3.99158e-04	-1.52410e-05	
69	3.871975e-03	-1.50895e-05	-3.73009e-04	-2.05081e-05	
70	4.136604e-03	1.509054e-05	-3.80485e-04	-2.48680e-05	
71	4.313607e-03	-1.50890e-05	-3.59580e-04	-2.79403e-05	
72	4.481746e-03	1.509073e-05	-3.69958e-04	-3.09495e-05	
73	4.622237e-03	-1.50883e-05	-3.50152e-04	-3.35127e-05	
74	4.733961e-03	1.509085e-05	-3.62247e-04	-3.55737e-05	
75	4.843993e-03	-1.50876e-05	-3.43369e-04	-3.76130e-05	
76	4.925600e-03	1.509083e-05	-3.56386e-04	-3.91283e-05	
77	4.992464e-03	-1.50868e-05	-3.38829e-04	-4.03676e-05	
78	5.060360e-03	1.509058e-05	-3.52266e-04	-4.16237e-05	
79	5.123828e-03	-1.50860e-05	-3.34814e-04	-4.27921e-05	
80	5.199984e-03	1.509037e-05	-3.48001e-04	-4.41867e-05	
81	5.286004e-03	-1.50852e-05	-3.29863e-04	-4.57459e-05	
82	5.387201e-03	1.509039e-05	-3.42290e-04	-4.75555e-05	
83	5.501374e-03	-1.50844e-05	-3.23301e-04	-4.95535e-05	
84	5.635878e-03	1.509064e-05	-3.34727e-04	-5.18362e-05	
85	5.793690e-03	-1.50835e-05	-3.14431e-04	-5.43897e-05	
86	5.987038e-03	1.509114e-05	-3.24106e-04	-5.72931e-05	
87	6.225180e-03	-1.50826e-05	-3.01439e-04	-6.04400e-05	
88	6.523793e-03	1.509189e-05	-3.08054e-04	-6.35426e-05	
89	6.890666e-03	-1.50815e-05	-2.81728e-04	-6.57036e-05	
90	7.335954e-03	1.509268e-05	-2.84337e-04	-6.51509e-05	
91	7.865425e-03	-1.50807e-05	-2.53820e-04	-5.89807e-05	
92	8.488184e-03	1.509314e-05	-2.52245e-04	-4.89176e-05	
93	9.181732e-03	-1.50804e-05	-2.18460e-04	-3.92801e-05	
94	1.002170e-02	1.509300e-05	-2.13040e-04	-2.97798e-05	
95	1.097631e-02	-1.50808e-05	-1.75366e-04	-2.13746e-05	
96	1.158628e-02	1.509238e-05	-1.77690e-04	-1.71006e-05	
97	1.192354e-02	-1.50811e-05	-1.55188e-04	-1.50506e-05	
98	1.211388e-02	1.509199e-05	-1.66873e-04	-1.39838e-05	
99	1.225961e-02	-1.50810e-05	-1.48458e-04	-1.32075e-05	
100	1.240066e-02	1.509158e-05	-1.61223e-04	-1.24897e-05	
101	1.262447e-02	-1.50810e-05	-1.41402e-04	-1.14128e-05	
102	1.290237e-02	1.509119e-05	-1.51726e-04	-1.01787e-05	
103	1.320395e-02	-1.50811e-05	-1.30726e-04	-8.95791e-06	
104	1.358326e-02	1.509075e-05	-1.39607e-04	-7.58542e-06	
105	1.396942e-02	-1.50814e-05	-1.17595e-04	-6.35609e-06	
106	1.442027e-02	1.509025e-05	-1.25888e-04	-5.11426e-06	
107	1.493412e-02	-1.50817e-05	-1.02559e-04	-3.92159e-06	
108	1.534889e-02	1.508974e-05	-1.12116e-04	-3.11296e-06	
109	1.569508e-02	-1.50820e-05	-9.18276e-05	-2.53077e-06	
110	1.591213e-02	1.508934e-05	-1.04467e-04	-2.20634e-06	
111	1.605881e-02	-1.50819e-05	-8.70323e-05	-2.00290e-06	
112	1.620405e-02	1.508895e-05	-1.00702e-04	-1.81482e-06	

Index   time            a2#branch_1_0   v.x1.v1#branch  v.x2.v1#branch  
--------------------------------------------------------------------------------
113	1.635653e-02	-1.50818e-05	-8.32616e-05	-1.62964e-06	
114	1.653538e-02	1.508857e-05	-9.65874e-05	-1.42981e-06	
115	1.674860e-02	-1.50817e-05	-7.85012e-05	-1.21318e-06	
116	1.691332e-02	1.508821e-05	-9.20948e-05	-1.06263e-06	
117	1.704041e-02	-1.50816e-05	-7.51052e-05	-9.55065e-07	
118	1.716551e-02	1.508779e-05	-8.92125e-05	-8.57592e-07	
119	1.724717e-02	-1.50813e-05	-7.27730e-05	-7.97323e-07	
120	1.731714e-02	1.508722e-05	-8.75228e-05	-7.48841e-07	
121	1.738488e-02	-1.50808e-05	-7.12532e-05	-7.03256e-07	
122	1.745178e-02	1.508658e-05	-8.60492e-05	-6.60996e-07	
123	1.753333e-02	-1.50803e-05	-6.96441e-05	-6.11263e-07	
124	1.762448e-02	1.508606e-05	-8.41956e-05	-5.59824e-07	
125	1.773134e-02	-1.50800e-05	-6.75443e-05	-5.03016e-07	
126	1.785087e-02	1.508563e-05	-8.18266e-05	-4.45620e-07	
127	1.799131e-02	-1.50797e-05	-6.48667e-05	-3.84183e-07	
128	1.815511e-02	1.508526e-05	-7.87493e-05	-3.22100e-07	
129	1.835530e-02	-1.50797e-05	-6.12648e-05	-2.57056e-07	
130	1.860079e-02	1.508493e-05	-7.44539e-05	-1.93646e-07	
131	1.890803e-02	-1.50797e-05	-5.61097e-05	-1.33516e-07	
132	1.928438e-02	1.508459e-05	-6.83316e-05	-8.41710e-08	
133	1.974014e-02	-1.50799e-05	-4.90208e-05	-4.73097e-08	
134	2.028018e-02	1.508421e-05	-6.03469e-05	-2.45683e-08	
135	2.078609e-02	-1.50801e-05	-4.11565e-05	-1.30287e-08	
136	2.129258e-02	1.508386e-05	-5.32554e-05	-7.44060e-09	
137	2.177196e-02	-1.50803e-05	-3.46994e-05	-3.91370e-09	
138	2.232959e-02	1.508354e-05	-4.69413e-05	-2.27828e-09	
139	2.305521e-02	-1.50805e-05	-2.75059e-05	-5.70367e-10	
140	2.405521e-02	1.508315e-05	-3.82506e-05	-2.18165e-10	
141	2.445673e-02	-1.50807e-05	-2.09903e-05	3.108982e-10	
142	2.468113e-02	1.508291e-05	-3.55883e-05	-2.64381e-11	
143	2.486160e-02	-1.50805e-05	-1.93385e-05	4.004100e-10	
144	2.504294e-02	1.508263e-05	-3.41541e-05	3.724897e-11	
145	2.532426e-02	-1.50804e-05	-1.75637e-05	4.629841e-10	
146	2.562043e-02	1.508241e-05	-3.20128e-05	9.591788e-11	
147	2.603493e-02	-1.50804e-05	-1.50559e-05	5.085755e-10	
148	2.661465e-02	1.508220e-05	-2.87160e-05	1.275757e-10	
149	2.751063e-02	-1.50806e-05	-1.05962e-05	5.122332e-10	
150	2.799586e-02	1.508198e-05	-2.48520e-05	1.098272e-10	
151	2.844174e-02	-1.50806e-05	-8.23666e-06	4.902218e-10	
152	2.858555e-02	1.508174e-05	-2.34252e-05	9.414436e-11	
153	2.873868e-02	-1.50803e-05	-7.54927e-06	4.817959e-10	
154	2.890235e-02	1.508146e-05	-2.27079e-05	8.495552e-11	
155	2.910765e-02	-1.50801e-05	-6.73553e-06	4.708721e-10	
156	2.937023e-02	1.508125e-05	-2.17074e-05	7.088594e-11	
157	2.971193e-02	-1.50801e-05	-5.49377e-06	4.524891e-10	
158	3.020343e-02	1.508109e-05	-2.00864e-05	4.549105e-11	
159	3.097179e-02	-1.50801e-05	-3.23139e-06	4.147321e-10	
160	3.197179e-02	1.508092e-05	-1.72349e-05	-5.13694e-12	
161	3.294108e-02	-1.50802e-05	-4.35005e-07	3.623643e-10	
162	3.360524e-02	1.508079e-05	-1.51869e-05	-4.49827e-11	
163	3.415513e-02	-1.50802e-05	9.229046e-07	3.352705e-10	
164	3.470233e-02	1.508067e-05	-1.40656e-05	-6.77072e-11	
165	3.543331e-02	-1.50801e-05	2.111618e-06	3.108555e-10	
166	3.643331e-02	1.508056e-05	-1.26279e-05	-9.76274e-11	
167	3.743331e-02	-1.50802e-05	3.573856e-06	2.800307e-10	
168	3.843331e-02	1.508047e-05	-1.13682e-05	-1.24494e-10	
169	3.843531e-02	-1.50704e-05	4.154379e-06	2.673503e-10	
170	3.843531e-02	-5.13166e-04	1.967146e-04	4.457125e-09	

Index   time            a2#branch_1_0   v.x1.v1#branch  v.x2.v1#branch  
--------------------------------------------------------------------------------
171	3.843532e-02	-5.63364e-04	2.159427e-04	5.247128e-09	
172	3.843534e-02	-5.14597e-04	1.996024e-04	4.576398e-09	
173	3.843535e-02	-5.51991e-04	2.137833e-04	5.173522e-09	
174	3.843536e-02	-5.20953e-04	2.020151e-04	4.731035e-09	
175	3.843536e-02	-5.51006e-04	2.113235e-04	5.201322e-09	
176	3.843537e-02	-5.40217e-04	2.047259e-04	5.033851e-09	
177	3.843537e-02	-5.63369e-04	2.091502e-04	5.391163e-09	
178	3.843538e-02	-5.70483e-04	2.063851e-04	5.475771e-09	
179	3.843538e-02	-5.95781e-04	2.081002e-04	5.853364e-09	
180	3.843538e-02	-6.18335e-04	2.070536e-04	6.152427e-09	
181	3.843539e-02	-6.52525e-04	2.077274e-04	6.646763e-09	
182	3.843539e-02	-7.03700e-04	2.072743e-04	7.337657e-09	
183	3.843540e-02	-7.39716e-04	2.076699e-04	7.841976e-09	
184	3.843541e-02	-7.51801e-04	2.073850e-04	7.968222e-09	
185	3.843543e-02	-7.55877e-04	2.076731e-04	7.995175e-09	
186	3.843544e-02	-7.56095e-04	2.074901e-04	7.874638e-09	
187	3.843548e-02	-7.55912e-04	2.077855e-04	7.582725e-09	
188	3.843554e-02	-7.55102e-04	2.077703e-04	6.547301e-09	
189	3.843568e-02	-7.54518e-04	2.084061e-04	3.180045e-09	
190	3.843594e-02	-7.54059e-04	2.095347e-04	-6.23300e-09	
191	3.843611e-02	-7.54460e-04	2.113240e-04	-1.29822e-08	
192	3.843619e-02	-7.53025e-04	2.120815e-04	-1.65681e-08	
193	3.843622e-02	-6.87430e-04	1.917461e-04	-1.87511e-08	
194	3.843624e-02	-4.57833e-04	1.112848e-04	-2.25054e-08	
195	3.843624e-02	-5.17180e-04	1.303482e-04	-2.17686e-08	
196	3.843625e-02	-4.09946e-04	9.425953e-05	-2.35011e-08	
197	3.843625e-02	-4.94396e-04	1.225169e-04	-2.22802e-08	
198	3.843625e-02	-4.01106e-04	9.161323e-05	-2.38040e-08	
199	3.843626e-02	-4.85487e-04	1.198861e-04	-2.25661e-08	
200	3.843626e-02	-3.97613e-04	9.112198e-05	-2.40358e-08	
201	3.843626e-02	-4.81978e-04	1.195582e-04	-2.28174e-08	
202	3.843627e-02	-3.96998e-04	9.236497e-05	-2.43284e-08	
203	3.843628e-02	-4.83044e-04	1.219480e-04	-2.31583e-08	
204	3.843629e-02	-4.00886e-04	9.672623e-05	-2.47413e-08	
205	3.843631e-02	-4.90462e-04	1.295107e-04	-2.37253e-08	
206	3.843631e-02	-4.06034e-04	1.016911e-04	-2.50544e-08	
207	3.843631e-02	-1.84623e-04	-9.64042e-08	-2.56167e-08	
208	3.843631e-02	-4.61607e-05	9.575364e-08	-2.71248e-08	
209	3.843631e-02	4.448022e-06	-9.54364e-08	-2.76758e-08	
210	3.843631e-02	-1.62244e-06	9.523959e-08	-2.76097e-08	
211	3.843631e-02	1.055266e-06	-9.51444e-08	-2.76388e-08	
212	3.843632e-02	-8.66689e-07	9.509515e-08	-2.76178e-08	
213	3.843632e-02	7.882592e-07	-9.50749e-08	-2.76356e-08	
214	3.843634e-02	-7.53377e-07	9.505936e-08	-2.76186e-08	
215	3.843637e-02	7.359492e-07	-9.50575e-08	-2.76341e-08	
216	3.843644e-02	-7.28233e-07	9.505040e-08	-2.76170e-08	
217	3.843656e-02	7.236213e-07	-9.50532e-08	-2.76301e-08	
218	3.843682e-02	-7.22129e-07	9.504814e-08	-2.76094e-08	
219	3.843732e-02	7.205841e-07	-9.50521e-08	-2.76149e-08	
220	3.843834e-02	-7.20614e-07	9.504749e-08	-2.75790e-08	
221	3.844036e-02	7.198275e-07	-9.50520e-08	-2.75543e-08	
222	3.844442e-02	-7.20237e-07	9.504708e-08	-2.74584e-08	
223	3.845253e-02	7.196383e-07	-9.50524e-08	-2.73156e-08	
224	3.846874e-02	-7.20143e-07	9.504660e-08	-2.69917e-08	
225	3.850118e-02	7.195900e-07	-9.50527e-08	-2.64326e-08	
226	3.856605e-02	-7.20121e-07	9.504633e-08	-2.56201e-08	
227	3.860627e-02	7.195664e-07	-9.50529e-08	-2.59812e-08	
228	3.863414e-02	-7.20093e-07	9.504623e-08	-2.72449e-08	

Index   time            a2#branch_1_0   v.x1.v1#branch  v.x2.v1#branch  
--------------------------------------------------------------------------------
229	3.865460e-02	7.195215e-07	-9.50529e-08	-2.94660e-08	
230	3.867433e-02	-7.20043e-07	9.504616e-08	-3.32224e-08	
231	3.869486e-02	7.194693e-07	-9.50529e-08	-4.02019e-08	
232	3.871514e-02	-7.19994e-07	9.504609e-08	-5.17086e-08	
233	3.873736e-02	7.194195e-07	-9.50530e-08	-7.25707e-08	
234	3.876338e-02	-7.19954e-07	9.504602e-08	-1.13064e-07	
235	3.880157e-02	7.193836e-07	-9.50530e-08	-2.20532e-07	
236	3.884295e-02	-7.19932e-07	9.504592e-08	-4.29448e-07	
237	3.888974e-02	7.193557e-07	-9.50531e-08	-8.09334e-07	
238	3.894296e-02	-7.19917e-07	9.504580e-08	-1.42416e-06	
239	3.900143e-02	7.193297e-07	-9.50532e-08	-2.29771e-06	
240	3.907554e-02	-7.19913e-07	9.504565e-08	-3.66044e-06	
241	3.916973e-02	7.193002e-07	-9.50534e-08	-5.76168e-06	
242	3.929615e-02	-7.19933e-07	9.504540e-08	-9.17604e-06	
243	3.946182e-02	7.192329e-07	-9.50537e-08	-1.45867e-05	
244	3.968775e-02	-7.20075e-07	9.504500e-08	-2.34600e-05	
245	4.000139e-02	7.187284e-07	-9.50543e-08	-3.81527e-05	
246	4.047071e-02	-7.22899e-07	9.504429e-08	-6.40525e-05	
247	4.125315e-02	7.061399e-07	-9.50553e-08	-1.14031e-04	
248	4.225315e-02	-7.34287e-07	9.504308e-08	-1.82999e-04	
249	4.283464e-02	7.052896e-07	-9.50562e-08	-2.22676e-04	
250	4.316525e-02	-7.32768e-07	9.504265e-08	-2.44503e-04	
251	4.334795e-02	7.064221e-07	-9.50564e-08	-2.56285e-04	
252	4.348834e-02	-7.31997e-07	9.504253e-08	-2.65161e-04	
253	4.362428e-02	7.070999e-07	-9.50565e-08	-2.73601e-04	
254	4.385009e-02	-7.31071e-07	9.504240e-08	-2.87227e-04	
255	4.412129e-02	7.083861e-07	-9.50566e-08	-3.02675e-04	
256	4.440852e-02	-7.29610e-07	9.504222e-08	-3.17239e-04	
257	4.483807e-02	7.102074e-07	-9.50568e-08	-3.34562e-04	
258	4.549161e-02	-7.27009e-07	9.504197e-08	-3.51226e-04	
259	4.597552e-02	7.127531e-07	-9.50571e-08	-3.57164e-04	
260	4.645733e-02	-7.25097e-07	9.504180e-08	-3.58751e-04	
261	4.681128e-02	7.142447e-07	-9.50572e-08	-3.57642e-04	
262	4.715270e-02	-7.23982e-07	9.504171e-08	-3.55056e-04	
263	4.733301e-02	7.150166e-07	-9.50573e-08	-3.53166e-04	
264	4.748555e-02	-7.23514e-07	9.504167e-08	-3.51314e-04	
265	4.763737e-02	7.154119e-07	-9.50573e-08	-3.49260e-04	
266	4.782093e-02	-7.23084e-07	9.504163e-08	-3.46518e-04	
267	4.797412e-02	7.158112e-07	-9.50573e-08	-3.44029e-04	
268	4.810105e-02	-7.22754e-07	9.504161e-08	-3.41841e-04	
269	4.822869e-02	7.160834e-07	-9.50573e-08	-3.39533e-04	
270	4.835945e-02	-7.22471e-07	9.504158e-08	-3.37064e-04	
271	4.851510e-02	7.163668e-07	-9.50573e-08	-3.34000e-04	
272	4.875698e-02	-7.22083e-07	9.504155e-08	-3.28993e-04	
273	4.897525e-02	7.167796e-07	-9.50574e-08	-3.24250e-04	
274	4.920086e-02	-7.21704e-07	9.504152e-08	-3.19153e-04	
275	4.942637e-02	7.171297e-07	-9.50574e-08	-3.13890e-04	
276	4.969959e-02	-7.21336e-07	9.504149e-08	-3.07326e-04	
277	5.002004e-02	7.175218e-07	-9.50574e-08	-2.99419e-04	
278	5.041913e-02	-7.20902e-07	9.504146e-08	-2.89344e-04	
279	5.088624e-02	7.179762e-07	-9.50575e-08	-2.77356e-04	
280	5.144548e-02	-7.20437e-07	9.504143e-08	-2.62905e-04	
281	5.208812e-02	7.184269e-07	-9.50575e-08	-2.46390e-04	
282	5.279528e-02	-7.20023e-07	9.504140e-08	-2.28576e-04	
283	5.364910e-02	7.187972e-07	-9.50575e-08	-2.07857e-04	
284	5.460317e-02	-7.19695e-07	9.504137e-08	-1.86004e-04	
285	5.522080e-02	7.190150e-07	-9.50575e-08	-1.72687e-04	
286	5.556013e-02	-7.19587e-07	9.504137e-08	-1.65664e-04	

Index   time            a2#branch_1_0   v.x1.v1#branch  v.x2.v1#branch  
--------------------------------------------------------------------------------
287	5.575165e-02	7.190612e-07	-9.50575e-08	-1.61795e-04	
288	5.589850e-02	-7.19551e-07	9.504136e-08	-1.58874e-04	
289	5.604064e-02	7.190775e-07	-9.50575e-08	-1.56084e-04	
290	5.626944e-02	-7.19516e-07	9.504136e-08	-1.51672e-04	
291	5.655227e-02	7.191101e-07	-9.50575e-08	-1.46352e-04	
292	5.685696e-02	-7.19473e-07	9.504135e-08	-1.40785e-04	
293	5.730245e-02	7.191509e-07	-9.50575e-08	-1.32950e-04	
294	5.792507e-02	-7.19418e-07	9.504135e-08	-1.22597e-04	
295	5.885526e-02	7.192111e-07	-9.50575e-08	-1.08386e-04	
296	5.925844e-02	-7.19371e-07	9.504135e-08	-1.02685e-04	
297	5.965565e-02	7.192292e-07	-9.50575e-08	-9.73263e-05	
298	5.982336e-02	-7.19353e-07	9.504134e-08	-9.51386e-05	
299	5.998161e-02	7.192294e-07	-9.50575e-08	-9.31148e-05	
300	6.015331e-02	-7.19340e-07	9.504134e-08	-9.09617e-05	
301	6.032475e-02	7.192294e-07	-9.50575e-08	-8.88569e-05	
302	6.046373e-02	-7.19327e-07	9.504134e-08	-8.71822e-05	
303	6.060138e-02	7.192261e-07	-9.50575e-08	-8.55520e-05	
304	6.072647e-02	-7.19314e-07	9.504133e-08	-8.40940e-05	
305	6.087045e-02	7.192220e-07	-9.50575e-08	-8.24440e-05	
306	6.105902e-02	-7.19303e-07	9.504133e-08	-8.03267e-05	
307	6.125177e-02	7.192215e-07	-9.50575e-08	-7.82141e-05	
308	6.145568e-02	-7.19292e-07	9.504133e-08	-7.60338e-05	
309	6.167322e-02	7.192214e-07	-9.50575e-08	-7.37695e-05	
310	6.190890e-02	-7.19282e-07	9.504133e-08	-7.13858e-05	
311	6.219052e-02	7.192224e-07	-9.50575e-08	-6.86309e-05	
312	6.252900e-02	-7.19272e-07	9.504133e-08	-6.54490e-05	
313	6.294163e-02	7.192256e-07	-9.50575e-08	-6.17556e-05	
314	6.342959e-02	-7.19263e-07	9.504132e-08	-5.76380e-05	
315	6.400611e-02	7.192300e-07	-9.50575e-08	-5.31047e-05	
316	6.467023e-02	-7.19255e-07	9.504132e-08	-4.82988e-05	
317	6.528165e-02	7.192335e-07	-9.50575e-08	-4.42423e-05	
318	6.583642e-02	-7.19250e-07	9.504132e-08	-4.08446e-05	
319	6.654067e-02	7.192350e-07	-9.50575e-08	-3.68896e-05	
320	6.753532e-02	-7.19245e-07	9.504132e-08	-3.19217e-05	
321	6.839670e-02	7.192367e-07	-9.50575e-08	-2.81496e-05	
322	6.895619e-02	-7.19241e-07	9.504132e-08	-2.59367e-05	
323	6.941925e-02	7.192354e-07	-9.50575e-08	-2.42348e-05	
324	6.995015e-02	-7.19238e-07	9.504132e-08	-2.24168e-05	
325	7.044766e-02	7.192339e-07	-9.50575e-08	-2.08351e-05	
326	7.044966e-02	-7.18959e-07	9.504123e-08	-2.08287e-05	
327	7.044967e-02	5.109484e-04	-1.15001e-04	-2.08366e-05	
328	7.044967e-02	5.555747e-04	-1.11493e-04	-2.08386e-05	
329	7.044969e-02	5.131895e-04	-1.10027e-04	-2.08370e-05	
330	7.044969e-02	5.451873e-04	-1.07007e-04	-2.08382e-05	
331	7.044970e-02	5.169745e-04	-1.06897e-04	-2.08373e-05	
