          * /home/saurabh/esim-workspace/cmosinvertor/cmosinvertor.cir
          Transient Analysis  Wed Nov 27 14:26:17  2019
--------------------------------------------------------------------------------
Index   time            out1            out2            out3            
--------------------------------------------------------------------------------
0	0.000000e+00	2.343354e-08	5.000000e+00	2.343356e-08	
1	1.000000e-06	2.343354e-08	5.000000e+00	2.343356e-08	
2	1.002200e-06	-3.73920e-07	5.000000e+00	2.343356e-08	
3	1.006600e-06	-1.28339e-06	5.000000e+00	2.343355e-08	
4	1.010958e-06	-2.21729e-06	5.000000e+00	2.343355e-08	
5	1.015614e-06	-3.19030e-06	5.000000e+00	2.343355e-08	
6	1.024341e-06	-5.04077e-06	5.000000e+00	2.343355e-08	
7	1.032042e-06	-6.66150e-06	5.000000e+00	2.343355e-08	
8	1.038639e-06	-8.06227e-06	5.000000e+00	2.343354e-08	
9	1.044250e-06	-9.24827e-06	5.000000e+00	2.343354e-08	
10	1.049306e-06	-1.03288e-05	5.000000e+00	2.343354e-08	
11	1.054060e-06	-1.13478e-05	5.000000e+00	2.343354e-08	
12	1.059064e-06	-1.24408e-05	5.000000e+00	2.343353e-08	
13	1.063693e-06	-1.34752e-05	5.000000e+00	2.343353e-08	
14	1.068442e-06	-1.45813e-05	5.000000e+00	2.343353e-08	
15	1.073356e-06	-1.57942e-05	5.000000e+00	2.343353e-08	
16	1.078856e-06	-1.72669e-05	5.000000e+00	2.343353e-08	
17	1.085766e-06	-1.93064e-05	5.000000e+00	2.343352e-08	
18	1.096726e-06	-2.28809e-05	5.000000e+00	2.343352e-08	
19	1.108402e-06	-2.69003e-05	5.000000e+00	2.343351e-08	
20	1.120099e-06	-3.09812e-05	5.000000e+00	2.343350e-08	
21	1.138593e-06	-3.74411e-05	5.000000e+00	2.343349e-08	
22	1.174901e-06	-5.00441e-05	5.000000e+00	2.343347e-08	
23	1.247518e-06	-7.47236e-05	5.000000e+00	2.343342e-08	
24	1.392752e-06	-1.20557e-04	5.000000e+00	2.343334e-08	
25	1.630307e-06	-1.78094e-04	5.000000e+00	2.343324e-08	
26	1.856191e-06	-1.99943e-04	5.000000e+00	2.343320e-08	
27	1.927522e-06	-1.96293e-04	5.000000e+00	2.343321e-08	
28	1.947730e-06	-1.91195e-04	5.000000e+00	2.343322e-08	
29	1.960136e-06	-1.87503e-04	5.000000e+00	2.343322e-08	
30	1.968748e-06	-1.84831e-04	5.000000e+00	2.343323e-08	
31	1.976996e-06	-1.82203e-04	5.000000e+00	2.343323e-08	
32	1.993492e-06	-1.76758e-04	5.000000e+00	2.343324e-08	
33	2.000000e-06	-1.74543e-04	5.000000e+00	2.343325e-08	
34	2.001766e-06	-1.73722e-04	5.000000e+00	2.343325e-08	
35	2.005299e-06	-1.72020e-04	5.000000e+00	2.343325e-08	
36	2.008784e-06	-1.70325e-04	5.000000e+00	2.343325e-08	
37	2.015754e-06	-1.66953e-04	5.000000e+00	2.343326e-08	
38	2.029695e-06	-1.60194e-04	5.000000e+00	2.343327e-08	
39	2.057576e-06	-1.46691e-04	5.000000e+00	2.343329e-08	
40	2.113339e-06	-1.19670e-04	5.000000e+00	2.343334e-08	
41	2.224865e-06	-6.56425e-05	5.000000e+00	2.343344e-08	
42	2.447916e-06	4.242501e-05	5.000000e+00	2.343363e-08	
43	2.894019e-06	2.585442e-04	5.000000e+00	2.343402e-08	
44	3.786224e-06	6.907826e-04	5.000000e+00	2.343479e-08	
45	5.570634e-06	1.555196e-03	5.000000e+00	2.343633e-08	
46	9.139455e-06	3.283834e-03	5.000000e+00	2.343940e-08	
47	1.627710e-05	6.740289e-03	5.000000e+00	2.344553e-08	
48	3.055238e-05	1.364997e-02	5.000000e+00	2.345771e-08	
49	5.910294e-05	2.745632e-02	5.000001e+00	2.348179e-08	
50	1.162041e-04	5.501668e-02	5.000002e+00	2.352882e-08	
51	2.304063e-04	1.099251e-01	5.000004e+00	2.361820e-08	
52	4.588109e-04	2.188716e-01	5.000008e+00	2.376755e-08	
53	5.649591e-04	2.691006e-01	5.000010e+00	2.380876e-08	
54	6.376959e-04	3.033682e-01	5.000010e+00	2.380475e-08	

Index   time            out1            out2            out3            
--------------------------------------------------------------------------------
55	6.897459e-04	3.278135e-01	5.000009e+00	2.376758e-08	
56	7.356138e-04	3.493021e-01	5.000007e+00	2.369138e-08	
57	7.805398e-04	3.703005e-01	5.000004e+00	2.355112e-08	
58	8.307175e-04	3.936960e-01	4.999998e+00	2.326795e-08	
59	9.111222e-04	4.310573e-01	4.999974e+00	2.229428e-08	
60	1.005003e-03	4.744796e-01	4.999910e+00	1.966017e-08	
61	1.111235e-03	5.233510e-01	4.999749e+00	1.314837e-08	
62	1.236669e-03	5.806906e-01	4.999364e+00	-2.34817e-09	
63	1.435443e-03	6.707312e-01	4.998087e+00	-5.27291e-08	
64	1.664687e-03	7.732925e-01	4.995249e+00	-1.62129e-07	
65	1.960756e-03	9.036689e-01	4.988738e+00	-4.05336e-07	
66	2.325762e-03	1.061085e+00	4.975163e+00	-8.92737e-07	
67	2.806421e-03	1.262625e+00	4.945780e+00	-1.89375e-06	
68	3.518999e-03	1.548993e+00	4.873495e+00	-4.15299e-06	
69	3.871975e-03	1.685248e+00	4.823829e+00	-5.57509e-06	
70	4.136604e-03	1.784929e+00	4.780201e+00	-6.68274e-06	
71	4.313607e-03	1.850415e+00	4.747911e+00	-7.35022e-06	
72	4.481746e-03	1.911736e+00	4.714912e+00	-7.76001e-06	
73	4.622237e-03	1.962312e+00	4.685596e+00	-7.70198e-06	
74	4.733961e-03	2.002101e+00	4.661146e+00	-7.11886e-06	
75	4.843993e-03	2.040914e+00	4.636083e+00	-5.64112e-06	
76	4.925600e-03	2.069461e+00	4.616862e+00	-3.58120e-06	
77	4.992464e-03	2.092700e+00	4.600713e+00	-9.23708e-07	
78	5.060360e-03	2.116156e+00	4.583945e+00	3.090280e-06	
79	5.123828e-03	2.137956e+00	4.567934e+00	8.499189e-06	
80	5.199984e-03	2.163952e+00	4.548291e+00	1.794561e-05	
81	5.286004e-03	2.193101e+00	4.525540e+00	3.394955e-05	
82	5.387201e-03	2.227105e+00	4.498008e+00	6.287541e-05	
83	5.501374e-03	2.265094e+00	4.465949e+00	1.135031e-04	
84	5.635878e-03	2.309339e+00	4.426823e+00	2.062689e-04	
85	5.793690e-03	2.360552e+00	4.379038e+00	3.750997e-04	
86	5.987038e-03	2.422270e+00	4.317717e+00	6.953322e-04	
87	6.225180e-03	2.496740e+00	4.237953e+00	1.306046e-03	
88	6.523793e-03	2.587723e+00	4.131236e+00	2.496442e-03	
89	6.890666e-03	2.695891e+00	3.989666e+00	4.779680e-03	
90	7.335954e-03	2.821900e+00	3.801670e+00	9.118756e-03	
91	7.865425e-03	2.964346e+00	3.553486e+00	1.721208e-02	
92	8.488184e-03	3.121899e+00	3.226017e+00	3.218050e-02	
93	9.181732e-03	3.285102e+00	2.821441e+00	5.818755e-02	
94	1.002170e-02	3.466295e+00	2.311004e+00	1.075422e-01	
95	1.097631e-02	3.651649e+00	1.768830e+00	1.959643e-01	
96	1.158628e-02	3.759301e+00	1.465298e+00	2.761710e-01	
97	1.192354e-02	3.815421e+00	1.314894e+00	3.307772e-01	
98	1.211388e-02	3.846063e+00	1.235607e+00	3.654005e-01	
99	1.225961e-02	3.869035e+00	1.177599e+00	3.939674e-01	
100	1.240066e-02	3.890869e+00	1.123652e+00	4.234371e-01	
101	1.262447e-02	3.924726e+00	1.042388e+00	4.741473e-01	
102	1.290237e-02	3.965445e+00	9.486580e-01	5.440630e-01	
103	1.320395e-02	4.008024e+00	8.555149e-01	6.281279e-01	
104	1.358326e-02	4.059281e+00	7.501965e-01	7.438165e-01	
105	1.396942e-02	4.108929e+00	6.554528e-01	8.702843e-01	
106	1.442027e-02	4.163803e+00	5.591127e-01	1.025397e+00	
107	1.493412e-02	4.222483e+00	4.658052e-01	1.207738e+00	
108	1.534889e-02	4.266992e+00	4.017130e-01	1.356715e+00	
109	1.569508e-02	4.302285e+00	3.548982e-01	1.481014e+00	
110	1.591213e-02	4.323583e+00	3.283371e-01	1.558605e+00	
111	1.605881e-02	4.337624e+00	3.115073e-01	1.610804e+00	
112	1.620405e-02	4.351254e+00	2.956799e-01	1.662259e+00	

Index   time            out1            out2            out3            
--------------------------------------------------------------------------------
113	1.635653e-02	4.365276e+00	2.799150e-01	1.715997e+00	
114	1.653538e-02	4.381355e+00	2.624763e-01	1.778612e+00	
115	1.674860e-02	4.400017e+00	2.430802e-01	1.852613e+00	
116	1.691332e-02	4.414064e+00	2.290744e-01	1.909258e+00	
117	1.704041e-02	4.424686e+00	2.188181e-01	1.952627e+00	
118	1.716551e-02	4.434963e+00	2.091666e-01	1.995018e+00	
119	1.724717e-02	4.441574e+00	2.030965e-01	2.022520e+00	
120	1.731714e-02	4.447181e+00	1.980345e-01	2.045980e+00	
121	1.738488e-02	4.452558e+00	1.932530e-01	2.068596e+00	
122	1.745178e-02	4.457819e+00	1.886429e-01	2.090840e+00	
123	1.753333e-02	4.464165e+00	1.831714e-01	2.117822e+00	
124	1.762448e-02	4.471175e+00	1.772421e-01	2.147811e+00	
125	1.773134e-02	4.479281e+00	1.705331e-01	2.182737e+00	
126	1.785087e-02	4.488206e+00	1.633275e-01	2.221500e+00	
127	1.799131e-02	4.498504e+00	1.552478e-01	2.266624e+00	
128	1.815511e-02	4.510264e+00	1.463258e-01	2.318672e+00	
129	1.835530e-02	4.524275e+00	1.361134e-01	2.381408e+00	
130	1.860079e-02	4.540931e+00	1.245553e-01	2.457007e+00	
131	1.890803e-02	4.560984e+00	1.114612e-01	2.549503e+00	
132	1.928438e-02	4.584396e+00	9.728368e-02	2.659529e+00	
133	1.974014e-02	4.611133e+00	8.251100e-02	2.787877e+00	
134	2.028018e-02	4.640659e+00	6.789175e-02	2.932964e+00	
135	2.078609e-02	4.666330e+00	5.658011e-02	3.062009e+00	
136	2.129258e-02	4.690236e+00	4.716114e-02	3.184614e+00	
137	2.177196e-02	4.711314e+00	3.971145e-02	3.294690e+00	
138	2.232959e-02	4.734073e+00	3.252167e-02	3.415616e+00	
139	2.305521e-02	4.761079e+00	2.508008e-02	3.561922e+00	
140	2.405521e-02	4.793952e+00	1.752003e-02	3.744169e+00	
141	2.445673e-02	4.805843e+00	1.519568e-02	3.811303e+00	
142	2.468113e-02	4.812191e+00	1.403634e-02	3.847394e+00	
143	2.486160e-02	4.817146e+00	1.316923e-02	3.875696e+00	
144	2.504294e-02	4.821996e+00	1.235233e-02	3.903499e+00	
145	2.532426e-02	4.829269e+00	1.118458e-02	3.945392e+00	
146	2.562043e-02	4.836609e+00	1.007518e-02	3.987910e+00	
147	2.603493e-02	4.846363e+00	8.705123e-03	4.044780e+00	
148	2.661465e-02	4.859049e+00	7.095479e-03	4.119386e+00	
149	2.751063e-02	4.876657e+00	5.168589e-03	4.224144e+00	
150	2.799586e-02	4.885257e+00	4.359574e-03	4.275843e+00	
151	2.844174e-02	4.892632e+00	3.729314e-03	4.320462e+00	
152	2.858555e-02	4.894908e+00	3.546612e-03	4.334286e+00	
153	2.873868e-02	4.897280e+00	3.361972e-03	4.348712e+00	
154	2.890235e-02	4.899755e+00	3.175313e-03	4.363802e+00	
155	2.910765e-02	4.902777e+00	2.955826e-03	4.382260e+00	
156	2.937023e-02	4.906511e+00	2.697154e-03	4.405126e+00	
157	2.971193e-02	4.911158e+00	2.394218e-03	4.433676e+00	
158	3.020343e-02	4.917443e+00	2.017091e-03	4.472457e+00	
159	3.097179e-02	4.926400e+00	1.542160e-03	4.528045e+00	
160	3.197179e-02	4.936631e+00	1.086670e-03	4.592018e+00	
161	3.294108e-02	4.945194e+00	7.748902e-04	4.645953e+00	
162	3.360524e-02	4.950381e+00	6.157063e-04	4.678809e+00	
163	3.415513e-02	4.954302e+00	5.092887e-04	4.703737e+00	
164	3.470233e-02	4.957897e+00	4.218037e-04	4.726660e+00	
165	3.543331e-02	4.962266e+00	3.279080e-04	4.754599e+00	
166	3.643331e-02	4.967523e+00	2.322443e-04	4.788349e+00	
167	3.743331e-02	4.972049e+00	1.647451e-04	4.817519e+00	
168	3.843331e-02	4.975946e+00	1.170737e-04	4.842715e+00	
169	3.843531e-02	4.975953e+00	1.169948e-04	4.842762e+00	
170	3.843531e-02	4.975954e+00	1.169947e-04	4.842762e+00	

Index   time            out1            out2            out3            
--------------------------------------------------------------------------------
171	3.843532e-02	4.975956e+00	1.169944e-04	4.842762e+00	
172	3.843534e-02	4.975959e+00	1.169939e-04	4.842763e+00	
173	3.843535e-02	4.975961e+00	1.169936e-04	4.842763e+00	
174	3.843536e-02	4.975963e+00	1.169933e-04	4.842763e+00	
175	3.843536e-02	4.975965e+00	1.169932e-04	4.842763e+00	
176	3.843537e-02	4.975966e+00	1.169930e-04	4.842763e+00	
177	3.843537e-02	4.975967e+00	1.169929e-04	4.842763e+00	
178	3.843538e-02	4.975967e+00	1.169928e-04	4.842763e+00	
179	3.843538e-02	4.975968e+00	1.169927e-04	4.842764e+00	
180	3.843538e-02	4.975969e+00	1.169926e-04	4.842764e+00	
181	3.843539e-02	4.975971e+00	1.169924e-04	4.842764e+00	
182	3.843539e-02	4.975973e+00	1.169923e-04	4.842764e+00	
183	3.843540e-02	4.975976e+00	1.169920e-04	4.842764e+00	
184	3.843541e-02	4.975979e+00	1.169918e-04	4.842764e+00	
185	3.843543e-02	4.975983e+00	1.169915e-04	4.842765e+00	
186	3.843544e-02	4.975990e+00	1.169910e-04	4.842765e+00	
187	3.843548e-02	4.976001e+00	1.169902e-04	4.842766e+00	
188	3.843554e-02	4.976022e+00	1.169884e-04	4.842767e+00	
189	3.843568e-02	4.976050e+00	1.169843e-04	4.842771e+00	
190	3.843594e-02	4.976032e+00	1.169730e-04	4.842777e+00	
191	3.843611e-02	4.975965e+00	1.169638e-04	4.842781e+00	
192	3.843619e-02	4.975911e+00	1.169582e-04	4.842782e+00	
193	3.843622e-02	4.975883e+00	1.169556e-04	4.842783e+00	
194	3.843624e-02	4.975872e+00	1.169547e-04	4.842784e+00	
195	3.843624e-02	4.975865e+00	1.169541e-04	4.842784e+00	
196	3.843625e-02	4.975861e+00	1.169538e-04	4.842784e+00	
197	3.843625e-02	4.975858e+00	1.169535e-04	4.842784e+00	
198	3.843625e-02	4.975855e+00	1.169533e-04	4.842784e+00	
199	3.843626e-02	4.975852e+00	1.169530e-04	4.842784e+00	
200	3.843626e-02	4.975848e+00	1.169527e-04	4.842784e+00	
201	3.843626e-02	4.975844e+00	1.169524e-04	4.842784e+00	
202	3.843627e-02	4.975837e+00	1.169518e-04	4.842784e+00	
203	3.843628e-02	4.975829e+00	1.169512e-04	4.842785e+00	
204	3.843629e-02	4.975816e+00	1.169501e-04	4.842785e+00	
205	3.843631e-02	4.975798e+00	1.169487e-04	4.842785e+00	
206	3.843631e-02	4.975798e+00	1.169487e-04	4.842785e+00	
207	3.843631e-02	4.975797e+00	1.169487e-04	4.842785e+00	
208	3.843631e-02	4.975797e+00	1.169486e-04	4.842785e+00	
209	3.843631e-02	4.975796e+00	1.169486e-04	4.842785e+00	
210	3.843631e-02	4.975795e+00	1.169485e-04	4.842785e+00	
211	3.843631e-02	4.975793e+00	1.169483e-04	4.842785e+00	
212	3.843632e-02	4.975788e+00	1.169480e-04	4.842785e+00	
213	3.843632e-02	4.975778e+00	1.169472e-04	4.842786e+00	
214	3.843634e-02	4.975759e+00	1.169458e-04	4.842786e+00	
215	3.843637e-02	4.975721e+00	1.169429e-04	4.842787e+00	
216	3.843644e-02	4.975644e+00	1.169372e-04	4.842788e+00	
217	3.843656e-02	4.975491e+00	1.169257e-04	4.842791e+00	
218	3.843682e-02	4.975185e+00	1.169027e-04	4.842797e+00	
219	3.843732e-02	4.974572e+00	1.168568e-04	4.842809e+00	
220	3.843834e-02	4.973347e+00	1.167650e-04	4.842833e+00	
221	3.844036e-02	4.970898e+00	1.165815e-04	4.842880e+00	
222	3.844442e-02	4.966001e+00	1.162148e-04	4.842974e+00	
223	3.845253e-02	4.956215e+00	1.154831e-04	4.843163e+00	
224	3.846874e-02	4.936676e+00	1.140261e-04	4.843541e+00	
225	3.850118e-02	4.897734e+00	1.111377e-04	4.844292e+00	
226	3.856605e-02	4.820391e+00	1.054703e-04	4.845785e+00	
227	3.860627e-02	4.772802e+00	1.020388e-04	4.846703e+00	
228	3.863414e-02	4.739994e+00	9.971087e-05	4.847336e+00	

Index   time            out1            out2            out3            
--------------------------------------------------------------------------------
229	3.865460e-02	4.715993e+00	9.803867e-05	4.847799e+00	
230	3.867433e-02	4.692921e+00	9.647040e-05	4.848245e+00	
231	3.869486e-02	4.668984e+00	9.490846e-05	4.848707e+00	
232	3.871514e-02	4.645413e+00	9.347787e-05	4.849162e+00	
233	3.873736e-02	4.619672e+00	9.213605e-05	4.849659e+00	
234	3.876338e-02	4.589639e+00	9.113379e-05	4.850239e+00	
235	3.880157e-02	4.545784e+00	9.204942e-05	4.851086e+00	
236	3.884295e-02	4.498556e+00	9.917324e-05	4.851998e+00	
237	3.888974e-02	4.445529e+00	1.206051e-04	4.853024e+00	
238	3.894296e-02	4.385705e+00	1.707106e-04	4.854181e+00	
239	3.900143e-02	4.320584e+00	2.676714e-04	4.855443e+00	
240	3.907554e-02	4.238941e+00	4.692989e-04	4.857026e+00	
241	3.916973e-02	4.136660e+00	8.776864e-04	4.859013e+00	
242	3.929615e-02	4.002005e+00	1.743036e-03	4.861638e+00	
243	3.946182e-02	3.830140e+00	3.520778e-03	4.865004e+00	
244	3.968775e-02	3.604220e+00	7.302966e-03	4.869462e+00	
245	4.000139e-02	3.306852e+00	1.547139e-02	4.875409e+00	
246	4.047071e-02	2.896966e+00	3.456494e-02	4.883800e+00	
247	4.125315e-02	2.303832e+00	8.565722e-02	4.896529e+00	
248	4.225315e-02	1.696466e+00	1.895165e-01	4.910711e+00	
249	4.283464e-02	1.413012e+00	2.732375e-01	4.917972e+00	
250	4.316525e-02	1.271834e+00	3.303878e-01	4.921799e+00	
251	4.334795e-02	1.199511e+00	3.654258e-01	4.923818e+00	
252	4.348834e-02	1.146543e+00	3.941914e-01	4.925318e+00	
253	4.362428e-02	1.097326e+00	4.236786e-01	4.926719e+00	
254	4.385009e-02	1.019879e+00	4.764542e-01	4.928885e+00	
255	4.412129e-02	9.336115e-01	5.462140e-01	4.931050e+00	
256	4.440852e-02	8.497569e-01	6.271522e-01	4.932465e+00	
257	4.483807e-02	7.374701e-01	7.591157e-01	4.931791e+00	
258	4.549161e-02	5.931432e-01	9.771537e-01	4.920731e+00	
259	4.597552e-02	5.043421e-01	1.146983e+00	4.901891e+00	
260	4.645733e-02	4.287852e-01	1.318930e+00	4.871210e+00	
261	4.681128e-02	3.804600e-01	1.445592e+00	4.839899e+00	
262	4.715270e-02	3.389097e-01	1.567199e+00	4.801893e+00	
263	4.733301e-02	3.188082e-01	1.631028e+00	4.778571e+00	
264	4.748555e-02	3.027211e-01	1.684742e+00	4.757025e+00	
265	4.763737e-02	2.875010e-01	1.737911e+00	4.733893e+00	
266	4.782093e-02	2.701001e-01	1.801753e+00	4.703645e+00	
267	4.797412e-02	2.563752e-01	1.854636e+00	4.676465e+00	
268	4.810105e-02	2.455262e-01	1.898154e+00	4.652598e+00	
269	4.822869e-02	2.350727e-01	1.941631e+00	4.627356e+00	
270	4.835945e-02	2.248185e-01	1.985859e+00	4.600197e+00	
271	4.851510e-02	2.131857e-01	2.038075e+00	4.566145e+00	
272	4.875698e-02	1.962729e-01	2.118241e+00	4.509485e+00	
273	4.897525e-02	1.821546e-01	2.189518e+00	4.454419e+00	
274	4.920086e-02	1.686169e-01	2.262082e+00	4.393545e+00	
275	4.942637e-02	1.560814e-01	2.333446e+00	4.328643e+00	
276	4.969959e-02	1.421224e-01	2.418292e+00	4.244518e+00	
277	5.002004e-02	1.273170e-01	2.515489e+00	4.138059e+00	
278	5.041913e-02	1.109941e-01	2.632951e+00	3.993396e+00	
279	5.088624e-02	9.450430e-02	2.765282e+00	3.806317e+00	
280	5.144548e-02	7.792372e-02	2.916325e+00	3.555349e+00	
281	5.208812e-02	6.240363e-02	3.079946e+00	3.228817e+00	
282	5.279528e-02	4.885283e-02	3.247856e+00	2.826363e+00	
283	5.364910e-02	3.631923e-02	3.434141e+00	2.314888e+00	
284	5.460317e-02	2.605673e-02	3.621994e+00	1.776023e+00	
285	5.522080e-02	2.103903e-02	3.732738e+00	1.469054e+00	
286	5.556013e-02	1.871198e-02	3.790129e+00	1.317815e+00	

Index   time            out1            out2            out3            
--------------------------------------------------------------------------------
287	5.575165e-02	1.751493e-02	3.821479e+00	1.238063e+00	
288	5.589850e-02	1.664935e-02	3.845018e+00	1.179630e+00	
289	5.604064e-02	1.585230e-02	3.867396e+00	1.125285e+00	
290	5.626944e-02	1.464825e-02	3.902594e+00	1.042282e+00	
291	5.655227e-02	1.328516e-02	3.944728e+00	9.470785e-01	
292	5.685696e-02	1.195813e-02	3.988460e+00	8.532542e-01	
293	5.730245e-02	1.025110e-02	4.049418e+00	7.311916e-01	
294	5.792507e-02	8.262474e-03	4.128952e+00	5.875053e-01	
295	5.885526e-02	5.977670e-03	4.236355e+00	4.213703e-01	
296	5.925844e-02	5.200453e-03	4.278895e+00	3.647962e-01	
297	5.965565e-02	4.533767e-03	4.318608e+00	3.163580e-01	
298	5.982336e-02	4.278957e-03	4.334743e+00	2.978801e-01	
299	5.998161e-02	4.051689e-03	4.349636e+00	2.814210e-01	
300	6.015331e-02	3.818738e-03	4.365435e+00	2.645745e-01	
301	6.032475e-02	3.599532e-03	4.380846e+00	2.487476e-01	
302	6.046373e-02	3.431132e-03	4.393076e+00	2.366081e-01	
303	6.060138e-02	3.272119e-03	4.404961e+00	2.251620e-01	
304	6.072647e-02	3.134034e-03	4.415569e+00	2.152370e-01	
305	6.087045e-02	2.982294e-03	4.427556e+00	2.043474e-01	
306	6.105902e-02	2.794614e-03	4.442899e+00	1.909058e-01	
307	6.125177e-02	2.614989e-03	4.458175e+00	1.780722e-01	
308	6.145568e-02	2.437533e-03	4.473898e+00	1.654272e-01	
309	6.167322e-02	2.261486e-03	4.490189e+00	1.529199e-01	
310	6.190890e-02	2.085100e-03	4.507290e+00	1.404306e-01	
311	6.219052e-02	1.892272e-03	4.527001e+00	1.268321e-01	
312	6.252900e-02	1.683940e-03	4.549688e+00	1.122149e-01	
313	6.294163e-02	1.460698e-03	4.575927e+00	9.665283e-02	
314	6.342959e-02	1.234533e-03	4.605051e+00	8.101474e-02	
315	6.400611e-02	1.011939e-03	4.636968e+00	6.577453e-02	
316	6.467023e-02	8.047465e-04	4.670634e+00	5.175153e-02	
317	6.528165e-02	6.519352e-04	4.698920e+00	4.153162e-02	
318	6.583642e-02	5.387140e-04	4.722518e+00	3.403837e-02	
319	6.654067e-02	4.227809e-04	4.749886e+00	2.644481e-02	
320	6.753532e-02	2.999232e-04	4.784102e+00	1.850115e-02	
321	6.839670e-02	2.231090e-04	4.809970e+00	1.360509e-02	
322	6.895619e-02	1.843288e-04	4.825098e+00	1.115890e-02	
323	6.941925e-02	1.574514e-04	4.836713e+00	9.474951e-03	
324	6.995015e-02	1.314514e-04	4.849094e+00	7.855985e-03	
325	7.044766e-02	1.110439e-04	4.859852e+00	6.593182e-03	
326	7.044966e-02	1.109686e-04	4.859894e+00	6.588555e-03	
327	7.044967e-02	1.101539e-04	4.859894e+00	6.588545e-03	
328	7.044967e-02	1.083919e-04	4.859894e+00	6.588526e-03	
329	7.044969e-02	1.061472e-04	4.859894e+00	6.588501e-03	
330	7.044969e-02	1.044597e-04	4.859894e+00	6.588483e-03	
331	7.044970e-02	1.030465e-04	4.859894e+00	6.588467e-03	
