          *for invcmos with delay 62000 nanosec, so cap should be 1nf
          Transient Analysis  Wed Oct 23 08:51:15  2019
--------------------------------------------------------------------------------
Index   time            a2#branch_1_0   v.x1.v1#branch  v.x2.v1#branch  
--------------------------------------------------------------------------------
0	0.000000e+00	0.000000e+00	-8.10296e-12	-1.44365e-11	
1	1.000000e-09	-2.81078e-17	-8.10285e-12	-1.44365e-11	
2	1.002200e-09	2.173939e-01	-1.15227e-01	-2.74526e-05	
3	1.006600e-09	2.162815e-01	-1.13448e-01	-7.48490e-05	
4	1.010243e-09	2.184120e-01	-1.13038e-01	-1.11758e-04	
5	1.013853e-09	2.172991e-01	-1.11472e-01	-1.50114e-04	
6	1.021072e-09	2.204125e-01	-1.10247e-01	-2.25851e-04	
7	1.029746e-09	2.209561e-01	-1.07578e-01	-3.19174e-04	
8	1.037077e-09	2.251083e-01	-1.06654e-01	-4.00503e-04	
9	1.044524e-09	2.264092e-01	-1.04663e-01	-4.87674e-04	
10	1.052725e-09	2.323633e-01	-1.04138e-01	-5.90750e-04	
11	1.060435e-09	2.354511e-01	-1.02773e-01	-6.95387e-04	
12	1.069658e-09	2.439113e-01	-1.02939e-01	-8.29368e-04	
13	1.080335e-09	2.510799e-01	-1.02271e-01	-9.94574e-04	
14	1.094923e-09	2.663147e-01	-1.03510e-01	-1.23319e-03	
15	1.114447e-09	2.843269e-01	-1.04606e-01	-1.56812e-03	
16	1.144395e-09	3.179442e-01	-1.09102e-01	-2.10007e-03	
17	1.190797e-09	3.663899e-01	-1.15973e-01	-2.93245e-03	
18	1.283601e-09	5.487499e-01	-1.31536e-01	-4.33032e-03	
19	1.367572e-09	6.869171e-01	-1.43008e-01	-5.18245e-03	
20	1.468572e-09	6.638993e-01	-1.53553e-01	-5.94693e-03	
21	1.575043e-09	7.087558e-01	-1.61684e-01	-6.60929e-03	
22	1.744449e-09	7.155756e-01	-1.69761e-01	-7.32968e-03	
23	1.995252e-09	7.377316e-01	-1.76018e-01	-7.92003e-03	
24	2.000000e-09	7.498134e-01	-1.76074e-01	-7.92665e-03	
25	2.000968e-09	6.032277e-01	-1.20805e-01	-7.90845e-03	
26	2.002904e-09	5.301496e-01	-1.20018e-01	-7.87685e-03	
27	2.006775e-09	4.946923e-01	-1.18388e-01	-7.82068e-03	
28	2.014518e-09	4.093856e-01	-1.15275e-01	-7.72364e-03	
29	2.029459e-09	3.783576e-01	-1.09456e-01	-7.56518e-03	
30	2.047840e-09	3.325140e-01	-1.02789e-01	-7.38462e-03	
31	2.079088e-09	3.288911e-01	-9.24054e-02	-7.06326e-03	
32	2.128139e-09	2.842254e-01	-7.83721e-02	-6.48629e-03	
33	2.183865e-09	2.371959e-01	-6.50659e-02	-5.82424e-03	
34	2.248107e-09	1.818877e-01	-5.26591e-02	-5.10705e-03	
35	2.326304e-09	1.364069e-01	-4.06836e-02	-4.32089e-03	
36	2.396878e-09	9.925243e-02	-3.22625e-02	-3.68610e-03	
37	2.474793e-09	7.365848e-02	-2.49854e-02	-3.03297e-03	
38	2.547274e-09	4.389135e-02	-1.96751e-02	-2.45002e-03	
39	2.554737e-09	3.366325e-02	-1.91978e-02	-2.40654e-03	
40	2.565922e-09	4.044917e-02	-1.85142e-02	-2.34368e-03	
41	2.578642e-09	2.998465e-02	-1.77577e-02	-2.27518e-03	
42	2.604081e-09	3.565078e-02	-1.63497e-02	-2.14457e-03	
43	2.635687e-09	2.374005e-02	-1.47438e-02	-1.99289e-03	
44	2.690358e-09	2.761452e-02	-1.23454e-02	-1.75395e-03	
45	2.777848e-09	1.285724e-02	-9.27836e-03	-1.42710e-03	
46	2.952828e-09	1.360492e-02	-5.25991e-03	-9.35047e-04	
47	3.302787e-09	-2.04270e-03	-1.67270e-03	-3.75480e-04	
48	3.710524e-09	4.745747e-03	-7.00511e-04	-1.15819e-04	
49	4.291175e-09	-4.33351e-03	-4.91850e-04	-4.79768e-06	
50	4.826620e-09	4.345034e-03	-4.94953e-04	1.274213e-05	
51	5.608149e-09	-4.33393e-03	-4.92033e-04	1.737270e-05	
52	6.602216e-09	4.344829e-03	-4.94930e-04	1.719331e-05	
53	8.590352e-09	-4.33400e-03	-4.91980e-04	1.743737e-05	
54	1.256662e-08	4.344672e-03	-4.94826e-04	1.720508e-05	

Index   time            a2#branch_1_0   v.x1.v1#branch  v.x2.v1#branch  
--------------------------------------------------------------------------------
55	2.051916e-08	-4.33430e-03	-4.91774e-04	1.747035e-05	
56	3.642425e-08	4.344133e-03	-4.94412e-04	1.726703e-05	
57	6.823441e-08	-4.33521e-03	-4.90941e-04	1.759044e-05	
58	1.013771e-07	4.343138e-03	-4.93272e-04	1.742260e-05	
59	1.323471e-07	-4.33599e-03	-4.89808e-04	1.773736e-05	
60	1.644910e-07	4.342490e-03	-4.92149e-04	1.756197e-05	
61	1.982938e-07	-4.33659e-03	-4.88626e-04	1.787911e-05	
62	2.343671e-07	4.341893e-03	-4.90889e-04	1.770841e-05	
63	2.733228e-07	-4.33722e-03	-4.87263e-04	1.803311e-05	
64	3.160833e-07	4.341211e-03	-4.89392e-04	1.787254e-05	
65	3.684830e-07	-4.33804e-03	-4.85506e-04	1.822022e-05	
66	4.329437e-07	4.340140e-03	-4.87212e-04	1.809667e-05	
67	5.163929e-07	-4.33947e-03	-4.82711e-04	1.834323e-05	
68	6.313939e-07	4.339621e-03	-4.83401e-04	1.824391e-05	
69	7.959933e-07	-4.33947e-03	-4.77226e-04	1.882706e-05	
70	1.001913e-06	4.339623e-03	-4.75940e-04	1.883405e-05	
71	1.094970e-06	-4.33946e-03	-4.71085e-04	1.925303e-05	
72	1.160117e-06	4.339624e-03	-4.72628e-04	1.901148e-05	
73	1.209566e-06	-4.33946e-03	-4.68664e-04	1.934468e-05	
74	1.253511e-06	4.339624e-03	-4.70644e-04	1.904939e-05	
75	1.297966e-06	-4.33946e-03	-4.66779e-04	1.934692e-05	
76	1.340330e-06	4.339624e-03	-4.68788e-04	1.901755e-05	
77	1.388744e-06	-4.33946e-03	-4.64836e-04	1.929353e-05	
78	1.465108e-06	4.339623e-03	-4.66114e-04	1.895403e-05	
79	1.575061e-06	-4.33946e-03	-4.60834e-04	1.933354e-05	
80	1.695711e-06	4.339624e-03	-4.61134e-04	1.924386e-05	
81	1.824144e-06	-4.33946e-03	-4.55402e-04	1.980184e-05	
82	2.017821e-06	4.339627e-03	-4.54002e-04	1.984873e-05	
83	2.356404e-06	-4.33946e-03	-4.43355e-04	2.048917e-05	
84	2.802847e-06	4.339641e-03	-4.35745e-04	1.992273e-05	
85	3.311181e-06	-4.33943e-03	-4.20462e-04	1.870653e-05	
86	3.836576e-06	4.339692e-03	-4.10253e-04	1.503820e-05	
87	4.626746e-06	-4.33928e-03	-3.87149e-04	6.325254e-06	
88	5.067231e-06	4.340000e-03	-3.78694e-04	9.054422e-07	
89	5.346506e-06	-4.33893e-03	-3.68552e-04	-3.88165e-06	
90	5.534626e-06	4.340330e-03	-3.66612e-04	-6.33046e-06	
91	5.689104e-06	-4.33863e-03	-3.59708e-04	-9.44317e-06	
92	5.824936e-06	4.340632e-03	-3.59131e-04	-1.11694e-05	
93	5.949007e-06	-4.33832e-03	-3.53023e-04	-1.38652e-05	
94	6.065127e-06	4.340937e-03	-3.52964e-04	-1.53035e-05	
95	6.187704e-06	-4.33800e-03	-3.46908e-04	-1.80203e-05	
96	6.299345e-06	4.341273e-03	-3.46975e-04	-1.93944e-05	
97	6.412690e-06	-4.33766e-03	-3.41167e-04	-2.19645e-05	
98	6.529169e-06	4.341624e-03	-3.41123e-04	-2.34039e-05	
99	6.660282e-06	-4.33728e-03	-3.34877e-04	-2.62561e-05	
100	6.832242e-06	4.342095e-03	-3.33442e-04	-2.85622e-05	
101	7.073626e-06	-4.33665e-03	-3.24438e-04	-3.30976e-05	
102	7.338386e-06	4.342831e-03	-3.20714e-04	-3.66036e-05	
103	7.647782e-06	-4.33588e-03	-3.10080e-04	-4.16462e-05	
104	8.185338e-06	4.343820e-03	-2.99710e-04	-4.74563e-05	
105	9.013505e-06	-4.33457e-03	-2.76513e-04	-5.31748e-05	
106	9.912070e-06	4.345025e-03	-2.57656e-04	-4.66782e-05	
107	1.061597e-05	-4.33408e-03	-2.38212e-04	-3.75388e-05	
108	1.118812e-05	4.345120e-03	-2.28211e-04	-3.16514e-05	
109	1.182250e-05	-4.33415e-03	-2.11451e-04	-2.53937e-05	
110	1.242742e-05	4.344918e-03	-2.01762e-04	-2.08909e-05	
111	1.321861e-05	-4.33459e-03	-1.83275e-04	-1.54937e-05	
112	1.421861e-05	4.344072e-03	-1.68471e-04	-1.10352e-05	

Index   time            a2#branch_1_0   v.x1.v1#branch  v.x2.v1#branch  
--------------------------------------------------------------------------------
113	1.459137e-05	-4.33517e-03	-1.59423e-04	-9.10019e-06	
114	1.483909e-05	4.343852e-03	-1.58383e-04	-8.58376e-06	
115	1.498246e-05	-4.33530e-03	-1.53216e-04	-7.68168e-06	
116	1.508967e-05	4.343769e-03	-1.54469e-04	-7.67826e-06	
117	1.518639e-05	-4.33536e-03	-1.50064e-04	-7.02216e-06	
118	1.527887e-05	4.343707e-03	-1.51570e-04	-7.01849e-06	
119	1.537640e-05	-4.33542e-03	-1.47178e-04	-6.44470e-06	
120	1.551740e-05	4.343631e-03	-1.47981e-04	-6.24688e-06	
121	1.573027e-05	-4.33553e-03	-1.41924e-04	-5.40414e-06	
122	1.599473e-05	4.343487e-03	-1.41014e-04	-4.87932e-06	
123	1.628672e-05	-4.33569e-03	-1.33969e-04	-3.94060e-06	
124	1.666319e-05	4.343294e-03	-1.31703e-04	-3.25013e-06	
125	1.707707e-05	-4.33592e-03	-1.23271e-04	-2.21782e-06	
126	1.752632e-05	4.343051e-03	-1.20407e-04	-1.57299e-06	
127	1.796667e-05	-4.33617e-03	-1.12033e-04	-7.18823e-07	
128	1.840669e-05	4.342805e-03	-1.09695e-04	-2.80046e-07	
129	1.876205e-05	-4.33639e-03	-1.02683e-04	2.834473e-07	
130	1.918287e-05	4.342591e-03	-1.00913e-04	5.660260e-07	
131	1.934200e-05	-4.33655e-03	-9.62718e-05	8.363781e-07	
132	1.946146e-05	4.342516e-03	-9.79076e-05	8.296809e-07	
133	1.957878e-05	-4.33661e-03	-9.37501e-05	1.005997e-06	
134	1.968423e-05	4.342456e-03	-9.55592e-05	1.028483e-06	
135	1.979470e-05	-4.33667e-03	-9.14979e-05	1.139033e-06	
136	1.991553e-05	4.342394e-03	-9.31712e-05	1.213579e-06	
137	2.004986e-05	-4.33673e-03	-8.88937e-05	1.284192e-06	
138	2.022797e-05	4.342313e-03	-9.00263e-05	1.419323e-06	
139	2.044135e-05	-4.33683e-03	-8.50170e-05	1.482817e-06	
140	2.061728e-05	4.342213e-03	-8.62347e-05	1.621280e-06	
141	2.076746e-05	-4.33691e-03	-8.18955e-05	1.604566e-06	
142	2.090048e-05	4.342142e-03	-8.35636e-05	1.745374e-06	
143	2.102403e-05	-4.33698e-03	-7.95074e-05	1.668742e-06	
144	2.115461e-05	4.342079e-03	-8.12277e-05	1.838251e-06	
145	2.127341e-05	-4.33704e-03	-7.72421e-05	1.710291e-06	
146	2.139439e-05	4.342020e-03	-7.90758e-05	1.908780e-06	
147	2.151931e-05	-4.33710e-03	-7.50615e-05	1.732010e-06	
148	2.166130e-05	4.341956e-03	-7.67388e-05	1.961043e-06	
149	2.185242e-05	-4.33717e-03	-7.21896e-05	1.743656e-06	
150	2.210727e-05	4.341854e-03	-7.29672e-05	1.979178e-06	
151	2.238783e-05	-4.33729e-03	-6.77644e-05	1.704773e-06	
152	2.273253e-05	4.341718e-03	-6.79476e-05	1.894357e-06	
153	2.334533e-05	-4.33749e-03	-6.03994e-05	1.449673e-06	
154	2.423898e-05	4.341426e-03	-5.70192e-05	1.354945e-06	
155	2.512767e-05	-4.33783e-03	-4.83778e-05	8.427255e-07	
156	2.580225e-05	4.341134e-03	-4.72917e-05	9.898535e-07	
157	2.637644e-05	-4.33805e-03	-4.12073e-05	6.474052e-07	
158	2.696567e-05	4.340932e-03	-4.10775e-05	8.538051e-07	
159	2.757876e-05	-4.33825e-03	-3.52164e-05	5.313886e-07	
160	2.835828e-05	4.340717e-03	-3.46800e-05	7.393073e-07	
161	2.935828e-05	-4.33851e-03	-2.77947e-05	4.029102e-07	
162	2.973029e-05	4.340534e-03	-2.93516e-05	6.482198e-07	
163	2.997775e-05	-4.33858e-03	-2.55707e-05	3.644652e-07	
164	3.012101e-05	4.340488e-03	-2.79934e-05	6.254140e-07	
165	3.022835e-05	-4.33861e-03	-2.47183e-05	3.490572e-07	
166	3.032536e-05	4.340465e-03	-2.73091e-05	6.145113e-07	
167	3.041822e-05	-4.33864e-03	-2.40898e-05	3.372831e-07	
168	3.051629e-05	4.340445e-03	-2.66853e-05	6.046574e-07	
169	3.065885e-05	-4.33866e-03	-2.33144e-05	3.231356e-07	
170	3.087482e-05	4.340406e-03	-2.55528e-05	5.855376e-07	

Index   time            a2#branch_1_0   v.x1.v1#branch  v.x2.v1#branch  
--------------------------------------------------------------------------------
171	3.114069e-05	-4.33872e-03	-2.18302e-05	2.970042e-07	
172	3.143439e-05	4.340348e-03	-2.38833e-05	5.567358e-07	
173	3.181594e-05	-4.33878e-03	-1.98953e-05	2.628783e-07	
174	3.245304e-05	4.340252e-03	-2.11286e-05	5.083796e-07	
175	3.345304e-05	-4.33893e-03	-1.58307e-05	1.905103e-07	
176	3.396719e-05	4.340129e-03	-1.76344e-05	4.457013e-07	
177	3.436412e-05	-4.33900e-03	-1.39100e-05	1.555264e-07	
178	3.452147e-05	4.340090e-03	-1.65155e-05	4.257048e-07	
179	3.463719e-05	-4.33902e-03	-1.33764e-05	1.451920e-07	
180	3.475702e-05	4.340074e-03	-1.60636e-05	4.181241e-07	
181	3.486799e-05	-4.33903e-03	-1.29396e-05	1.365177e-07	
182	3.498001e-05	4.340060e-03	-1.56481e-05	4.112115e-07	
183	3.510652e-05	-4.33905e-03	-1.25016e-05	1.278332e-07	
184	3.525650e-05	4.340043e-03	-1.51491e-05	4.026009e-07	
185	3.544662e-05	-4.33907e-03	-1.18998e-05	1.163066e-07	
186	3.567776e-05	4.340018e-03	-1.44218e-05	3.895514e-07	
187	3.596344e-05	-4.33910e-03	-1.10341e-05	1.000113e-07	
188	3.632591e-05	4.339981e-03	-1.33766e-05	3.704092e-07	
189	3.679956e-05	-4.33915e-03	-9.74948e-06	7.592990e-08	
190	3.744891e-05	4.339923e-03	-1.17590e-05	3.403168e-07	
191	3.838722e-05	-4.33922e-03	-7.65852e-06	3.654608e-08	
192	3.923172e-05	4.339847e-03	-9.62553e-06	3.000626e-07	
193	4.010963e-05	-4.33929e-03	-5.82614e-06	1.597434e-09	
194	4.071189e-05	4.339795e-03	-8.19276e-06	2.727586e-07	
195	4.133833e-05	-4.33933e-03	-4.74818e-06	-1.92291e-08	
196	4.195040e-05	4.339759e-03	-7.18860e-06	2.535307e-07	
197	4.269756e-05	-4.33936e-03	-3.73987e-06	-3.88276e-08	
198	4.369756e-05	4.339717e-03	-6.02008e-06	2.309630e-07	
199	4.469756e-05	-4.33941e-03	-2.54498e-06	-6.21462e-08	
200	4.569756e-05	4.339679e-03	-4.97126e-06	2.105695e-07	
201	4.569956e-05	-4.33943e-03	-2.05424e-06	-8.62030e-08	
202	4.569956e-05	-2.17506e-01	9.433115e-02	5.149438e-05	
203	4.569957e-05	-2.15112e-01	9.138763e-02	1.409411e-04	
204	4.569959e-05	-2.20615e-01	9.207135e-02	3.148490e-04	
205	4.569960e-05	-2.22620e-01	9.051743e-02	4.834019e-04	
206	4.569962e-05	-2.31455e-01	9.279486e-02	6.314519e-04	
207	4.569963e-05	-2.36665e-01	9.204295e-02	8.001568e-04	
208	4.569964e-05	-2.50781e-01	9.519650e-02	1.009397e-03	
209	4.569966e-05	-2.62077e-01	9.547977e-02	1.252278e-03	
210	4.569967e-05	-2.80989e-01	9.957550e-02	1.511676e-03	
211	4.569969e-05	-3.01393e-01	1.015373e-01	1.871086e-03	
212	4.569973e-05	-3.51763e-01	1.114295e-01	2.564218e-03	
213	4.569982e-05	-4.83427e-01	1.777143e-01	3.687681e-03	
214	4.569991e-05	-7.31763e-01	3.861835e-01	4.244008e-03	
215	4.570000e-05	-6.55096e-01	2.907297e-01	4.485113e-03	
216	4.570010e-05	-7.30335e-01	3.479006e-01	4.709583e-03	
217	4.570024e-05	-7.10696e-01	3.190599e-01	4.844523e-03	
218	4.570044e-05	-7.46027e-01	3.463930e-01	4.954698e-03	
219	4.570056e-05	-7.34769e-01	3.369578e-01	4.966780e-03	
220	4.570056e-05	-5.61938e-01	2.205233e-01	4.905161e-03	
221	4.570057e-05	-4.69725e-01	1.353930e-01	4.795335e-03	
222	4.570058e-05	-4.12882e-01	9.156692e-02	4.603554e-03	
223	4.570060e-05	-3.44339e-01	4.273992e-02	4.325397e-03	
224	4.570061e-05	-3.32722e-01	4.992778e-02	4.066480e-03	
225	4.570065e-05	-2.87698e-01	3.703710e-02	3.615407e-03	
226	4.570070e-05	-2.67435e-01	6.080486e-02	2.967725e-03	
227	4.570077e-05	-1.89151e-01	3.152821e-02	2.227733e-03	
228	4.570085e-05	-1.60617e-01	4.493326e-02	1.591682e-03	

Index   time            a2#branch_1_0   v.x1.v1#branch  v.x2.v1#branch  
--------------------------------------------------------------------------------
229	4.570094e-05	-9.21717e-02	1.247356e-02	1.045984e-03	
230	4.570104e-05	-8.05209e-02	2.849566e-02	6.172622e-04	
231	4.570110e-05	-4.04235e-02	6.787331e-03	2.845823e-04	
232	4.570116e-05	-2.57168e-02	5.455743e-03	6.395939e-05	
233	4.570117e-05	1.183522e-02	-3.38976e-02	1.207183e-04	
234	4.570117e-05	-5.69204e-02	3.553676e-02	1.131137e-04	
235	4.570118e-05	1.356712e-02	-3.48174e-02	1.122059e-04	
236	4.570118e-05	-5.59489e-02	3.522473e-02	1.068172e-04	
237	4.570119e-05	1.490692e-02	-3.51045e-02	1.026881e-04	
238	4.570121e-05	-5.38124e-02	3.507007e-02	8.964059e-05	
239	4.570123e-05	1.772187e-02	-3.51255e-02	7.906300e-05	
240	4.570127e-05	-4.96667e-02	3.508450e-02	5.531601e-05	
241	4.570135e-05	2.454972e-02	-3.51099e-02	2.482478e-05	
242	4.570152e-05	-4.02680e-02	3.510585e-02	-1.34695e-05	
243	4.570185e-05	3.396644e-02	-3.50925e-02	-3.25362e-05	
244	4.570226e-05	-3.51245e-02	3.511194e-02	-3.30233e-05	
245	4.570294e-05	3.502673e-02	-3.50940e-02	-2.77820e-05	
246	4.570377e-05	-3.50336e-02	3.511086e-02	-2.95052e-05	
247	4.570539e-05	3.501335e-02	-3.50942e-02	-2.75348e-05	
248	4.570863e-05	-3.50310e-02	3.511063e-02	-2.94258e-05	
249	4.571512e-05	3.501333e-02	-3.50947e-02	-2.73149e-05	
250	4.572808e-05	-3.50295e-02	3.510971e-02	-2.90109e-05	
251	4.574659e-05	3.501495e-02	-3.50961e-02	-2.66473e-05	
252	4.576846e-05	-3.50273e-02	3.510790e-02	-2.81810e-05	
253	4.579628e-05	3.501728e-02	-3.50984e-02	-2.56607e-05	
254	4.583535e-05	-3.50239e-02	3.510456e-02	-2.69186e-05	
255	4.589716e-05	3.502225e-02	-3.51034e-02	-2.38842e-05	
256	4.595559e-05	-3.50227e-02	3.510343e-02	-2.49743e-05	
257	4.599502e-05	3.502220e-02	-3.51034e-02	-2.24345e-05	
258	4.602773e-05	-3.50227e-02	3.510343e-02	-2.40009e-05	
259	4.605567e-05	3.502215e-02	-3.51034e-02	-2.17037e-05	
260	4.608077e-05	-3.50226e-02	3.510343e-02	-2.34833e-05	
261	4.610401e-05	3.502208e-02	-3.51034e-02	-2.14080e-05	
262	4.612622e-05	-3.50225e-02	3.510343e-02	-2.34879e-05	
263	4.614933e-05	3.502201e-02	-3.51034e-02	-2.18825e-05	
264	4.617125e-05	-3.50225e-02	3.510343e-02	-2.47096e-05	
265	4.619394e-05	3.502195e-02	-3.51034e-02	-2.41785e-05	
266	4.621801e-05	-3.50224e-02	3.510343e-02	-2.85147e-05	
267	4.624593e-05	3.502190e-02	-3.51034e-02	-2.97860e-05	
268	4.628444e-05	-3.50224e-02	3.510343e-02	-3.58666e-05	
269	4.633055e-05	3.502188e-02	-3.51034e-02	-3.62558e-05	
270	4.638324e-05	-3.50224e-02	3.510343e-02	-3.91919e-05	
271	4.644374e-05	3.502185e-02	-3.51034e-02	-3.76234e-05	
272	4.654186e-05	-3.50224e-02	3.510343e-02	-4.03939e-05	
273	4.672665e-05	3.502182e-02	-3.51034e-02	-4.06649e-05	
274	4.709622e-05	-3.50224e-02	3.510343e-02	-5.05018e-05	
275	4.776953e-05	3.502131e-02	-3.51034e-02	-7.10250e-05	
276	4.863448e-05	-3.50284e-02	3.510343e-02	-1.12188e-04	
277	4.963448e-05	3.500812e-02	-3.51034e-02	-1.62395e-04	
278	5.057575e-05	-3.50330e-02	3.510343e-02	-2.15730e-04	
279	5.127338e-05	3.500909e-02	-3.51034e-02	-2.50668e-04	
280	5.160556e-05	-3.50314e-02	3.510343e-02	-2.69830e-04	
281	5.179210e-05	3.500996e-02	-3.51034e-02	-2.77112e-04	
282	5.190854e-05	-3.50310e-02	3.510343e-02	-2.85023e-04	
283	5.200363e-05	3.501033e-02	-3.51034e-02	-2.87601e-04	
284	5.209349e-05	-3.50307e-02	3.510343e-02	-2.94112e-04	
285	5.218690e-05	3.501066e-02	-3.51034e-02	-2.96532e-04	
286	5.232038e-05	-3.50304e-02	3.510343e-02	-3.05019e-04	

Index   time            a2#branch_1_0   v.x1.v1#branch  v.x2.v1#branch  
--------------------------------------------------------------------------------
287	5.252652e-05	3.501126e-02	-3.51034e-02	-3.12442e-04	
288	5.277343e-05	-3.50296e-02	3.510343e-02	-3.25196e-04	
289	5.304756e-05	3.501225e-02	-3.51034e-02	-3.33587e-04	
290	5.340300e-05	-3.50285e-02	3.510343e-02	-3.46970e-04	
291	5.399921e-05	3.501395e-02	-3.51034e-02	-3.58188e-04	
292	5.481635e-05	-3.50262e-02	3.510343e-02	-3.68888e-04	
293	5.527379e-05	3.501580e-02	-3.51034e-02	-3.67651e-04	
294	5.562745e-05	-3.50252e-02	3.510343e-02	-3.68860e-04	
295	5.603668e-05	3.501664e-02	-3.51034e-02	-3.64259e-04	
296	5.614663e-05	-3.50247e-02	3.510343e-02	-3.65430e-04	
297	5.628221e-05	3.501693e-02	-3.51034e-02	-3.62076e-04	
298	5.641010e-05	-3.50244e-02	3.510343e-02	-3.62845e-04	
299	5.653903e-05	3.501722e-02	-3.51034e-02	-3.59312e-04	
300	5.668233e-05	-3.50242e-02	3.510343e-02	-3.59662e-04	
301	5.683115e-05	3.501753e-02	-3.51034e-02	-3.55641e-04	
302	5.700464e-05	-3.50239e-02	3.510343e-02	-3.55307e-04	
303	5.718214e-05	3.501787e-02	-3.51034e-02	-3.50588e-04	
304	5.733954e-05	-3.50236e-02	3.510343e-02	-3.50206e-04	
305	5.748181e-05	3.501814e-02	-3.51034e-02	-3.45806e-04	
306	5.761430e-05	-3.50234e-02	3.510343e-02	-3.45651e-04	
307	5.775326e-05	3.501838e-02	-3.51034e-02	-3.41161e-04	
308	5.788124e-05	-3.50233e-02	3.510343e-02	-3.40958e-04	
309	5.801236e-05	3.501860e-02	-3.51034e-02	-3.36493e-04	
310	5.815011e-05	-3.50231e-02	3.510343e-02	-3.36004e-04	
311	5.831195e-05	3.501883e-02	-3.51034e-02	-3.30854e-04	
312	5.855109e-05	-3.50228e-02	3.510343e-02	-3.28264e-04	
313	5.883111e-05	3.501917e-02	-3.51034e-02	-3.20582e-04	
314	5.913985e-05	-3.50225e-02	3.510343e-02	-3.16303e-04	
315	5.957840e-05	3.501957e-02	-3.51034e-02	-3.04972e-04	
316	6.032446e-05	-3.50220e-02	3.510343e-02	-2.90802e-04	
317	6.103354e-05	3.502010e-02	-3.51034e-02	-2.72806e-04	
318	6.174949e-05	-3.50216e-02	3.510343e-02	-2.58575e-04	
319	6.236919e-05	3.502040e-02	-3.51034e-02	-2.42545e-04	
320	6.291780e-05	-3.50214e-02	3.510343e-02	-2.32534e-04	
321	6.349937e-05	3.502056e-02	-3.51034e-02	-2.17962e-04	
322	6.408562e-05	-3.50213e-02	3.510343e-02	-2.07847e-04	
323	6.480931e-05	3.502068e-02	-3.51034e-02	-1.91371e-04	
324	6.580179e-05	-3.50212e-02	3.510343e-02	-1.75347e-04	
325	6.620621e-05	3.502076e-02	-3.51034e-02	-1.66450e-04	
326	6.646927e-05	-3.50211e-02	3.510343e-02	-1.64215e-04	
327	6.663911e-05	3.502080e-02	-3.51034e-02	-1.59421e-04	
328	6.676243e-05	-3.50212e-02	3.510343e-02	-1.59534e-04	
329	6.686622e-05	3.502083e-02	-3.51034e-02	-1.55839e-04	
330	6.696175e-05	-3.50212e-02	3.510343e-02	-1.56417e-04	
331	6.705593e-05	3.502087e-02	-3.51034e-02	-1.52899e-04	
