 * /home/fossee/downloads/esim-master/examples/bjt_amplifier/bjt_amplifier.cir
 AC Analysis  Wed Aug 19 15:39:21  2015
--------------------------------------------------------------------------------
Index   frequency       net-_c1-pad1_                   
--------------------------------------------------------------------------------
0	1.000000e+02	4.966526e-01,	-1.33246e-03	
1	1.023293e+02	4.966285e-01,	-1.31400e-03	
2	1.047129e+02	4.966050e-01,	-1.29537e-03	
3	1.071519e+02	4.965822e-01,	-1.27659e-03	
4	1.096478e+02	4.965601e-01,	-1.25771e-03	
5	1.122018e+02	4.965386e-01,	-1.23873e-03	
6	1.148154e+02	4.965178e-01,	-1.21968e-03	
7	1.174898e+02	4.964976e-01,	-1.20059e-03	
8	1.202264e+02	4.964781e-01,	-1.18148e-03	
9	1.230269e+02	4.964592e-01,	-1.16237e-03	
10	1.258925e+02	4.964409e-01,	-1.14328e-03	
11	1.288250e+02	4.964232e-01,	-1.12422e-03	
12	1.318257e+02	4.964061e-01,	-1.10522e-03	
13	1.348963e+02	4.963895e-01,	-1.08630e-03	
14	1.380384e+02	4.963736e-01,	-1.06746e-03	
15	1.412538e+02	4.963582e-01,	-1.04873e-03	
16	1.445440e+02	4.963433e-01,	-1.03011e-03	
17	1.479108e+02	4.963290e-01,	-1.01163e-03	
18	1.513561e+02	4.963152e-01,	-9.93284e-04	
19	1.548817e+02	4.963018e-01,	-9.75097e-04	
20	1.584893e+02	4.962890e-01,	-9.57076e-04	
21	1.621810e+02	4.962767e-01,	-9.39230e-04	
22	1.659587e+02	4.962648e-01,	-9.21567e-04	
23	1.698244e+02	4.962533e-01,	-9.04097e-04	
24	1.737801e+02	4.962423e-01,	-8.86826e-04	
25	1.778279e+02	4.962317e-01,	-8.69761e-04	
26	1.819701e+02	4.962215e-01,	-8.52909e-04	
27	1.862087e+02	4.962118e-01,	-8.36274e-04	
28	1.905461e+02	4.962024e-01,	-8.19861e-04	
29	1.949845e+02	4.961933e-01,	-8.03675e-04	
30	1.995262e+02	4.961846e-01,	-7.87718e-04	
31	2.041738e+02	4.961763e-01,	-7.71996e-04	
32	2.089296e+02	4.961683e-01,	-7.56508e-04	
33	2.137962e+02	4.961606e-01,	-7.41259e-04	
34	2.187762e+02	4.961533e-01,	-7.26250e-04	
35	2.238721e+02	4.961462e-01,	-7.11481e-04	
36	2.290868e+02	4.961394e-01,	-6.96954e-04	
37	2.344229e+02	4.961329e-01,	-6.82669e-04	
38	2.398833e+02	4.961267e-01,	-6.68627e-04	
39	2.454709e+02	4.961207e-01,	-6.54828e-04	
40	2.511886e+02	4.961150e-01,	-6.41270e-04	
41	2.570396e+02	4.961095e-01,	-6.27953e-04	
42	2.630268e+02	4.961043e-01,	-6.14877e-04	
43	2.691535e+02	4.960992e-01,	-6.02040e-04	
44	2.754229e+02	4.960944e-01,	-5.89440e-04	
45	2.818383e+02	4.960898e-01,	-5.77077e-04	
46	2.884032e+02	4.960854e-01,	-5.64948e-04	
47	2.951209e+02	4.960811e-01,	-5.53052e-04	
48	3.019952e+02	4.960771e-01,	-5.41386e-04	
49	3.090295e+02	4.960732e-01,	-5.29948e-04	
50	3.162278e+02	4.960695e-01,	-5.18736e-04	
51	3.235937e+02	4.960659e-01,	-5.07747e-04	
52	3.311311e+02	4.960625e-01,	-4.96980e-04	
53	3.388442e+02	4.960592e-01,	-4.86430e-04	
54	3.467369e+02	4.960561e-01,	-4.76096e-04	

Index   frequency       net-_c1-pad1_                   
--------------------------------------------------------------------------------
55	3.548134e+02	4.960531e-01,	-4.65975e-04	
56	3.630781e+02	4.960503e-01,	-4.56064e-04	
57	3.715352e+02	4.960476e-01,	-4.46359e-04	
58	3.801894e+02	4.960449e-01,	-4.36859e-04	
59	3.890451e+02	4.960424e-01,	-4.27561e-04	
60	3.981072e+02	4.960400e-01,	-4.18460e-04	
61	4.073803e+02	4.960378e-01,	-4.09555e-04	
62	4.168694e+02	4.960356e-01,	-4.00842e-04	
63	4.265795e+02	4.960335e-01,	-3.92318e-04	
64	4.365158e+02	4.960315e-01,	-3.83981e-04	
65	4.466836e+02	4.960296e-01,	-3.75827e-04	
66	4.570882e+02	4.960278e-01,	-3.67853e-04	
67	4.677351e+02	4.960260e-01,	-3.60056e-04	
68	4.786301e+02	4.960243e-01,	-3.52434e-04	
69	4.897788e+02	4.960227e-01,	-3.44983e-04	
70	5.011872e+02	4.960212e-01,	-3.37700e-04	
71	5.128614e+02	4.960198e-01,	-3.30583e-04	
72	5.248075e+02	4.960184e-01,	-3.23629e-04	
73	5.370318e+02	4.960170e-01,	-3.16834e-04	
74	5.495409e+02	4.960158e-01,	-3.10196e-04	
75	5.623413e+02	4.960145e-01,	-3.03713e-04	
76	5.754399e+02	4.960134e-01,	-2.97380e-04	
77	5.888437e+02	4.960123e-01,	-2.91197e-04	
78	6.025596e+02	4.960112e-01,	-2.85159e-04	
79	6.165950e+02	4.960102e-01,	-2.79265e-04	
80	6.309573e+02	4.960092e-01,	-2.73511e-04	
81	6.456542e+02	4.960083e-01,	-2.67896e-04	
82	6.606934e+02	4.960074e-01,	-2.62416e-04	
83	6.760830e+02	4.960066e-01,	-2.57069e-04	
84	6.918310e+02	4.960058e-01,	-2.51853e-04	
85	7.079458e+02	4.960050e-01,	-2.46766e-04	
86	7.244360e+02	4.960042e-01,	-2.41804e-04	
87	7.413102e+02	4.960035e-01,	-2.36966e-04	
88	7.585776e+02	4.960029e-01,	-2.32249e-04	
89	7.762471e+02	4.960022e-01,	-2.27651e-04	
90	7.943282e+02	4.960016e-01,	-2.23171e-04	
91	8.128305e+02	4.960010e-01,	-2.18805e-04	
92	8.317638e+02	4.960005e-01,	-2.14552e-04	
93	8.511380e+02	4.959999e-01,	-2.10410e-04	
94	8.709636e+02	4.959994e-01,	-2.06377e-04	
95	8.912509e+02	4.959989e-01,	-2.02450e-04	
96	9.120108e+02	4.959985e-01,	-1.98628e-04	
97	9.332543e+02	4.959980e-01,	-1.94909e-04	
98	9.549926e+02	4.959976e-01,	-1.91292e-04	
99	9.772372e+02	4.959972e-01,	-1.87774e-04	
100	1.000000e+03	4.959968e-01,	-1.84353e-04	
101	1.023293e+03	4.959964e-01,	-1.81029e-04	
102	1.047129e+03	4.959961e-01,	-1.77799e-04	
103	1.071519e+03	4.959957e-01,	-1.74661e-04	
104	1.096478e+03	4.959954e-01,	-1.71615e-04	
105	1.122018e+03	4.959951e-01,	-1.68659e-04	
106	1.148154e+03	4.959948e-01,	-1.65791e-04	
107	1.174898e+03	4.959945e-01,	-1.63009e-04	
108	1.202264e+03	4.959942e-01,	-1.60313e-04	
109	1.230269e+03	4.959940e-01,	-1.57701e-04	
110	1.258925e+03	4.959937e-01,	-1.55171e-04	
111	1.288250e+03	4.959935e-01,	-1.52723e-04	
112	1.318257e+03	4.959933e-01,	-1.50355e-04	

Index   frequency       net-_c1-pad1_                   
--------------------------------------------------------------------------------
113	1.348963e+03	4.959931e-01,	-1.48066e-04	
114	1.380384e+03	4.959929e-01,	-1.45855e-04	
115	1.412538e+03	4.959927e-01,	-1.43720e-04	
116	1.445440e+03	4.959925e-01,	-1.41661e-04	
117	1.479108e+03	4.959923e-01,	-1.39677e-04	
118	1.513561e+03	4.959921e-01,	-1.37766e-04	
119	1.548817e+03	4.959920e-01,	-1.35928e-04	
120	1.584893e+03	4.959918e-01,	-1.34161e-04	
121	1.621810e+03	4.959917e-01,	-1.32465e-04	
122	1.659587e+03	4.959915e-01,	-1.30838e-04	
123	1.698244e+03	4.959914e-01,	-1.29281e-04	
124	1.737801e+03	4.959912e-01,	-1.27792e-04	
125	1.778279e+03	4.959911e-01,	-1.26370e-04	
126	1.819701e+03	4.959910e-01,	-1.25015e-04	
127	1.862087e+03	4.959909e-01,	-1.23726e-04	
128	1.905461e+03	4.959908e-01,	-1.22503e-04	
129	1.949845e+03	4.959907e-01,	-1.21344e-04	
130	1.995262e+03	4.959906e-01,	-1.20249e-04	
131	2.041738e+03	4.959905e-01,	-1.19218e-04	
132	2.089296e+03	4.959904e-01,	-1.18249e-04	
133	2.137962e+03	4.959903e-01,	-1.17343e-04	
134	2.187762e+03	4.959902e-01,	-1.16500e-04	
135	2.238721e+03	4.959902e-01,	-1.15718e-04	
136	2.290868e+03	4.959901e-01,	-1.14997e-04	
137	2.344229e+03	4.959900e-01,	-1.14336e-04	
138	2.398833e+03	4.959899e-01,	-1.13737e-04	
139	2.454709e+03	4.959899e-01,	-1.13197e-04	
140	2.511886e+03	4.959898e-01,	-1.12718e-04	
141	2.570396e+03	4.959898e-01,	-1.12298e-04	
142	2.630268e+03	4.959897e-01,	-1.11937e-04	
143	2.691535e+03	4.959896e-01,	-1.11636e-04	
144	2.754229e+03	4.959896e-01,	-1.11394e-04	
145	2.818383e+03	4.959895e-01,	-1.11211e-04	
146	2.884032e+03	4.959895e-01,	-1.11086e-04	
147	2.951209e+03	4.959894e-01,	-1.11021e-04	
148	3.019952e+03	4.959894e-01,	-1.11014e-04	
149	3.090295e+03	4.959894e-01,	-1.11067e-04	
150	3.162278e+03	4.959893e-01,	-1.11178e-04	
151	3.235937e+03	4.959893e-01,	-1.11347e-04	
152	3.311311e+03	4.959893e-01,	-1.11576e-04	
153	3.388442e+03	4.959892e-01,	-1.11864e-04	
154	3.467369e+03	4.959892e-01,	-1.12211e-04	
155	3.548134e+03	4.959892e-01,	-1.12618e-04	
156	3.630781e+03	4.959891e-01,	-1.13085e-04	
157	3.715352e+03	4.959891e-01,	-1.13611e-04	
158	3.801894e+03	4.959891e-01,	-1.14197e-04	
159	3.890451e+03	4.959890e-01,	-1.14844e-04	
160	3.981072e+03	4.959890e-01,	-1.15552e-04	
161	4.073803e+03	4.959890e-01,	-1.16321e-04	
162	4.168694e+03	4.959890e-01,	-1.17152e-04	
163	4.265795e+03	4.959889e-01,	-1.18045e-04	
164	4.365158e+03	4.959889e-01,	-1.19000e-04	
165	4.466836e+03	4.959889e-01,	-1.20019e-04	
166	4.570882e+03	4.959889e-01,	-1.21101e-04	
167	4.677351e+03	4.959889e-01,	-1.22247e-04	
168	4.786301e+03	4.959888e-01,	-1.23458e-04	
169	4.897788e+03	4.959888e-01,	-1.24735e-04	
170	5.011872e+03	4.959888e-01,	-1.26077e-04	

Index   frequency       net-_c1-pad1_                   
--------------------------------------------------------------------------------
171	5.128614e+03	4.959888e-01,	-1.27487e-04	
172	5.248075e+03	4.959888e-01,	-1.28964e-04	
173	5.370318e+03	4.959888e-01,	-1.30510e-04	
174	5.495409e+03	4.959888e-01,	-1.32124e-04	
175	5.623413e+03	4.959887e-01,	-1.33809e-04	
176	5.754399e+03	4.959887e-01,	-1.35564e-04	
177	5.888437e+03	4.959887e-01,	-1.37392e-04	
178	6.025596e+03	4.959887e-01,	-1.39292e-04	
179	6.165950e+03	4.959887e-01,	-1.41266e-04	
180	6.309573e+03	4.959887e-01,	-1.43315e-04	
181	6.456542e+03	4.959887e-01,	-1.45440e-04	
182	6.606934e+03	4.959887e-01,	-1.47643e-04	
183	6.760830e+03	4.959886e-01,	-1.49923e-04	
184	6.918310e+03	4.959886e-01,	-1.52283e-04	
185	7.079458e+03	4.959886e-01,	-1.54724e-04	
186	7.244360e+03	4.959886e-01,	-1.57246e-04	
187	7.413102e+03	4.959886e-01,	-1.59852e-04	
188	7.585776e+03	4.959886e-01,	-1.62543e-04	
189	7.762471e+03	4.959886e-01,	-1.65320e-04	
190	7.943282e+03	4.959886e-01,	-1.68185e-04	
191	8.128305e+03	4.959886e-01,	-1.71138e-04	
192	8.317638e+03	4.959886e-01,	-1.74183e-04	
193	8.511380e+03	4.959885e-01,	-1.77320e-04	
194	8.709636e+03	4.959885e-01,	-1.80551e-04	
195	8.912509e+03	4.959885e-01,	-1.83877e-04	
196	9.120108e+03	4.959885e-01,	-1.87302e-04	
197	9.332543e+03	4.959885e-01,	-1.90825e-04	
198	9.549926e+03	4.959885e-01,	-1.94450e-04	
199	9.772372e+03	4.959885e-01,	-1.98177e-04	
200	1.000000e+04	4.959885e-01,	-2.02010e-04	

 * /home/fossee/downloads/esim-master/examples/bjt_amplifier/bjt_amplifier.cir
 AC Analysis  Wed Aug 19 15:39:21  2015
--------------------------------------------------------------------------------
Index   frequency       net-_c1-pad2_                   
--------------------------------------------------------------------------------
0	1.000000e+02	4.955923e-01,	1.331284e-03	
1	1.023293e+02	4.956067e-01,	1.307887e-03	
2	1.047129e+02	4.956206e-01,	1.284670e-03	
3	1.071519e+02	4.956342e-01,	1.261643e-03	
4	1.096478e+02	4.956473e-01,	1.238815e-03	
5	1.122018e+02	4.956601e-01,	1.216194e-03	
6	1.148154e+02	4.956725e-01,	1.193789e-03	
7	1.174898e+02	4.956845e-01,	1.171606e-03	
8	1.202264e+02	4.956961e-01,	1.149654e-03	
9	1.230269e+02	4.957073e-01,	1.127940e-03	
10	1.258925e+02	4.957182e-01,	1.106469e-03	
11	1.288250e+02	4.957287e-01,	1.085247e-03	
12	1.318257e+02	4.957389e-01,	1.064280e-03	
13	1.348963e+02	4.957487e-01,	1.043572e-03	
14	1.380384e+02	4.957582e-01,	1.023129e-03	
15	1.412538e+02	4.957674e-01,	1.002954e-03	
16	1.445440e+02	4.957762e-01,	9.830513e-04	
17	1.479108e+02	4.957847e-01,	9.634231e-04	
18	1.513561e+02	4.957929e-01,	9.440725e-04	
19	1.548817e+02	4.958008e-01,	9.250018e-04	
20	1.584893e+02	4.958085e-01,	9.062128e-04	
21	1.621810e+02	4.958158e-01,	8.877070e-04	
22	1.659587e+02	4.958229e-01,	8.694856e-04	
23	1.698244e+02	4.958297e-01,	8.515491e-04	
24	1.737801e+02	4.958362e-01,	8.338980e-04	
25	1.778279e+02	4.958425e-01,	8.165324e-04	
26	1.819701e+02	4.958486e-01,	7.994520e-04	
27	1.862087e+02	4.958544e-01,	7.826562e-04	
28	1.905461e+02	4.958600e-01,	7.661441e-04	
29	1.949845e+02	4.958653e-01,	7.499147e-04	
30	1.995262e+02	4.958705e-01,	7.339666e-04	
31	2.041738e+02	4.958754e-01,	7.182982e-04	
32	2.089296e+02	4.958802e-01,	7.029077e-04	
33	2.137962e+02	4.958847e-01,	6.877930e-04	
34	2.187762e+02	4.958891e-01,	6.729520e-04	
35	2.238721e+02	4.958933e-01,	6.583822e-04	
36	2.290868e+02	4.958973e-01,	6.440810e-04	
37	2.344229e+02	4.959012e-01,	6.300459e-04	
38	2.398833e+02	4.959049e-01,	6.162740e-04	
39	2.454709e+02	4.959085e-01,	6.027622e-04	
40	2.511886e+02	4.959119e-01,	5.895076e-04	
41	2.570396e+02	4.959151e-01,	5.765069e-04	
42	2.630268e+02	4.959182e-01,	5.637569e-04	
43	2.691535e+02	4.959212e-01,	5.512543e-04	
44	2.754229e+02	4.959241e-01,	5.389956e-04	
45	2.818383e+02	4.959268e-01,	5.269774e-04	
46	2.884032e+02	4.959295e-01,	5.151961e-04	
47	2.951209e+02	4.959320e-01,	5.036481e-04	
48	3.019952e+02	4.959344e-01,	4.923299e-04	
49	3.090295e+02	4.959367e-01,	4.812378e-04	
50	3.162278e+02	4.959389e-01,	4.703681e-04	
51	3.235937e+02	4.959410e-01,	4.597172e-04	
52	3.311311e+02	4.959431e-01,	4.492813e-04	
53	3.388442e+02	4.959450e-01,	4.390568e-04	
54	3.467369e+02	4.959469e-01,	4.290399e-04	

Index   frequency       net-_c1-pad2_                   
--------------------------------------------------------------------------------
55	3.548134e+02	4.959486e-01,	4.192270e-04	
56	3.630781e+02	4.959503e-01,	4.096143e-04	
57	3.715352e+02	4.959519e-01,	4.001982e-04	
58	3.801894e+02	4.959535e-01,	3.909750e-04	
59	3.890451e+02	4.959550e-01,	3.819410e-04	
60	3.981072e+02	4.959564e-01,	3.730927e-04	
61	4.073803e+02	4.959578e-01,	3.644265e-04	
62	4.168694e+02	4.959591e-01,	3.559387e-04	
63	4.265795e+02	4.959603e-01,	3.476258e-04	
64	4.365158e+02	4.959615e-01,	3.394843e-04	
65	4.466836e+02	4.959626e-01,	3.315108e-04	
66	4.570882e+02	4.959637e-01,	3.237017e-04	
67	4.677351e+02	4.959647e-01,	3.160538e-04	
68	4.786301e+02	4.959657e-01,	3.085635e-04	
69	4.897788e+02	4.959667e-01,	3.012277e-04	
70	5.011872e+02	4.959676e-01,	2.940430e-04	
71	5.128614e+02	4.959685e-01,	2.870061e-04	
72	5.248075e+02	4.959693e-01,	2.801138e-04	
73	5.370318e+02	4.959701e-01,	2.733631e-04	
74	5.495409e+02	4.959708e-01,	2.667507e-04	
75	5.623413e+02	4.959716e-01,	2.602737e-04	
76	5.754399e+02	4.959723e-01,	2.539289e-04	
77	5.888437e+02	4.959729e-01,	2.477134e-04	
78	6.025596e+02	4.959735e-01,	2.416242e-04	
79	6.165950e+02	4.959741e-01,	2.356585e-04	
80	6.309573e+02	4.959747e-01,	2.298133e-04	
81	6.456542e+02	4.959753e-01,	2.240860e-04	
82	6.606934e+02	4.959758e-01,	2.184736e-04	
83	6.760830e+02	4.959763e-01,	2.129735e-04	
84	6.918310e+02	4.959768e-01,	2.075830e-04	
85	7.079458e+02	4.959772e-01,	2.022995e-04	
86	7.244360e+02	4.959777e-01,	1.971203e-04	
87	7.413102e+02	4.959781e-01,	1.920430e-04	
88	7.585776e+02	4.959785e-01,	1.870649e-04	
89	7.762471e+02	4.959789e-01,	1.821837e-04	
90	7.943282e+02	4.959792e-01,	1.773969e-04	
91	8.128305e+02	4.959796e-01,	1.727020e-04	
92	8.317638e+02	4.959799e-01,	1.680968e-04	
93	8.511380e+02	4.959802e-01,	1.635790e-04	
94	8.709636e+02	4.959806e-01,	1.591462e-04	
95	8.912509e+02	4.959808e-01,	1.547962e-04	
96	9.120108e+02	4.959811e-01,	1.505268e-04	
97	9.332543e+02	4.959814e-01,	1.463359e-04	
98	9.549926e+02	4.959816e-01,	1.422213e-04	
99	9.772372e+02	4.959819e-01,	1.381809e-04	
100	1.000000e+03	4.959821e-01,	1.342127e-04	
101	1.023293e+03	4.959823e-01,	1.303146e-04	
102	1.047129e+03	4.959825e-01,	1.264846e-04	
103	1.071519e+03	4.959827e-01,	1.227208e-04	
104	1.096478e+03	4.959829e-01,	1.190212e-04	
105	1.122018e+03	4.959831e-01,	1.153839e-04	
106	1.148154e+03	4.959833e-01,	1.118071e-04	
107	1.174898e+03	4.959835e-01,	1.082889e-04	
108	1.202264e+03	4.959836e-01,	1.048274e-04	
109	1.230269e+03	4.959838e-01,	1.014209e-04	
110	1.258925e+03	4.959839e-01,	9.806769e-05	
111	1.288250e+03	4.959841e-01,	9.476592e-05	
112	1.318257e+03	4.959842e-01,	9.151390e-05	

Index   frequency       net-_c1-pad2_                   
--------------------------------------------------------------------------------
113	1.348963e+03	4.959843e-01,	8.830995e-05	
114	1.380384e+03	4.959844e-01,	8.515240e-05	
115	1.412538e+03	4.959846e-01,	8.203961e-05	
116	1.445440e+03	4.959847e-01,	7.896994e-05	
117	1.479108e+03	4.959848e-01,	7.594180e-05	
118	1.513561e+03	4.959849e-01,	7.295361e-05	
119	1.548817e+03	4.959850e-01,	7.000380e-05	
120	1.584893e+03	4.959851e-01,	6.709082e-05	
121	1.621810e+03	4.959852e-01,	6.421315e-05	
122	1.659587e+03	4.959852e-01,	6.136929e-05	
123	1.698244e+03	4.959853e-01,	5.855774e-05	
124	1.737801e+03	4.959854e-01,	5.577702e-05	
125	1.778279e+03	4.959855e-01,	5.302568e-05	
126	1.819701e+03	4.959855e-01,	5.030227e-05	
127	1.862087e+03	4.959856e-01,	4.760536e-05	
128	1.905461e+03	4.959857e-01,	4.493353e-05	
129	1.949845e+03	4.959857e-01,	4.228537e-05	
130	1.995262e+03	4.959858e-01,	3.965949e-05	
131	2.041738e+03	4.959858e-01,	3.705450e-05	
132	2.089296e+03	4.959859e-01,	3.446905e-05	
133	2.137962e+03	4.959859e-01,	3.190175e-05	
134	2.187762e+03	4.959860e-01,	2.935126e-05	
135	2.238721e+03	4.959860e-01,	2.681624e-05	
136	2.290868e+03	4.959861e-01,	2.429534e-05	
137	2.344229e+03	4.959861e-01,	2.178723e-05	
138	2.398833e+03	4.959862e-01,	1.929060e-05	
139	2.454709e+03	4.959862e-01,	1.680412e-05	
140	2.511886e+03	4.959862e-01,	1.432647e-05	
141	2.570396e+03	4.959863e-01,	1.185636e-05	
142	2.630268e+03	4.959863e-01,	9.392476e-06	
143	2.691535e+03	4.959863e-01,	6.933512e-06	
144	2.754229e+03	4.959864e-01,	4.478170e-06	
145	2.818383e+03	4.959864e-01,	2.025154e-06	
146	2.884032e+03	4.959864e-01,	-4.26836e-07	
147	2.951209e+03	4.959865e-01,	-2.87909e-06	
148	3.019952e+03	4.959865e-01,	-5.33292e-06	
149	3.090295e+03	4.959865e-01,	-7.78961e-06	
150	3.162278e+03	4.959865e-01,	-1.02505e-05	
151	3.235937e+03	4.959865e-01,	-1.27168e-05	
152	3.311311e+03	4.959866e-01,	-1.51899e-05	
153	3.388442e+03	4.959866e-01,	-1.76711e-05	
154	3.467369e+03	4.959866e-01,	-2.01617e-05	
155	3.548134e+03	4.959866e-01,	-2.26629e-05	
156	3.630781e+03	4.959866e-01,	-2.51763e-05	
157	3.715352e+03	4.959867e-01,	-2.77030e-05	
158	3.801894e+03	4.959867e-01,	-3.02444e-05	
159	3.890451e+03	4.959867e-01,	-3.28019e-05	
160	3.981072e+03	4.959867e-01,	-3.53767e-05	
161	4.073803e+03	4.959867e-01,	-3.79704e-05	
162	4.168694e+03	4.959867e-01,	-4.05842e-05	
163	4.265795e+03	4.959867e-01,	-4.32195e-05	
164	4.365158e+03	4.959868e-01,	-4.58778e-05	
165	4.466836e+03	4.959868e-01,	-4.85604e-05	
166	4.570882e+03	4.959868e-01,	-5.12687e-05	
167	4.677351e+03	4.959868e-01,	-5.40043e-05	
168	4.786301e+03	4.959868e-01,	-5.67685e-05	
169	4.897788e+03	4.959868e-01,	-5.95628e-05	
170	5.011872e+03	4.959868e-01,	-6.23887e-05	

Index   frequency       net-_c1-pad2_                   
--------------------------------------------------------------------------------
171	5.128614e+03	4.959868e-01,	-6.52476e-05	
172	5.248075e+03	4.959868e-01,	-6.81412e-05	
173	5.370318e+03	4.959868e-01,	-7.10709e-05	
174	5.495409e+03	4.959868e-01,	-7.40384e-05	
175	5.623413e+03	4.959868e-01,	-7.70450e-05	
176	5.754399e+03	4.959868e-01,	-8.00925e-05	
177	5.888437e+03	4.959869e-01,	-8.31825e-05	
178	6.025596e+03	4.959869e-01,	-8.63167e-05	
179	6.165950e+03	4.959869e-01,	-8.94965e-05	
180	6.309573e+03	4.959869e-01,	-9.27239e-05	
181	6.456542e+03	4.959869e-01,	-9.60004e-05	
182	6.606934e+03	4.959869e-01,	-9.93278e-05	
183	6.760830e+03	4.959869e-01,	-1.02708e-04	
184	6.918310e+03	4.959869e-01,	-1.06142e-04	
185	7.079458e+03	4.959869e-01,	-1.09633e-04	
186	7.244360e+03	4.959869e-01,	-1.13182e-04	
187	7.413102e+03	4.959869e-01,	-1.16791e-04	
188	7.585776e+03	4.959869e-01,	-1.20462e-04	
189	7.762471e+03	4.959869e-01,	-1.24197e-04	
190	7.943282e+03	4.959869e-01,	-1.27997e-04	
191	8.128305e+03	4.959869e-01,	-1.31866e-04	
192	8.317638e+03	4.959869e-01,	-1.35804e-04	
193	8.511380e+03	4.959869e-01,	-1.39815e-04	
194	8.709636e+03	4.959869e-01,	-1.43899e-04	
195	8.912509e+03	4.959869e-01,	-1.48060e-04	
196	9.120108e+03	4.959869e-01,	-1.52299e-04	
197	9.332543e+03	4.959869e-01,	-1.56620e-04	
198	9.549926e+03	4.959869e-01,	-1.61023e-04	
199	9.772372e+03	4.959869e-01,	-1.65511e-04	
200	1.000000e+04	4.959869e-01,	-1.70087e-04	

 * /home/fossee/downloads/esim-master/examples/bjt_amplifier/bjt_amplifier.cir
 AC Analysis  Wed Aug 19 15:39:21  2015
--------------------------------------------------------------------------------
Index   frequency       net-_c2-pad2_                   
--------------------------------------------------------------------------------
0	1.000000e+02	9.665868e-02,	-1.93017e-01	
1	1.023293e+02	9.314515e-02,	-1.90338e-01	
2	1.047129e+02	8.972977e-02,	-1.87635e-01	
3	1.071519e+02	8.641194e-02,	-1.84910e-01	
4	1.096478e+02	8.319092e-02,	-1.82168e-01	
5	1.122018e+02	8.006580e-02,	-1.79412e-01	
