    * /home/saurabh/esim-examples/decade_counter/nghdl-count/nghdl-count.cir
    Transient Analysis  Mon Dec 30 12:05:19  2019
--------------------------------------------------------------------------------
Index   time            a1#branch_1_0   a1#branch_1_1   a1#branch_1_2   
--------------------------------------------------------------------------------
0	0.000000e+00	0.000000e+00	0.000000e+00	0.000000e+00	
1	1.000000e-07	0.000000e+00	0.000000e+00	0.000000e+00	
2	2.000000e-07	0.000000e+00	0.000000e+00	0.000000e+00	
3	4.000000e-07	0.000000e+00	0.000000e+00	0.000000e+00	
4	8.000000e-07	0.000000e+00	0.000000e+00	0.000000e+00	
5	1.600000e-06	0.000000e+00	0.000000e+00	0.000000e+00	
6	3.200000e-06	0.000000e+00	0.000000e+00	0.000000e+00	
7	3.202000e-06	0.000000e+00	0.000000e+00	0.000000e+00	
8	3.202100e-06	-5.00000e-04	0.000000e+00	0.000000e+00	
9	3.202300e-06	-1.50000e-03	0.000000e+00	0.000000e+00	
10	3.202700e-06	-3.50000e-03	0.000000e+00	0.000000e+00	
11	3.203000e-06	-5.00000e-03	0.000000e+00	0.000000e+00	
12	3.203080e-06	-5.00000e-03	0.000000e+00	0.000000e+00	
13	3.203240e-06	-5.00000e-03	0.000000e+00	0.000000e+00	
14	3.203560e-06	-5.00000e-03	0.000000e+00	0.000000e+00	
15	3.204200e-06	-5.00000e-03	0.000000e+00	0.000000e+00	
16	3.205480e-06	-5.00000e-03	0.000000e+00	0.000000e+00	
17	3.208040e-06	-5.00000e-03	0.000000e+00	0.000000e+00	
18	3.213160e-06	-5.00000e-03	0.000000e+00	0.000000e+00	
19	3.223400e-06	-5.00000e-03	0.000000e+00	0.000000e+00	
20	3.243880e-06	-5.00000e-03	0.000000e+00	0.000000e+00	
21	3.284840e-06	-5.00000e-03	0.000000e+00	0.000000e+00	
22	3.366760e-06	-5.00000e-03	0.000000e+00	0.000000e+00	
23	3.530600e-06	-5.00000e-03	0.000000e+00	0.000000e+00	
24	3.858280e-06	-5.00000e-03	0.000000e+00	0.000000e+00	
25	4.513640e-06	-5.00000e-03	0.000000e+00	0.000000e+00	
26	5.824360e-06	-5.00000e-03	0.000000e+00	0.000000e+00	
27	8.445800e-06	-5.00000e-03	0.000000e+00	0.000000e+00	
28	1.000000e-05	-5.00000e-03	0.000000e+00	0.000000e+00	
29	1.052429e-05	-5.00000e-03	0.000000e+00	0.000000e+00	
30	1.157286e-05	-5.00000e-03	0.000000e+00	0.000000e+00	
31	1.367002e-05	-5.00000e-03	0.000000e+00	0.000000e+00	
32	1.786432e-05	-5.00000e-03	0.000000e+00	0.000000e+00	
33	2.625293e-05	-5.00000e-03	0.000000e+00	0.000000e+00	
34	3.625293e-05	-5.00000e-03	0.000000e+00	0.000000e+00	
35	4.625293e-05	-5.00000e-03	0.000000e+00	0.000000e+00	
36	5.625293e-05	-5.00000e-03	0.000000e+00	0.000000e+00	
37	6.625293e-05	-5.00000e-03	0.000000e+00	0.000000e+00	
38	7.625293e-05	-5.00000e-03	0.000000e+00	0.000000e+00	
39	8.625293e-05	-5.00000e-03	0.000000e+00	0.000000e+00	
40	9.625293e-05	-5.00000e-03	0.000000e+00	0.000000e+00	
41	1.062529e-04	-5.00000e-03	0.000000e+00	0.000000e+00	
42	1.162529e-04	-5.00000e-03	0.000000e+00	0.000000e+00	
43	1.262529e-04	-5.00000e-03	0.000000e+00	0.000000e+00	
44	1.362529e-04	-5.00000e-03	0.000000e+00	0.000000e+00	
45	1.462529e-04	-5.00000e-03	0.000000e+00	0.000000e+00	
46	1.562529e-04	-5.00000e-03	0.000000e+00	0.000000e+00	
47	1.662529e-04	-5.00000e-03	0.000000e+00	0.000000e+00	
48	1.762529e-04	-5.00000e-03	0.000000e+00	0.000000e+00	
49	1.862529e-04	-5.00000e-03	0.000000e+00	0.000000e+00	
50	1.962529e-04	-5.00000e-03	0.000000e+00	0.000000e+00	
51	2.062529e-04	-5.00000e-03	0.000000e+00	0.000000e+00	
52	2.162529e-04	-5.00000e-03	0.000000e+00	0.000000e+00	
53	2.262529e-04	-5.00000e-03	0.000000e+00	0.000000e+00	
54	2.362529e-04	-5.00000e-03	0.000000e+00	0.000000e+00	

Index   time            a1#branch_1_0   a1#branch_1_1   a1#branch_1_2   
--------------------------------------------------------------------------------
55	2.462529e-04	-5.00000e-03	0.000000e+00	0.000000e+00	
56	2.562529e-04	-5.00000e-03	0.000000e+00	0.000000e+00	
57	2.662529e-04	-5.00000e-03	0.000000e+00	0.000000e+00	
58	2.762529e-04	-5.00000e-03	0.000000e+00	0.000000e+00	
59	2.862529e-04	-5.00000e-03	0.000000e+00	0.000000e+00	
60	2.962529e-04	-5.00000e-03	0.000000e+00	0.000000e+00	
61	3.062529e-04	-5.00000e-03	0.000000e+00	0.000000e+00	
62	3.162529e-04	-5.00000e-03	0.000000e+00	0.000000e+00	
63	3.262529e-04	-5.00000e-03	0.000000e+00	0.000000e+00	
64	3.362529e-04	-5.00000e-03	0.000000e+00	0.000000e+00	
65	3.462529e-04	-5.00000e-03	0.000000e+00	0.000000e+00	
66	3.562529e-04	-5.00000e-03	0.000000e+00	0.000000e+00	
67	3.662529e-04	-5.00000e-03	0.000000e+00	0.000000e+00	
68	3.762529e-04	-5.00000e-03	0.000000e+00	0.000000e+00	
69	3.862529e-04	-5.00000e-03	0.000000e+00	0.000000e+00	
70	3.962529e-04	-5.00000e-03	0.000000e+00	0.000000e+00	
71	4.062529e-04	-5.00000e-03	0.000000e+00	0.000000e+00	
72	4.162529e-04	-5.00000e-03	0.000000e+00	0.000000e+00	
73	4.262529e-04	-5.00000e-03	0.000000e+00	0.000000e+00	
74	4.362529e-04	-5.00000e-03	0.000000e+00	0.000000e+00	
75	4.462529e-04	-5.00000e-03	0.000000e+00	0.000000e+00	
76	4.562529e-04	-5.00000e-03	0.000000e+00	0.000000e+00	
77	4.662529e-04	-5.00000e-03	0.000000e+00	0.000000e+00	
78	4.762529e-04	-5.00000e-03	0.000000e+00	0.000000e+00	
79	4.862529e-04	-5.00000e-03	0.000000e+00	0.000000e+00	
80	4.962529e-04	-5.00000e-03	0.000000e+00	0.000000e+00	
81	5.062529e-04	-5.00000e-03	0.000000e+00	0.000000e+00	
82	5.100000e-04	-5.00000e-03	0.000000e+00	0.000000e+00	
83	5.110000e-04	-5.00000e-03	0.000000e+00	0.000000e+00	
84	5.130000e-04	-5.00000e-03	0.000000e+00	0.000000e+00	
85	5.170000e-04	-5.00000e-03	0.000000e+00	0.000000e+00	
86	5.200000e-04	-5.00000e-03	0.000000e+00	0.000000e+00	
87	5.208000e-04	-5.00000e-03	0.000000e+00	0.000000e+00	
88	5.224000e-04	-5.00000e-03	0.000000e+00	0.000000e+00	
89	5.256000e-04	-5.00000e-03	0.000000e+00	0.000000e+00	
90	5.320000e-04	-5.00000e-03	0.000000e+00	0.000000e+00	
91	5.420000e-04	-5.00000e-03	0.000000e+00	0.000000e+00	
92	5.520000e-04	-5.00000e-03	0.000000e+00	0.000000e+00	
93	5.620000e-04	-5.00000e-03	0.000000e+00	0.000000e+00	
94	5.720000e-04	-5.00000e-03	0.000000e+00	0.000000e+00	
95	5.820000e-04	-5.00000e-03	0.000000e+00	0.000000e+00	
96	5.920000e-04	-5.00000e-03	0.000000e+00	0.000000e+00	
97	6.020000e-04	-5.00000e-03	0.000000e+00	0.000000e+00	
98	6.120000e-04	-5.00000e-03	0.000000e+00	0.000000e+00	
99	6.220000e-04	-5.00000e-03	0.000000e+00	0.000000e+00	
100	6.320000e-04	-5.00000e-03	0.000000e+00	0.000000e+00	
101	6.420000e-04	-5.00000e-03	0.000000e+00	0.000000e+00	
102	6.520000e-04	-5.00000e-03	0.000000e+00	0.000000e+00	
103	6.620000e-04	-5.00000e-03	0.000000e+00	0.000000e+00	
104	6.720000e-04	-5.00000e-03	0.000000e+00	0.000000e+00	
105	6.820000e-04	-5.00000e-03	0.000000e+00	0.000000e+00	
106	6.920000e-04	-5.00000e-03	0.000000e+00	0.000000e+00	
107	7.020000e-04	-5.00000e-03	0.000000e+00	0.000000e+00	
108	7.120000e-04	-5.00000e-03	0.000000e+00	0.000000e+00	
109	7.220000e-04	-5.00000e-03	0.000000e+00	0.000000e+00	
110	7.320000e-04	-5.00000e-03	0.000000e+00	0.000000e+00	
111	7.420000e-04	-5.00000e-03	0.000000e+00	0.000000e+00	
112	7.520000e-04	-5.00000e-03	0.000000e+00	0.000000e+00	

Index   time            a1#branch_1_0   a1#branch_1_1   a1#branch_1_2   
--------------------------------------------------------------------------------
113	7.620000e-04	-5.00000e-03	0.000000e+00	0.000000e+00	
114	7.720000e-04	-5.00000e-03	0.000000e+00	0.000000e+00	
115	7.820000e-04	-5.00000e-03	0.000000e+00	0.000000e+00	
116	7.920000e-04	-5.00000e-03	0.000000e+00	0.000000e+00	
117	8.020000e-04	-5.00000e-03	0.000000e+00	0.000000e+00	
118	8.120000e-04	-5.00000e-03	0.000000e+00	0.000000e+00	
119	8.220000e-04	-5.00000e-03	0.000000e+00	0.000000e+00	
120	8.320000e-04	-5.00000e-03	0.000000e+00	0.000000e+00	
121	8.420000e-04	-5.00000e-03	0.000000e+00	0.000000e+00	
122	8.520000e-04	-5.00000e-03	0.000000e+00	0.000000e+00	
123	8.620000e-04	-5.00000e-03	0.000000e+00	0.000000e+00	
124	8.720000e-04	-5.00000e-03	0.000000e+00	0.000000e+00	
125	8.820000e-04	-5.00000e-03	0.000000e+00	0.000000e+00	
126	8.920000e-04	-5.00000e-03	0.000000e+00	0.000000e+00	
127	9.020000e-04	-5.00000e-03	0.000000e+00	0.000000e+00	
128	9.120000e-04	-5.00000e-03	0.000000e+00	0.000000e+00	
129	9.220000e-04	-5.00000e-03	0.000000e+00	0.000000e+00	
130	9.320000e-04	-5.00000e-03	0.000000e+00	0.000000e+00	
131	9.420000e-04	-5.00000e-03	0.000000e+00	0.000000e+00	
132	9.520000e-04	-5.00000e-03	0.000000e+00	0.000000e+00	
133	9.620000e-04	-5.00000e-03	0.000000e+00	0.000000e+00	
134	9.720000e-04	-5.00000e-03	0.000000e+00	0.000000e+00	
135	9.820000e-04	-5.00000e-03	0.000000e+00	0.000000e+00	
136	9.920000e-04	-5.00000e-03	0.000000e+00	0.000000e+00	
137	1.000000e-03	-5.00000e-03	0.000000e+00	0.000000e+00	
138	1.001000e-03	-5.00000e-03	0.000000e+00	0.000000e+00	
139	1.003000e-03	-5.00000e-03	0.000000e+00	0.000000e+00	
140	1.003002e-03	-5.00000e-03	0.000000e+00	0.000000e+00	
141	1.003002e-03	-4.50000e-03	-5.00000e-04	0.000000e+00	
142	1.003002e-03	-3.50000e-03	-1.50000e-03	0.000000e+00	
143	1.003003e-03	-1.50000e-03	-3.50000e-03	0.000000e+00	
144	1.003003e-03	-4.63375e-13	-5.00000e-03	0.000000e+00	
145	1.003003e-03	0.000000e+00	-5.00000e-03	0.000000e+00	
146	1.003003e-03	0.000000e+00	-5.00000e-03	0.000000e+00	
147	1.003004e-03	0.000000e+00	-5.00000e-03	0.000000e+00	
148	1.003004e-03	0.000000e+00	-5.00000e-03	0.000000e+00	
149	1.003005e-03	0.000000e+00	-5.00000e-03	0.000000e+00	
150	1.003008e-03	0.000000e+00	-5.00000e-03	0.000000e+00	
151	1.003013e-03	0.000000e+00	-5.00000e-03	0.000000e+00	
152	1.003023e-03	0.000000e+00	-5.00000e-03	0.000000e+00	
153	1.003044e-03	0.000000e+00	-5.00000e-03	0.000000e+00	
154	1.003085e-03	0.000000e+00	-5.00000e-03	0.000000e+00	
155	1.003167e-03	0.000000e+00	-5.00000e-03	0.000000e+00	
156	1.003331e-03	0.000000e+00	-5.00000e-03	0.000000e+00	
157	1.003658e-03	0.000000e+00	-5.00000e-03	0.000000e+00	
158	1.004314e-03	0.000000e+00	-5.00000e-03	0.000000e+00	
159	1.005624e-03	0.000000e+00	-5.00000e-03	0.000000e+00	
160	1.008246e-03	0.000000e+00	-5.00000e-03	0.000000e+00	
161	1.010000e-03	0.000000e+00	-5.00000e-03	0.000000e+00	
162	1.010524e-03	0.000000e+00	-5.00000e-03	0.000000e+00	
163	1.011573e-03	0.000000e+00	-5.00000e-03	0.000000e+00	
164	1.013670e-03	0.000000e+00	-5.00000e-03	0.000000e+00	
165	1.017864e-03	0.000000e+00	-5.00000e-03	0.000000e+00	
166	1.026253e-03	0.000000e+00	-5.00000e-03	0.000000e+00	
167	1.036253e-03	0.000000e+00	-5.00000e-03	0.000000e+00	
168	1.046253e-03	0.000000e+00	-5.00000e-03	0.000000e+00	
169	1.056253e-03	0.000000e+00	-5.00000e-03	0.000000e+00	
170	1.066253e-03	0.000000e+00	-5.00000e-03	0.000000e+00	

Index   time            a1#branch_1_0   a1#branch_1_1   a1#branch_1_2   
--------------------------------------------------------------------------------
171	1.076253e-03	0.000000e+00	-5.00000e-03	0.000000e+00	
172	1.086253e-03	0.000000e+00	-5.00000e-03	0.000000e+00	
173	1.096253e-03	0.000000e+00	-5.00000e-03	0.000000e+00	
174	1.106253e-03	0.000000e+00	-5.00000e-03	0.000000e+00	
175	1.116253e-03	0.000000e+00	-5.00000e-03	0.000000e+00	
176	1.126253e-03	0.000000e+00	-5.00000e-03	0.000000e+00	
177	1.136253e-03	0.000000e+00	-5.00000e-03	0.000000e+00	
178	1.146253e-03	0.000000e+00	-5.00000e-03	0.000000e+00	
179	1.156253e-03	0.000000e+00	-5.00000e-03	0.000000e+00	
180	1.166253e-03	0.000000e+00	-5.00000e-03	0.000000e+00	
181	1.176253e-03	0.000000e+00	-5.00000e-03	0.000000e+00	
182	1.186253e-03	0.000000e+00	-5.00000e-03	0.000000e+00	
183	1.196253e-03	0.000000e+00	-5.00000e-03	0.000000e+00	
184	1.206253e-03	0.000000e+00	-5.00000e-03	0.000000e+00	
185	1.216253e-03	0.000000e+00	-5.00000e-03	0.000000e+00	
186	1.226253e-03	0.000000e+00	-5.00000e-03	0.000000e+00	
187	1.236253e-03	0.000000e+00	-5.00000e-03	0.000000e+00	
188	1.246253e-03	0.000000e+00	-5.00000e-03	0.000000e+00	
189	1.256253e-03	0.000000e+00	-5.00000e-03	0.000000e+00	
190	1.266253e-03	0.000000e+00	-5.00000e-03	0.000000e+00	
191	1.276253e-03	0.000000e+00	-5.00000e-03	0.000000e+00	
192	1.286253e-03	0.000000e+00	-5.00000e-03	0.000000e+00	
193	1.296253e-03	0.000000e+00	-5.00000e-03	0.000000e+00	
194	1.306253e-03	0.000000e+00	-5.00000e-03	0.000000e+00	
195	1.316253e-03	0.000000e+00	-5.00000e-03	0.000000e+00	
196	1.326253e-03	0.000000e+00	-5.00000e-03	0.000000e+00	
197	1.336253e-03	0.000000e+00	-5.00000e-03	0.000000e+00	
198	1.346253e-03	0.000000e+00	-5.00000e-03	0.000000e+00	
199	1.356253e-03	0.000000e+00	-5.00000e-03	0.000000e+00	
200	1.366253e-03	0.000000e+00	-5.00000e-03	0.000000e+00	
201	1.376253e-03	0.000000e+00	-5.00000e-03	0.000000e+00	
202	1.386253e-03	0.000000e+00	-5.00000e-03	0.000000e+00	
203	1.396253e-03	0.000000e+00	-5.00000e-03	0.000000e+00	
204	1.406253e-03	0.000000e+00	-5.00000e-03	0.000000e+00	
205	1.416253e-03	0.000000e+00	-5.00000e-03	0.000000e+00	
206	1.426253e-03	0.000000e+00	-5.00000e-03	0.000000e+00	
207	1.436253e-03	0.000000e+00	-5.00000e-03	0.000000e+00	
208	1.446253e-03	0.000000e+00	-5.00000e-03	0.000000e+00	
209	1.456253e-03	0.000000e+00	-5.00000e-03	0.000000e+00	
210	1.466253e-03	0.000000e+00	-5.00000e-03	0.000000e+00	
211	1.476253e-03	0.000000e+00	-5.00000e-03	0.000000e+00	
212	1.486253e-03	0.000000e+00	-5.00000e-03	0.000000e+00	
213	1.496253e-03	0.000000e+00	-5.00000e-03	0.000000e+00	
214	1.506253e-03	0.000000e+00	-5.00000e-03	0.000000e+00	
215	1.510000e-03	0.000000e+00	-5.00000e-03	0.000000e+00	
216	1.511000e-03	0.000000e+00	-5.00000e-03	0.000000e+00	
217	1.513000e-03	0.000000e+00	-5.00000e-03	0.000000e+00	
218	1.517000e-03	0.000000e+00	-5.00000e-03	0.000000e+00	
219	1.520000e-03	0.000000e+00	-5.00000e-03	0.000000e+00	
220	1.520800e-03	0.000000e+00	-5.00000e-03	0.000000e+00	
221	1.522400e-03	0.000000e+00	-5.00000e-03	0.000000e+00	
222	1.525600e-03	0.000000e+00	-5.00000e-03	0.000000e+00	
223	1.532000e-03	0.000000e+00	-5.00000e-03	0.000000e+00	
224	1.542000e-03	0.000000e+00	-5.00000e-03	0.000000e+00	
225	1.552000e-03	0.000000e+00	-5.00000e-03	0.000000e+00	
226	1.562000e-03	0.000000e+00	-5.00000e-03	0.000000e+00	
227	1.572000e-03	0.000000e+00	-5.00000e-03	0.000000e+00	
228	1.582000e-03	0.000000e+00	-5.00000e-03	0.000000e+00	

Index   time            a1#branch_1_0   a1#branch_1_1   a1#branch_1_2   
--------------------------------------------------------------------------------
229	1.592000e-03	0.000000e+00	-5.00000e-03	0.000000e+00	
230	1.602000e-03	0.000000e+00	-5.00000e-03	0.000000e+00	
231	1.612000e-03	0.000000e+00	-5.00000e-03	0.000000e+00	
232	1.622000e-03	0.000000e+00	-5.00000e-03	0.000000e+00	
233	1.632000e-03	0.000000e+00	-5.00000e-03	0.000000e+00	
234	1.642000e-03	0.000000e+00	-5.00000e-03	0.000000e+00	
235	1.652000e-03	0.000000e+00	-5.00000e-03	0.000000e+00	
236	1.662000e-03	0.000000e+00	-5.00000e-03	0.000000e+00	
237	1.672000e-03	0.000000e+00	-5.00000e-03	0.000000e+00	
238	1.682000e-03	0.000000e+00	-5.00000e-03	0.000000e+00	
239	1.692000e-03	0.000000e+00	-5.00000e-03	0.000000e+00	
240	1.702000e-03	0.000000e+00	-5.00000e-03	0.000000e+00	
241	1.712000e-03	0.000000e+00	-5.00000e-03	0.000000e+00	
242	1.722000e-03	0.000000e+00	-5.00000e-03	0.000000e+00	
243	1.732000e-03	0.000000e+00	-5.00000e-03	0.000000e+00	
244	1.742000e-03	0.000000e+00	-5.00000e-03	0.000000e+00	
245	1.752000e-03	0.000000e+00	-5.00000e-03	0.000000e+00	
246	1.762000e-03	0.000000e+00	-5.00000e-03	0.000000e+00	
247	1.772000e-03	0.000000e+00	-5.00000e-03	0.000000e+00	
248	1.782000e-03	0.000000e+00	-5.00000e-03	0.000000e+00	
249	1.792000e-03	0.000000e+00	-5.00000e-03	0.000000e+00	
250	1.802000e-03	0.000000e+00	-5.00000e-03	0.000000e+00	
251	1.812000e-03	0.000000e+00	-5.00000e-03	0.000000e+00	
252	1.822000e-03	0.000000e+00	-5.00000e-03	0.000000e+00	
253	1.832000e-03	0.000000e+00	-5.00000e-03	0.000000e+00	
254	1.842000e-03	0.000000e+00	-5.00000e-03	0.000000e+00	
255	1.852000e-03	0.000000e+00	-5.00000e-03	0.000000e+00	
256	1.862000e-03	0.000000e+00	-5.00000e-03	0.000000e+00	
257	1.872000e-03	0.000000e+00	-5.00000e-03	0.000000e+00	
258	1.882000e-03	0.000000e+00	-5.00000e-03	0.000000e+00	
259	1.892000e-03	0.000000e+00	-5.00000e-03	0.000000e+00	
260	1.902000e-03	0.000000e+00	-5.00000e-03	0.000000e+00	
261	1.912000e-03	0.000000e+00	-5.00000e-03	0.000000e+00	
262	1.922000e-03	0.000000e+00	-5.00000e-03	0.000000e+00	
263	1.932000e-03	0.000000e+00	-5.00000e-03	0.000000e+00	
264	1.942000e-03	0.000000e+00	-5.00000e-03	0.000000e+00	
265	1.952000e-03	0.000000e+00	-5.00000e-03	0.000000e+00	
266	1.962000e-03	0.000000e+00	-5.00000e-03	0.000000e+00	
267	1.972000e-03	0.000000e+00	-5.00000e-03	0.000000e+00	
268	1.982000e-03	0.000000e+00	-5.00000e-03	0.000000e+00	
269	1.992000e-03	0.000000e+00	-5.00000e-03	0.000000e+00	
270	2.000000e-03	0.000000e+00	-5.00000e-03	0.000000e+00	
271	2.001000e-03	0.000000e+00	-5.00000e-03	0.000000e+00	
272	2.003000e-03	0.000000e+00	-5.00000e-03	0.000000e+00	
273	2.003002e-03	0.000000e+00	-5.00000e-03	0.000000e+00	
274	2.003002e-03	0.000000e+00	-4.50000e-03	-5.00000e-04	
275	2.003002e-03	0.000000e+00	-3.50000e-03	-1.50000e-03	
276	2.003003e-03	0.000000e+00	-1.50000e-03	-3.50000e-03	
277	2.003003e-03	0.000000e+00	-4.63375e-13	-5.00000e-03	
278	2.003003e-03	0.000000e+00	0.000000e+00	-5.00000e-03	
279	2.003003e-03	0.000000e+00	0.000000e+00	-5.00000e-03	
280	2.003004e-03	0.000000e+00	0.000000e+00	-5.00000e-03	
281	2.003004e-03	0.000000e+00	0.000000e+00	-5.00000e-03	
282	2.003005e-03	0.000000e+00	0.000000e+00	-5.00000e-03	
283	2.003008e-03	0.000000e+00	0.000000e+00	-5.00000e-03	
284	2.003013e-03	0.000000e+00	0.000000e+00	-5.00000e-03	
285	2.003023e-03	0.000000e+00	0.000000e+00	-5.00000e-03	
286	2.003044e-03	0.000000e+00	0.000000e+00	-5.00000e-03	

Index   time            a1#branch_1_0   a1#branch_1_1   a1#branch_1_2   
--------------------------------------------------------------------------------
287	2.003085e-03	0.000000e+00	0.000000e+00	-5.00000e-03	
288	2.003167e-03	0.000000e+00	0.000000e+00	-5.00000e-03	
289	2.003331e-03	0.000000e+00	0.000000e+00	-5.00000e-03	
290	2.003658e-03	0.000000e+00	0.000000e+00	-5.00000e-03	
291	2.004314e-03	0.000000e+00	0.000000e+00	-5.00000e-03	
292	2.005624e-03	0.000000e+00	0.000000e+00	-5.00000e-03	
293	2.008246e-03	0.000000e+00	0.000000e+00	-5.00000e-03	
294	2.010000e-03	0.000000e+00	0.000000e+00	-5.00000e-03	
295	2.010524e-03	0.000000e+00	0.000000e+00	-5.00000e-03	
296	2.011573e-03	0.000000e+00	0.000000e+00	-5.00000e-03	
297	2.013670e-03	0.000000e+00	0.000000e+00	-5.00000e-03	
298	2.017864e-03	0.000000e+00	0.000000e+00	-5.00000e-03	
299	2.026253e-03	0.000000e+00	0.000000e+00	-5.00000e-03	
300	2.036253e-03	0.000000e+00	0.000000e+00	-5.00000e-03	
301	2.046253e-03	0.000000e+00	0.000000e+00	-5.00000e-03	
302	2.056253e-03	0.000000e+00	0.000000e+00	-5.00000e-03	
303	2.066253e-03	0.000000e+00	0.000000e+00	-5.00000e-03	
304	2.076253e-03	0.000000e+00	0.000000e+00	-5.00000e-03	
305	2.086253e-03	0.000000e+00	0.000000e+00	-5.00000e-03	
306	2.096253e-03	0.000000e+00	0.000000e+00	-5.00000e-03	
307	2.106253e-03	0.000000e+00	0.000000e+00	-5.00000e-03	
308	2.116253e-03	0.000000e+00	0.000000e+00	-5.00000e-03	
309	2.126253e-03	0.000000e+00	0.000000e+00	-5.00000e-03	
310	2.136253e-03	0.000000e+00	0.000000e+00	-5.00000e-03	
311	2.146253e-03	0.000000e+00	0.000000e+00	-5.00000e-03	
312	2.156253e-03	0.000000e+00	0.000000e+00	-5.00000e-03	
313	2.166253e-03	0.000000e+00	0.000000e+00	-5.00000e-03	
314	2.176253e-03	0.000000e+00	0.000000e+00	-5.00000e-03	
315	2.186253e-03	0.000000e+00	0.000000e+00	-5.00000e-03	
316	2.196253e-03	0.000000e+00	0.000000e+00	-5.00000e-03	
317	2.206253e-03	0.000000e+00	0.000000e+00	-5.00000e-03	
318	2.216253e-03	0.000000e+00	0.000000e+00	-5.00000e-03	
319	2.226253e-03	0.000000e+00	0.000000e+00	-5.00000e-03	
320	2.236253e-03	0.000000e+00	0.000000e+00	-5.00000e-03	
321	2.246253e-03	0.000000e+00	0.000000e+00	-5.00000e-03	
322	2.256253e-03	0.000000e+00	0.000000e+00	-5.00000e-03	
323	2.266253e-03	0.000000e+00	0.000000e+00	-5.00000e-03	
324	2.276253e-03	0.000000e+00	0.000000e+00	-5.00000e-03	
325	2.286253e-03	0.000000e+00	0.000000e+00	-5.00000e-03	
326	2.296253e-03	0.000000e+00	0.000000e+00	-5.00000e-03	
327	2.306253e-03	0.000000e+00	0.000000e+00	-5.00000e-03	
328	2.316253e-03	0.000000e+00	0.000000e+00	-5.00000e-03	
329	2.326253e-03	0.000000e+00	0.000000e+00	-5.00000e-03	
330	2.336253e-03	0.000000e+00	0.000000e+00	-5.00000e-03	
331	2.346253e-03	0.000000e+00	0.000000e+00	-5.00000e-03	
