Title: kicad schematic
Date: Tue Nov 18 17:52:27  2025
Plotname: Transient Analysis
Flags: real
No. Variables: 23
No. Points: 508     
Variables:
	0	time	time
	1	v(vdd)	voltage
	2	v(vee)	voltage
	3	v(bias)	voltage
	4	v(signal_input_1)	voltage
	5	v(signal_input_2)	voltage
	6	v(carrier_input_1)	voltage
	7	v(carrier_input_2)	voltage
	8	v(net-_r1-pad2_)	voltage
	9	v(net-_m3-pad3_)	voltage
	10	v(gain_adjust_2)	voltage
	11	v(net-_m1-pad3_)	voltage
	12	v(output1)	voltage
	13	v(gain_adjust_1)	voltage
	14	v(net-_m6-pad3_)	voltage
	15	v(net-_m5-pad3_)	voltage
	16	i(vcar2)	current
	17	i(vcar1)	current
	18	i(vsig2)	current
	19	i(vsig1)	current
	20	i(vbias)	current
	21	i(vee)	current
	22	i(vdd)	current
Values:
0		0.000000000000000e+00
	5.000000000000000e+00
	0.000000000000000e+00
	1.200000000000000e+00
	0.000000000000000e+00
	0.000000000000000e+00
	0.000000000000000e+00
	0.000000000000000e+00
	8.293932196612929e-01
	9.327393928471657e-21
	-3.505732551207276e-18
	4.334646672883088e-17
	-3.864619367000524e-15
	-3.512075421916725e-18
	3.041250563643801e-21
	-3.119967095453631e-15
	0.000000000000000e+00
	0.000000000000000e+00
	0.000000000000000e+00
	0.000000000000000e+00
	0.000000000000000e+00
	1.658786439322586e-06
	0.000000000000000e+00
1		1.000000000000000e-06
	5.000000000000000e+00
	0.000000000000000e+00
	1.200000000000000e+00
	6.283143965558954e-03
	6.283143965558954e-03
	6.279051952931339e-02
	6.279051952931339e-02
	8.293932196612932e-01
	3.134370348904439e-06
	4.084907490490729e-06
	4.362619219742893e-02
	6.253967398998990e-02
	4.365123932512215e-06
	3.349381853866933e-06
	4.375768911939433e-02
	-3.044997160456391e-06
	-3.044997160456391e-06
	-1.499362236925176e-07
	-1.499602701509059e-07
	-1.658157584101642e-06
	8.048048398416231e-06
	0.000000000000000e+00
2		2.000000000000001e-06
	5.000000000000000e+00
	0.000000000000000e+00
	1.200000000000000e+00
	1.256603988335261e-02
	1.256603988335261e-02
	1.253332335643043e-01
	1.253332335643043e-01
	8.293932196612932e-01
	7.102504319740887e-06
	8.179541344823442e-06
	8.746961248523039e-02
	1.249358600970191e-01
	8.428085367120685e-06
	7.349896612393461e-06
	8.760045619973343e-02
	-2.901351718597858e-06
	-2.901351718597857e-06
	-1.493036738495631e-07
	-1.493036150976763e-07
	-1.658103740599066e-06
	7.759414467459644e-06
	0.000000000000000e+00
3		4.000000000000002e-06
	5.000000000000000e+00
	0.000000000000000e+00
	1.200000000000000e+00
	2.513009544333749e-02
	2.513009544333749e-02
	2.486898871648549e-01
	2.486898871648549e-01
	8.293932196612930e-01
	1.509686799677858e-05
	1.623526185803985e-05
	1.741079872052325e-01
	2.480138203716290e-01
	1.647507974593381e-05
	1.533562516334392e-05
	1.742373719667642e-01
	-2.646733362030349e-06
	-2.646733362030347e-06
	-1.481818090118508e-07
	-1.481817592881797e-07
	-1.658109332033028e-06
	7.247939624003482e-06
	0.000000000000000e+00
4		8.000000000000003e-06
	5.000000000000000e+00
	0.000000000000000e+00
	1.200000000000000e+00
	5.024431817976958e-02
	5.024431817976958e-02
	4.817536741017154e-01
	4.817536741017154e-01
	8.293932196612933e-01
	3.092880307767246e-05
	3.219855595574015e-05
	3.385606125283403e-01
	4.802934046669929e-01
	3.242178495187223e-05
	3.115103042248815e-05
	3.386856879823084e-01
	-2.207702939809489e-06
	-2.207702939809490e-06
	-1.465052833079238e-07
	-1.465051912841059e-07
	-1.658117843724142e-06
	6.366534198421108e-06
	0.000000000000000e+00
5		1.600000000000001e-05
	5.000000000000000e+00
	0.000000000000000e+00
	1.200000000000000e+00
	1.003617148512149e-01
	1.003617148512149e-01
	8.443279255020152e-01
	8.443279255020152e-01
	8.293932196612934e-01
	6.566920306625145e-05
	6.742630746454096e-05
	5.985071180125876e-01
	8.394623247283037e-01
	6.761955672499871e-05
	6.586158633256850e-05
	5.986193388296189e-01
	-1.244707407712044e-06
	-1.244707407712045e-06
	-1.435721267970836e-07
	-1.435719886257115e-07
	-1.658001106051013e-06
	4.434560037456407e-06
	0.000000000000000e+00
6		3.200000000000001e-05
	5.000000000000000e+00
	0.000000000000000e+00
	1.200000000000000e+00
	1.997099805144071e-01
	1.997099805144071e-01
	9.048270524660192e-01
	9.048270524660192e-01
	8.293932196612938e-01
	2.937990828228678e-04
	3.017724525037274e-04
	6.269640796504620e-01
	8.876266612461614e-01
	3.019159516921685e-04
	2.939419620462330e-04
	6.270578235499326e-01
	9.160058013636797e-07
	9.160058013636797e-07
	-1.396796220902129e-07
	-1.396795672697337e-07
	-1.655201857777805e-06
	1.025494454866006e-07
	0.000000000000000e+00
7		6.400000000000002e-05
	5.000000000000000e+00
	0.000000000000000e+00
	1.200000000000000e+00
	3.913736668372026e-01
	3.913736668372026e-01
	-7.705132427757899e-01
	-7.705132427757899e-01
	8.293932196612932e-01
	1.089033866691410e-02
	1.113019118973506e-02
	2.009054613773059e-02
	-3.133609602361672e-01
	1.113032887194724e-02
	1.089047460951202e-02
	2.009091273123396e-02
	4.220457506689060e-06
	4.220457506689060e-06
	-1.905305136080964e-07
	-1.905306191116821e-07
	-1.565933890679932e-06
	-6.493919990312947e-06
	0.000000000000000e+00
8		1.280000000000000e-04
	5.000000000000000e+00
	0.000000000000000e+00
	1.200000000000000e+00
	7.203090248879072e-01
	7.203090248879072e-01
	9.822872507286883e-01
	9.822872507286883e-01
	8.293932196612932e-01
	1.930231995368380e-01
	1.971276136133547e-01
	3.153542144876557e-01
	3.200037698317841e-01
	1.971275979795643e-01
	1.930231863400527e-01
	3.153542190197068e-01
	-4.450217727058063e-06
	-4.450217727058064e-06
	-1.255599236430045e-07
	-1.255596897477071e-07
	-8.849975968880556e-07
	1.003655266487535e-05
	0.000000000000000e+00
9		2.280000000000001e-04
	5.000000000000000e+00
	0.000000000000000e+00
	1.200000000000000e+00
	9.904614256966513e-01
	9.904614256966513e-01
	9.822872507286873e-01
	9.822872507286873e-01
	8.293932196612931e-01
	2.249261116825957e-01
	2.275710528062447e-01
	2.294190143333458e-01
	2.293994357753492e-01
	2.275710484407899e-01
	2.249261067951214e-01
	2.294190126088412e-01
	7.841569906543324e-07
	7.841569906543324e-07
	-2.574535936078099e-07
	-2.574536851936518e-07
	-1.870582888276879e-06
	8.171761857092998e-07
	0.000000000000000e+00
10		3.280000000000002e-04
	5.000000000000000e+00
	0.000000000000000e+00
	1.200000000000000e+00
	8.822912264349528e-01
	8.822912264349528e-01
	9.822872507286867e-01
	9.822872507286867e-01
	8.293932196612932e-01
	1.353932020403956e-01
	1.364412267984265e-01
	1.378098712499863e-01
	1.382985698117216e-01
	1.364412258856197e-01
	1.353932011161898e-01
	1.378098712859869e-01
	-1.578144275573813e-07
	-1.578144275573813e-07
	1.301319505890944e-07
	1.301319494824647e-07
	-1.914641199885728e-06
	1.970006155010325e-06
	0.000000000000000e+00
11		4.280000000000002e-04
	5.000000000000000e+00
	0.000000000000000e+00
	1.200000000000000e+00
	4.371157666509317e-01
	4.371157666509317e-01
	9.822872507286867e-01
	9.822872507286867e-01
	8.293932196612932e-01
	2.001715019229725e-02
	1.987225672383968e-02
	2.935614661050188e-02
	2.977413427230695e-02
	1.987225678534499e-02
	2.001715025420595e-02
	2.935614661348459e-02
	-1.983117555103963e-07
	-1.983117555103963e-07
	3.996755173607306e-07
	3.996755178150508e-07
	-1.876975073537653e-06
	1.474247550490880e-06
	0.000000000000000e+00
12		5.280000000000003e-04
	5.000000000000000e+00
	0.000000000000000e+00
	1.200000000000000e+00
	-1.750230589752774e-01
	-1.750230589752774e-01
	9.822872507286855e-01
	9.822872507286855e-01
	8.293932196612932e-01
	1.026155457771092e-03
	1.108636033823952e-03
	4.118940436239700e-03
	4.066223704922286e-03
	1.108636246232296e-03
	1.026155668886047e-03
	4.118940436649538e-03
	2.719566763379957e-08
	2.719566763379957e-08
	1.147990467643588e-07
	1.147990470153010e-07
	-1.608529289664429e-06
	1.324539860459602e-06
	0.000000000000000e+00
13		6.280000000000003e-04
	5.000000000000000e+00
	0.000000000000000e+00
	1.200000000000000e+00
	-7.203090248879082e-01
	-7.203090248879082e-01
	9.822872507286855e-01
	9.822872507286855e-01
	8.293932196612932e-01
	-2.610566824862879e-04
	-2.447677303393934e-04
	-2.055753858146533e-03
	-2.067422249232329e-03
	-2.447676127190632e-04
	-2.610565653819335e-04
	-2.055753858167736e-03
	5.932444864773246e-09
	5.932444864772399e-09
	1.889470907456101e-07
	1.889470907341190e-07
	-1.646147519932320e-06
	1.256388448806527e-06
	0.000000000000000e+00
14		7.280000000000003e-04
	5.000000000000000e+00
	0.000000000000000e+00
	1.200000000000000e+00
	-9.904614256966515e-01
	-9.904614256966515e-01
	9.822872507286842e-01
	9.822872507286842e-01
	8.293932196612932e-01
	-3.404389867613003e-04
	-3.422764724480213e-04
	-4.140304458187385e-03
	-4.139910114328128e-03
	-3.422764332366157e-04
	-3.404389477239227e-04
	-4.140304458192432e-03
	-6.827486767667072e-11
	-6.827486767624761e-11
	9.969205136451517e-08
	9.969205136455739e-08
	-1.657892879109060e-06
	1.458645326748360e-06
	0.000000000000000e+00
15		8.280000000000004e-04
	5.000000000000000e+00
	0.000000000000000e+00
	1.200000000000000e+00
	-8.822912264349523e-01
	-8.822912264349523e-01
	9.822872507286829e-01
	9.822872507286829e-01
	8.293932196612932e-01
	-1.113175827304556e-04
	-1.113552557491474e-04
	-4.769759156845448e-03
	-4.770034646271118e-03
	-1.113552498096201e-04
	-1.113175768162061e-04
	-4.769759156845779e-03
	1.601631430665661e-10
	1.601631430657199e-10
	-2.288713487505509e-07
	-2.288713487505436e-07
	-1.658127084615596e-06
	2.115549456944000e-06
	0.000000000000000e+00
16		9.280000000000004e-04
	5.000000000000000e+00
	0.000000000000000e+00
	1.200000000000000e+00
	-4.371157666509302e-01
	-4.371157666509302e-01
	9.822872507286829e-01
	9.822872507286829e-01
	8.293932196612932e-01
	1.022846069062505e-04
	1.037260933681730e-04
	-4.849042226088085e-03
	-4.849692810577130e-03
	1.037260910245512e-04
	1.022846045731227e-04
	-4.849042226087542e-03
	3.318037989899525e-10
	3.318037989899525e-10
	-2.860726607635001e-07
	-2.860726607635032e-07
	-1.658436682596442e-06
	2.229918397242211e-06
	0.000000000000000e+00
17		1.028000000000000e-03
	5.000000000000000e+00
	0.000000000000000e+00
	1.200000000000000e+00
	1.750230589752790e-01
	1.750230589752790e-01
	9.822872507286831e-01
	9.822872507286831e-01
	8.293932196612932e-01
	1.755039910237745e-04
	1.770950097308648e-04
	-4.629715063035361e-03
	-4.630939499109434e-03
	1.770950074360029e-04
	1.755039887389689e-04
	-4.629715063035654e-03
	6.244374021441551e-10
	6.244374021441551e-10
	-1.514662782230248e-07
	-1.514662782230232e-07
	-1.658781727391389e-06
	1.960465410045523e-06
	0.000000000000000e+00
18		1.128000000000001e-03
	5.000000000000000e+00
	0.000000000000000e+00
	1.200000000000000e+00
	7.203090248879089e-01
	7.203090248879089e-01
	9.822872507286844e-01
	9.822872507286844e-01
	8.293932196612932e-01
	4.723294318357982e-02
	4.788416405934019e-02
	4.787817698098489e-02
	4.758466809716609e-02
	4.788416405928247e-02
	4.723294318351328e-02
	4.787817698096814e-02
	1.328774774752993e-07
	1.328774774752993e-07
	-3.546185656521512e-07
	-3.546185656521134e-07
	-1.538471308010814e-06
	1.981953484886933e-06
	0.000000000000000e+00
19		1.228000000000001e-03
	5.000000000000000e+00
	0.000000000000000e+00
	1.200000000000000e+00
	9.904614256966517e-01
	9.904614256966517e-01
	9.822872507286805e-01
	9.822872507286805e-01
	8.293932196612932e-01
	7.128734151588859e-02
	7.202143855594186e-02
	7.374492807892037e-02
	7.373402148425327e-02
	7.202143855661010e-02
	7.128734151654459e-02
	7.374492807893444e-02
	2.177150506593751e-08
	2.177150506593751e-08
	-1.663540822411994e-07
	-1.663540822417257e-07
	-1.637681179607567e-06
	1.926846335047409e-06
	0.000000000000000e+00
20		1.328000000000001e-03
	5.000000000000000e+00
	0.000000000000000e+00
	1.200000000000000e+00
	8.822912264349519e-01
	8.822912264349519e-01
	9.822872507286818e-01
	9.822872507286818e-01
	8.293932196612932e-01
	3.304118683290419e-02
	3.317177942111950e-02
	3.376811470940903e-02
	3.403026339352067e-02
	3.317177942111815e-02
	3.304118683290285e-02
	3.376811470940946e-02
	-1.233142934646174e-07
	-1.233142934646174e-07
	1.911433412723395e-07
	1.911433412729684e-07
	-1.777122331922375e-06
	1.641464237630845e-06
	0.000000000000000e+00
21		1.428000000000001e-03
	5.000000000000000e+00
	0.000000000000000e+00
	1.200000000000000e+00
	4.371157666509303e-01
	4.371157666509303e-01
	9.822872507286805e-01
	9.822872507286805e-01
	8.293932196612932e-01
	-4.374669981969800e-02
	-4.434283723962679e-02
	-4.395216797034920e-02
	-4.365635426529001e-02
	-4.434283723959817e-02
	-4.374669981966995e-02
	-4.395216797034197e-02
	-1.640616829389100e-07
	-1.640616829389100e-07
	4.365086278420273e-07
	4.365086278418552e-07
	-1.822565894108912e-06
	1.277672005043975e-06
	0.000000000000000e+00
22		1.528000000000001e-03
	5.000000000000000e+00
	0.000000000000000e+00
	1.200000000000000e+00
	-1.750230589752806e-01
	-1.750230589752806e-01
	9.822872507286819e-01
	9.822872507286819e-01
	8.293932196612932e-01
	-3.159130421407632e-02
	-3.185641255079381e-02
	-6.962227191752546e-02
	-6.959466930278776e-02
	-3.185641255101383e-02
	-3.159130421429578e-02
	-6.962227191752246e-02
	1.875078508140823e-10
	1.875078508140823e-10
	1.670137841835200e-07
	1.670137841835749e-07
	-1.560953487823230e-06
	1.226550903839653e-06
	0.000000000000000e+00
23		1.628000000000001e-03
	5.000000000000000e+00
	0.000000000000000e+00
	1.200000000000000e+00
	-7.203090248879102e-01
	-7.203090248879102e-01
	9.822872507286806e-01
	9.822872507286806e-01
	8.293932196612932e-01
	-6.068635594285479e-03
	-6.042258884178827e-03
	-7.093943579514286e-02
	-7.097925001268730e-02
	-6.042258884362679e-03
	-6.068635594468630e-03
	-7.093943579514747e-02
	1.861287365998124e-08
	1.861287365998124e-08
	1.625465454478425e-07
	1.625465454478350e-07
	-1.603838000427428e-06
	1.241519162989711e-06
	0.000000000000000e+00
24		1.728000000000001e-03
	5.000000000000000e+00
	0.000000000000000e+00
	1.200000000000000e+00
	-9.904614256966519e-01
	-9.904614256966519e-01
	9.822872507286794e-01
	9.822872507286794e-01
	8.293932196612932e-01
	1.090851045274562e-03
	1.095572761015164e-03
	-7.143420907946738e-02
	-7.143408643357833e-02
	1.095572760936642e-03
	1.090851045196472e-03
	-7.143420907947132e-02
	-5.962060372036395e-11
	-5.962060371992720e-11
	1.240396371915099e-07
	1.240396371915096e-07
	-1.662414800911689e-06
	1.414454768423177e-06
	0.000000000000000e+00
25		1.828000000000001e-03
	5.000000000000000e+00
	0.000000000000000e+00
	1.200000000000000e+00
	-8.822912264349503e-01
	-8.822912264349503e-01
	9.822872507286807e-01
	9.822872507286807e-01
	8.293932196612932e-01
	1.634303019707819e-03
	1.642428279227743e-03
	-7.152877105636229e-02
	-7.152901974411639e-02
	1.642428279207544e-03
	1.634303019687628e-03
	-7.152877105636837e-02
	1.618650619233081e-10
	1.618650619224810e-10
	-2.288506139041016e-07
	-2.288506139041010e-07
	-1.663458761820103e-06
	2.120836260379054e-06
	0.000000000000000e+00
26		1.928000000000001e-03
	5.000000000000000e+00
	0.000000000000000e+00
	1.200000000000000e+00
	-4.371157666509288e-01
	-4.371157666509288e-01
	9.822872507286794e-01
	9.822872507286794e-01
	8.293932196612932e-01
	9.448993165956527e-04
	9.501406561770465e-04
	-7.142712870332228e-02
	-7.142769914096128e-02
	9.501406561688113e-04
	9.448993165874701e-04
	-7.142712870331704e-02
	3.410663251242769e-10
	3.410663251246871e-10
	-2.838014755008994e-07
	-2.838014755009010e-07
	-1.661003738557337e-06
	2.227924557776758e-06
	0.000000000000000e+00
27		2.028000000000001e-03
	5.000000000000000e+00
	0.000000000000000e+00
	1.200000000000000e+00
	1.750230589752840e-01
	1.750230589752840e-01
	9.822872507286755e-01
	9.822872507286755e-01
	8.293932196612932e-01
	-1.762693022208596e-03
	-1.787993017219901e-03
	-6.831850134091257e-02
	-6.833170378559686e-02
	-1.787993017227375e-03
	-1.762693022216005e-03
	-6.831850134091143e-02
	7.864141181064012e-09
	7.864141181064012e-09
	-1.521068296193197e-07
	-1.521068296193187e-07
	-1.665119403800160e-06
	1.953604781363671e-06
	0.000000000000000e+00
28		2.128000000000001e-03
	5.000000000000000e+00
	0.000000000000000e+00
	1.200000000000000e+00
	7.203090248879125e-01
	7.203090248879125e-01
	9.822872507286715e-01
	9.822872507286715e-01
	8.293932196612932e-01
	2.332086511162790e-02
	2.363955260257720e-02
	2.235429446188642e-02
	2.188613013014709e-02
	2.363955260257592e-02
	2.332086511162659e-02
	2.235429446188519e-02
	2.279531315412701e-07
	2.279531315412701e-07
	-3.833936306599881e-07
	-3.833936306599867e-07
	-1.592311770397819e-06
	1.903192769184659e-06
	0.000000000000000e+00
29		2.228000000000002e-03
	5.000000000000000e+00
	0.000000000000000e+00
	1.200000000000000e+00
	9.904614256966525e-01
	9.904614256966525e-01
	9.822872507286703e-01
	9.822872507286703e-01
	8.293932196612932e-01
	5.459105746743096e-02
	5.522082410501451e-02
	5.567206923724248e-02
	5.565103666719336e-02
	5.522082410501159e-02
	5.459105746742764e-02
	5.567206923723956e-02
	8.416472997003094e-09
	8.416472997003081e-09
	-1.468506101483284e-07
	-1.468506101483270e-07
	-1.600330828965683e-06
	1.877199104328819e-06
	0.000000000000000e+00
30		2.328000000000002e-03
	5.000000000000000e+00
	0.000000000000000e+00
	1.200000000000000e+00
	8.822912264349478e-01
	8.822912264349478e-01
	9.822872507286690e-01
	9.822872507286690e-01
	8.293932196612932e-01
	2.163287360912693e-02
	2.166528064497625e-02
	2.212260523568753e-02
	2.235766078473642e-02
	2.166528064498435e-02
	2.163287360913523e-02
	2.212260523569107e-02
	-1.133842179949203e-07
	-1.133842179949207e-07
	1.953492987003077e-07
	1.953492987002953e-07
	-1.769879464860143e-06
	1.605949303853280e-06
	0.000000000000000e+00
31		2.428000000000002e-03
	5.000000000000000e+00
	0.000000000000000e+00
	1.200000000000000e+00
	4.371157666509209e-01
	4.371157666509209e-01
	9.822872507286624e-01
	9.822872507286624e-01
	8.293932196612932e-01
	-5.123347151009729e-02
	-5.188325880725243e-02
	-5.153241265873360e-02
	-5.126696876812669e-02
	-5.188325880723522e-02
	-5.123347151007882e-02
	-5.153241265872589e-02
	-1.590304675065363e-07
	-1.590304675065363e-07
	4.404494334658833e-07
	4.404494334658776e-07
	-1.816895477175059e-06
	1.254057545780933e-06
	0.000000000000000e+00
32		2.528000000000002e-03
	5.000000000000000e+00
	0.000000000000000e+00
	1.200000000000000e+00
	-1.750230589752891e-01
	-1.750230589752891e-01
	9.822872507286611e-01
	9.822872507286611e-01
	8.293932196612932e-01
	-3.573800533913052e-02
	-3.602704654371851e-02
	-7.731156134202939e-02
	-7.728352809419924e-02
	-3.602704654370508e-02
	-3.573800533911550e-02
	-7.731156134203154e-02
	-3.558584003558014e-09
	-3.558584003558430e-09
	1.743136655592777e-07
	1.743136655592978e-07
	-1.555687378298884e-06
	1.214177216392574e-06
	0.000000000000000e+00
33		2.628000000000003e-03
	5.000000000000000e+00
	0.000000000000000e+00
	1.200000000000000e+00
	-7.203090248879186e-01
	-7.203090248879186e-01
	9.822872507286597e-01
	9.822872507286597e-01
	8.293932196612932e-01
	-6.902022562030658e-03
	-6.874876834887473e-03
	-7.803415346435544e-02
	-7.807481693074457e-02
	-6.874876834881955e-03
	-6.902022562025037e-03
	-7.803415346436342e-02
	2.023230529822719e-08
	2.023230529822719e-08
	1.594264009247022e-07
	1.594264009246970e-07
	-1.598205805372296e-06
	1.238888393843525e-06
	0.000000000000000e+00
34		2.728000000000003e-03
	5.000000000000000e+00
	0.000000000000000e+00
	1.200000000000000e+00
	-9.904614256966535e-01
	-9.904614256966535e-01
	9.822872507286532e-01
	9.822872507286532e-01
	8.293932196612932e-01
	1.210916250004279e-03
	1.216181890611409e-03
	-7.833110847974670e-02
	-7.833098743415012e-02
	1.216181890612940e-03
	1.210916250005801e-03
	-7.833110847974449e-02
	-5.883008866806352e-11
	-5.883008866764662e-11
	1.237911318763293e-07
	1.237911318763280e-07
	-1.662822607264482e-06
	1.415358004098601e-06
	0.000000000000000e+00
35		2.828000000000003e-03
	5.000000000000000e+00
	0.000000000000000e+00
	1.200000000000000e+00
	-8.822912264349437e-01
	-8.822912264349437e-01
	9.822872507286519e-01
	9.822872507286519e-01
	8.293932196612932e-01
	1.832762402606815e-03
	1.841829252459277e-03
	-7.835945117480955e-02
	-7.835970614138048e-02
	1.841829252458590e-03
	1.832762402606146e-03
	-7.835945117480411e-02
	1.622907951611375e-10
	1.622907951611639e-10
	-2.288461604940970e-07
