 * /home/fossee/updatedexamples/fullwaverectifier_scr/fullwaverectifier_scr.cir
 Transient Analysis  Thu Mar  3 21:32:31  2016
--------------------------------------------------------------------------------
Index   time            v.x1.v1#branch  v.x1.v2#branch  v.x1.vf1#branch 
--------------------------------------------------------------------------------
0	0.000000e+00	0.000000e+00	-2.87996e-29	0.000000e+00	
1	2.000000e-07	0.000000e+00	1.160863e-16	0.000000e+00	
2	4.000000e-07	0.000000e+00	4.644355e-16	0.000000e+00	
3	8.000000e-07	0.000000e+00	1.857745e-15	0.000000e+00	
4	1.600000e-06	0.000000e+00	7.427887e-15	0.000000e+00	
5	3.200000e-06	0.000000e+00	2.965468e-14	0.000000e+00	
6	6.400000e-06	0.000000e+00	1.181148e-13	0.000000e+00	
7	1.035972e-05	0.000000e+00	3.079576e-13	0.000000e+00	
8	1.278991e-05	0.000000e+00	4.869799e-13	0.000000e+00	
9	1.556744e-05	0.000000e+00	7.910977e-13	0.000000e+00	
10	1.843481e-05	0.000000e+00	1.158945e-12	0.000000e+00	
11	2.148988e-05	0.000000e+00	1.546278e-12	0.000000e+00	
12	2.431155e-05	0.000000e+00	1.904410e-12	0.000000e+00	
13	2.995487e-05	0.000000e+00	2.619400e-12	0.000000e+00	
14	4.124152e-05	0.000000e+00	4.046646e-12	0.000000e+00	
15	5.850174e-05	0.000000e+00	6.224322e-12	0.000000e+00	
16	7.850174e-05	0.000000e+00	8.743463e-12	0.000000e+00	
17	9.850174e-05	0.000000e+00	1.125920e-11	0.000000e+00	
18	1.185017e-04	0.000000e+00	1.377187e-11	0.000000e+00	
19	1.385017e-04	0.000000e+00	1.628138e-11	0.000000e+00	
20	1.585017e-04	0.000000e+00	1.878760e-11	0.000000e+00	
21	1.785017e-04	0.000000e+00	2.129020e-11	0.000000e+00	
22	1.985017e-04	0.000000e+00	2.378894e-11	0.000000e+00	
23	2.185017e-04	0.000000e+00	2.628345e-11	0.000000e+00	
24	2.385017e-04	0.000000e+00	2.877342e-11	0.000000e+00	
25	2.585017e-04	0.000000e+00	3.125848e-11	0.000000e+00	
26	2.785017e-04	0.000000e+00	3.373826e-11	0.000000e+00	
27	2.985017e-04	0.000000e+00	3.621241e-11	0.000000e+00	
28	3.185017e-04	0.000000e+00	3.868055e-11	0.000000e+00	
29	3.385017e-04	0.000000e+00	4.114230e-11	0.000000e+00	
30	3.585017e-04	0.000000e+00	4.359730e-11	0.000000e+00	
31	3.785017e-04	0.000000e+00	4.604516e-11	0.000000e+00	
32	3.985017e-04	0.000000e+00	4.848550e-11	0.000000e+00	
33	4.185017e-04	0.000000e+00	5.091796e-11	0.000000e+00	
34	4.385017e-04	0.000000e+00	5.334214e-11	0.000000e+00	
35	4.585017e-04	0.000000e+00	5.575769e-11	0.000000e+00	
36	4.785017e-04	0.000000e+00	5.816421e-11	0.000000e+00	
37	4.985017e-04	0.000000e+00	6.056134e-11	0.000000e+00	
38	5.185017e-04	0.000000e+00	6.294870e-11	0.000000e+00	
39	5.385017e-04	0.000000e+00	6.532591e-11	0.000000e+00	
40	5.585017e-04	0.000000e+00	6.769261e-11	0.000000e+00	
41	5.785017e-04	0.000000e+00	7.004842e-11	0.000000e+00	
42	5.985017e-04	0.000000e+00	7.239298e-11	0.000000e+00	
43	6.185017e-04	0.000000e+00	7.472591e-11	0.000000e+00	
44	6.385017e-04	0.000000e+00	7.704686e-11	0.000000e+00	
45	6.585017e-04	0.000000e+00	7.935545e-11	0.000000e+00	
46	6.785017e-04	0.000000e+00	8.165133e-11	0.000000e+00	
47	6.985017e-04	0.000000e+00	8.393413e-11	0.000000e+00	
48	7.185017e-04	0.000000e+00	8.620349e-11	0.000000e+00	
49	7.385017e-04	0.000000e+00	8.845906e-11	0.000000e+00	
50	7.585017e-04	0.000000e+00	9.070049e-11	0.000000e+00	
51	7.785017e-04	0.000000e+00	9.292741e-11	0.000000e+00	
52	7.985017e-04	0.000000e+00	9.513949e-11	0.000000e+00	
53	8.185017e-04	0.000000e+00	9.733636e-11	0.000000e+00	
54	8.385017e-04	0.000000e+00	9.951770e-11	0.000000e+00	

Index   time            v.x1.v1#branch  v.x1.v2#branch  v.x1.vf1#branch 
--------------------------------------------------------------------------------
55	8.585017e-04	0.000000e+00	1.016831e-10	0.000000e+00	
56	8.785017e-04	0.000000e+00	1.038324e-10	0.000000e+00	
57	8.985017e-04	0.000000e+00	1.059650e-10	0.000000e+00	
58	9.185017e-04	0.000000e+00	1.080808e-10	0.000000e+00	
59	9.385017e-04	0.000000e+00	1.101793e-10	0.000000e+00	
60	9.585017e-04	0.000000e+00	1.122602e-10	0.000000e+00	
61	9.785017e-04	0.000000e+00	1.143233e-10	0.000000e+00	
62	9.985017e-04	0.000000e+00	1.163681e-10	0.000000e+00	
63	1.018502e-03	0.000000e+00	1.183944e-10	0.000000e+00	
64	1.038502e-03	0.000000e+00	1.204018e-10	0.000000e+00	
65	1.058502e-03	0.000000e+00	1.223901e-10	0.000000e+00	
66	1.078502e-03	0.000000e+00	1.243589e-10	0.000000e+00	
67	1.098502e-03	0.000000e+00	1.263078e-10	0.000000e+00	
68	1.118502e-03	0.000000e+00	1.282367e-10	0.000000e+00	
69	1.138502e-03	0.000000e+00	1.301451e-10	0.000000e+00	
70	1.158502e-03	0.000000e+00	1.320329e-10	0.000000e+00	
71	1.178502e-03	0.000000e+00	1.338996e-10	0.000000e+00	
72	1.198502e-03	0.000000e+00	1.357451e-10	0.000000e+00	
73	1.218502e-03	0.000000e+00	1.375689e-10	0.000000e+00	
74	1.238502e-03	0.000000e+00	1.393708e-10	0.000000e+00	
75	1.258502e-03	0.000000e+00	1.411506e-10	0.000000e+00	
76	1.278502e-03	0.000000e+00	1.429080e-10	0.000000e+00	
77	1.298502e-03	0.000000e+00	1.446426e-10	0.000000e+00	
78	1.318502e-03	0.000000e+00	1.463543e-10	0.000000e+00	
79	1.338502e-03	0.000000e+00	1.480426e-10	0.000000e+00	
80	1.358502e-03	0.000000e+00	1.497075e-10	0.000000e+00	
81	1.378502e-03	0.000000e+00	1.513485e-10	0.000000e+00	
82	1.398502e-03	0.000000e+00	1.529655e-10	0.000000e+00	
83	1.418502e-03	0.000000e+00	1.545582e-10	0.000000e+00	
84	1.438502e-03	0.000000e+00	1.561264e-10	0.000000e+00	
85	1.458502e-03	0.000000e+00	1.576697e-10	0.000000e+00	
86	1.478502e-03	0.000000e+00	1.591880e-10	0.000000e+00	
87	1.498502e-03	0.000000e+00	1.606810e-10	0.000000e+00	
88	1.518502e-03	0.000000e+00	1.621485e-10	0.000000e+00	
89	1.538502e-03	0.000000e+00	1.635902e-10	0.000000e+00	
90	1.558502e-03	0.000000e+00	1.650060e-10	0.000000e+00	
91	1.578502e-03	0.000000e+00	1.663956e-10	0.000000e+00	
92	1.598502e-03	0.000000e+00	1.677587e-10	0.000000e+00	
93	1.618502e-03	0.000000e+00	1.690953e-10	0.000000e+00	
94	1.638502e-03	0.000000e+00	1.704049e-10	0.000000e+00	
95	1.658502e-03	0.000000e+00	1.716876e-10	0.000000e+00	
96	1.678502e-03	0.000000e+00	1.729430e-10	0.000000e+00	
97	1.698502e-03	0.000000e+00	1.741709e-10	0.000000e+00	
98	1.718502e-03	0.000000e+00	1.753712e-10	0.000000e+00	
99	1.738502e-03	0.000000e+00	1.765437e-10	0.000000e+00	
100	1.758502e-03	0.000000e+00	1.776882e-10	0.000000e+00	
101	1.778502e-03	0.000000e+00	1.788045e-10	0.000000e+00	
102	1.798502e-03	0.000000e+00	1.798924e-10	0.000000e+00	
103	1.818502e-03	0.000000e+00	1.809519e-10	0.000000e+00	
104	1.838502e-03	0.000000e+00	1.819826e-10	0.000000e+00	
105	1.858502e-03	0.000000e+00	1.829844e-10	0.000000e+00	
106	1.878502e-03	0.000000e+00	1.839573e-10	0.000000e+00	
107	1.898502e-03	0.000000e+00	1.849010e-10	0.000000e+00	
108	1.918502e-03	0.000000e+00	1.858153e-10	0.000000e+00	
109	1.938502e-03	0.000000e+00	1.867003e-10	0.000000e+00	
110	1.958502e-03	0.000000e+00	1.875556e-10	0.000000e+00	
111	1.978502e-03	0.000000e+00	1.883812e-10	0.000000e+00	
112	1.998502e-03	0.000000e+00	1.891770e-10	0.000000e+00	

Index   time            v.x1.v1#branch  v.x1.v2#branch  v.x1.vf1#branch 
--------------------------------------------------------------------------------
113	2.000000e-03	0.000000e+00	1.892354e-10	0.000000e+00	
114	2.000003e-03	1.621475e-05	1.892358e-10	1.621475e-05	
115	2.000010e-03	4.864425e-05	1.892372e-10	4.864425e-05	
116	2.000015e-03	7.370227e-05	1.892390e-10	7.370227e-05	
117	2.000020e-03	9.867291e-05	1.892414e-10	9.867291e-05	
118	2.000030e-03	1.486142e-04	1.892482e-10	1.486142e-04	
119	2.000050e-03	2.484968e-04	1.892697e-10	2.484968e-04	
120	2.000090e-03	4.482619e-04	1.893438e-10	4.482619e-04	
121	2.000170e-03	8.477921e-04	1.896159e-10	8.477921e-04	
122	2.000329e-03	1.646853e-03	1.906525e-10	1.646853e-03	
123	2.000649e-03	3.244974e-03	1.946770e-10	3.244974e-03	
124	2.001288e-03	6.441216e-03	2.105435e-10	6.441216e-03	
125	2.002235e-03	1.117454e-02	2.606280e-10	1.117454e-02	
126	2.003650e-03	1.825163e-02	4.277417e-10	1.825163e-02	
127	2.005550e-03	2.774866e-02	1.118764e-09	2.774866e-02	
128	2.008156e-03	4.078126e-02	6.596243e-09	4.078126e-02	
129	2.009318e-03	4.659003e-02	1.681620e-08	4.659003e-02	
130	2.010218e-03	5.109219e-02	3.655700e-08	5.109219e-02	
131	2.010912e-03	5.456136e-02	6.837439e-08	5.456136e-02	
132	2.011551e-03	5.775651e-02	1.241458e-07	5.775651e-02	
133	2.012164e-03	6.082036e-02	2.236534e-07	6.082036e-02	
134	2.012753e-03	6.376296e-02	3.993825e-07	6.376296e-02	
135	2.013317e-03	6.658344e-02	7.050324e-07	6.658344e-02	
136	2.013860e-03	6.929751e-02	1.231660e-06	6.929751e-02	
137	2.014438e-03	7.219065e-02	2.257591e-06	7.219065e-02	
138	2.014964e-03	7.482014e-02	3.953612e-06	7.482014e-02	
139	2.015501e-03	7.750292e-02	7.066444e-06	7.750292e-02	
140	2.016003e-03	8.001526e-02	1.227111e-05	8.001526e-02	
141	2.016510e-03	8.254873e-02	2.157691e-05	8.254873e-02	
142	2.016995e-03	8.497631e-02	3.734015e-05	8.497631e-02	
143	2.017481e-03	8.740680e-02	6.520651e-05	8.740680e-02	
144	2.017952e-03	8.976230e-02	1.130268e-04	8.976230e-02	
145	2.018421e-03	9.210456e-02	1.978596e-04	9.210456e-02	
146	2.018637e-03	9.318414e-02	2.576201e-04	9.318414e-02	
147	2.018935e-03	9.467303e-02	3.738964e-04	9.467303e-02	
148	2.019142e-03	9.570879e-02	4.879758e-04	9.570879e-02	
149	2.019409e-03	9.704640e-02	6.968059e-04	9.704640e-02	
150	2.019920e-03	9.959946e-02	1.472514e-03	9.959946e-02	
151	2.020000e-03	1.000000e-01	1.673765e-03	1.000000e-01	
152	2.020059e-03	1.000000e-01	1.844598e-03	1.000000e-01	
153	2.020176e-03	1.000000e-01	2.252448e-03	1.000000e-01	
154	2.020410e-03	1.000000e-01	3.517501e-03	1.000000e-01	
155	2.020468e-03	1.000000e-01	3.994951e-03	1.000000e-01	
156	2.020585e-03	1.000000e-01	5.248855e-03	1.000000e-01	
157	2.020819e-03	1.000000e-01	1.131976e-02	1.000000e-01	
158	2.020876e-03	1.000000e-01	1.509944e-02	1.000000e-01	
159	2.020989e-03	1.000000e-01	3.788158e-02	1.000000e-01	
160	2.021009e-03	1.000000e-01	5.061348e-02	1.000000e-01	
161	2.021049e-03	1.000000e-01	1.493425e-01	1.000000e-01	
162	2.021053e-03	1.000000e-01	1.758402e-01	1.000000e-01	
163	2.021060e-03	1.000000e-01	2.599736e-01	1.000000e-01	
164	2.021068e-03	1.000000e-01	5.163158e-01	1.000000e-01	
165	2.021079e-03	1.000000e-01	1.675064e+00	1.000000e-01	
166	2.021089e-03	1.000000e-01	1.867753e+00	1.000000e-01	
167	2.021099e-03	1.000000e-01	1.869432e+00	1.000000e-01	
168	2.021112e-03	1.000000e-01	1.869447e+00	1.000000e-01	
169	2.021137e-03	1.000000e-01	1.869461e+00	1.000000e-01	
170	2.021186e-03	1.000000e-01	1.869475e+00	1.000000e-01	

Index   time            v.x1.v1#branch  v.x1.v2#branch  v.x1.vf1#branch 
--------------------------------------------------------------------------------
171	2.021286e-03	1.000000e-01	1.869516e+00	1.000000e-01	
172	2.021486e-03	1.000000e-01	1.869586e+00	1.000000e-01	
173	2.021884e-03	1.000000e-01	1.869738e+00	1.000000e-01	
174	2.022682e-03	1.000000e-01	1.870030e+00	1.000000e-01	
175	2.024278e-03	1.000000e-01	1.870618e+00	1.000000e-01	
176	2.027469e-03	1.000000e-01	1.871784e+00	1.000000e-01	
177	2.031245e-03	1.000000e-01	1.873157e+00	1.000000e-01	
178	2.036034e-03	1.000000e-01	1.874884e+00	1.000000e-01	
179	2.041266e-03	1.000000e-01	1.876750e+00	1.000000e-01	
180	2.047875e-03	1.000000e-01	1.879073e+00	1.000000e-01	
181	2.055494e-03	1.000000e-01	1.881713e+00	1.000000e-01	
182	2.065425e-03	1.000000e-01	1.885083e+00	1.000000e-01	
183	2.077716e-03	1.000000e-01	1.889162e+00	1.000000e-01	
184	2.095179e-03	1.000000e-01	1.894761e+00	1.000000e-01	
185	2.115179e-03	1.000000e-01	1.900886e+00	1.000000e-01	
186	2.135179e-03	1.000000e-01	1.906697e+00	1.000000e-01	
187	2.155179e-03	1.000000e-01	1.912202e+00	1.000000e-01	
188	2.175179e-03	1.000000e-01	1.917414e+00	1.000000e-01	
189	2.195179e-03	1.000000e-01	1.922323e+00	1.000000e-01	
190	2.215179e-03	1.000000e-01	1.926904e+00	1.000000e-01	
191	2.235179e-03	1.000000e-01	1.931198e+00	1.000000e-01	
192	2.255179e-03	1.000000e-01	1.935175e+00	1.000000e-01	
193	2.275179e-03	1.000000e-01	1.938842e+00	1.000000e-01	
194	2.295179e-03	1.000000e-01	1.942190e+00	1.000000e-01	
195	2.315179e-03	1.000000e-01	1.945230e+00	1.000000e-01	
196	2.335179e-03	1.000000e-01	1.947975e+00	1.000000e-01	
197	2.355179e-03	1.000000e-01	1.950399e+00	1.000000e-01	
198	2.375179e-03	1.000000e-01	1.952486e+00	1.000000e-01	
199	2.395179e-03	1.000000e-01	1.954310e+00	1.000000e-01	
200	2.415179e-03	1.000000e-01	1.955780e+00	1.000000e-01	
201	2.435179e-03	1.000000e-01	1.956953e+00	1.000000e-01	
202	2.455179e-03	1.000000e-01	1.957823e+00	1.000000e-01	
203	2.475179e-03	1.000000e-01	1.958365e+00	1.000000e-01	
204	2.495179e-03	1.000000e-01	1.958589e+00	1.000000e-01	
205	2.515179e-03	1.000000e-01	1.958513e+00	1.000000e-01	
206	2.535179e-03	1.000000e-01	1.958115e+00	1.000000e-01	
207	2.555179e-03	1.000000e-01	1.957411e+00	1.000000e-01	
208	2.575179e-03	1.000000e-01	1.956386e+00	1.000000e-01	
209	2.595179e-03	1.000000e-01	1.955057e+00	1.000000e-01	
210	2.615179e-03	1.000000e-01	1.953410e+00	1.000000e-01	
211	2.635179e-03	1.000000e-01	1.951451e+00	1.000000e-01	
212	2.655179e-03	1.000000e-01	1.949179e+00	1.000000e-01	
213	2.675179e-03	1.000000e-01	1.946596e+00	1.000000e-01	
214	2.695179e-03	1.000000e-01	1.943706e+00	1.000000e-01	
215	2.715179e-03	1.000000e-01	1.940510e+00	1.000000e-01	
216	2.735179e-03	1.000000e-01	1.936983e+00	1.000000e-01	
217	2.755179e-03	1.000000e-01	1.933154e+00	1.000000e-01	
218	2.775179e-03	1.000000e-01	1.929025e+00	1.000000e-01	
219	2.795179e-03	1.000000e-01	1.924586e+00	1.000000e-01	
220	2.815179e-03	1.000000e-01	1.919816e+00	1.000000e-01	
221	2.835179e-03	1.000000e-01	1.914763e+00	1.000000e-01	
222	2.855179e-03	1.000000e-01	1.909397e+00	1.000000e-01	
223	2.875179e-03	1.000000e-01	1.903736e+00	1.000000e-01	
224	2.895179e-03	1.000000e-01	1.897747e+00	1.000000e-01	
225	2.915179e-03	1.000000e-01	1.891472e+00	1.000000e-01	
226	2.935179e-03	1.000000e-01	1.884893e+00	1.000000e-01	
227	2.955179e-03	1.000000e-01	1.878004e+00	1.000000e-01	
228	2.975179e-03	1.000000e-01	1.870816e+00	1.000000e-01	

Index   time            v.x1.v1#branch  v.x1.v2#branch  v.x1.vf1#branch 
--------------------------------------------------------------------------------
229	2.995179e-03	1.000000e-01	1.863336e+00	1.000000e-01	
230	3.015179e-03	1.000000e-01	1.855563e+00	1.000000e-01	
231	3.020000e-03	1.000000e-01	1.853634e+00	1.000000e-01	
232	3.022000e-03	9.000000e-02	1.852830e+00	9.000000e-02	
233	3.026000e-03	7.000000e-02	1.851215e+00	7.000000e-02	
234	3.034000e-03	3.000000e-02	1.847957e+00	3.000000e-02	
235	3.040000e-03	0.000000e+00	1.845479e+00	0.000000e+00	
236	3.041600e-03	0.000000e+00	1.844819e+00	0.000000e+00	
237	3.044800e-03	0.000000e+00	1.843478e+00	0.000000e+00	
238	3.051200e-03	0.000000e+00	1.840790e+00	0.000000e+00	
239	3.064000e-03	0.000000e+00	1.835307e+00	0.000000e+00	
240	3.084000e-03	0.000000e+00	1.826510e+00	0.000000e+00	
241	3.104000e-03	0.000000e+00	1.817422e+00	0.000000e+00	
242	3.124000e-03	0.000000e+00	1.808038e+00	0.000000e+00	
243	3.144000e-03	0.000000e+00	1.798360e+00	0.000000e+00	
244	3.164000e-03	0.000000e+00	1.788412e+00	0.000000e+00	
245	3.184000e-03	0.000000e+00	1.778156e+00	0.000000e+00	
246	3.204000e-03	0.000000e+00	1.767627e+00	0.000000e+00	
247	3.224000e-03	0.000000e+00	1.756809e+00	0.000000e+00	
248	3.244000e-03	0.000000e+00	1.745730e+00	0.000000e+00	
249	3.264000e-03	0.000000e+00	1.734336e+00	0.000000e+00	
250	3.284000e-03	0.000000e+00	1.722689e+00	0.000000e+00	
251	3.304000e-03	0.000000e+00	1.710750e+00	0.000000e+00	
252	3.324000e-03	0.000000e+00	1.698561e+00	0.000000e+00	
253	3.344000e-03	0.000000e+00	1.686073e+00	0.000000e+00	
254	3.364000e-03	0.000000e+00	1.673336e+00	0.000000e+00	
255	3.384000e-03	0.000000e+00	1.660313e+00	0.000000e+00	
256	3.404000e-03	0.000000e+00	1.647030e+00	0.000000e+00	
257	3.424000e-03	0.000000e+00	1.633483e+00	0.000000e+00	
258	3.444000e-03	0.000000e+00	1.619680e+00	0.000000e+00	
259	3.464000e-03	0.000000e+00	1.605608e+00	0.000000e+00	
260	3.484000e-03	0.000000e+00	1.591295e+00	0.000000e+00	
261	3.504000e-03	0.000000e+00	1.576722e+00	0.000000e+00	
262	3.524000e-03	0.000000e+00	1.561891e+00	0.000000e+00	
263	3.544000e-03	0.000000e+00	1.546801e+00	0.000000e+00	
264	3.564000e-03	0.000000e+00	1.531466e+00	0.000000e+00	
265	3.584000e-03	0.000000e+00	1.515884e+00	0.000000e+00	
266	3.604000e-03	0.000000e+00	1.500065e+00	0.000000e+00	
267	3.624000e-03	0.000000e+00	1.484004e+00	0.000000e+00	
268	3.644000e-03	0.000000e+00	1.467704e+00	0.000000e+00	
269	3.664000e-03	0.000000e+00	1.451181e+00	0.000000e+00	
270	3.684000e-03	0.000000e+00	1.434391e+00	0.000000e+00	
271	3.704000e-03	0.000000e+00	1.417399e+00	0.000000e+00	
272	3.724000e-03	0.000000e+00	1.400192e+00	0.000000e+00	
273	3.744000e-03	0.000000e+00	1.382725e+00	0.000000e+00	
274	3.764000e-03	0.000000e+00	1.365057e+00	0.000000e+00	
275	3.784000e-03	0.000000e+00	1.347155e+00	0.000000e+00	
276	3.804000e-03	0.000000e+00	1.329050e+00	0.000000e+00	
277	3.824000e-03	0.000000e+00	1.310726e+00	0.000000e+00	
278	3.844000e-03	0.000000e+00	1.292193e+00	0.000000e+00	
279	3.864000e-03	0.000000e+00	1.273466e+00	0.000000e+00	
280	3.884000e-03	0.000000e+00	1.254509e+00	0.000000e+00	
281	3.904000e-03	0.000000e+00	1.235353e+00	0.000000e+00	
282	3.924000e-03	0.000000e+00	1.216007e+00	0.000000e+00	
283	3.944000e-03	0.000000e+00	1.196463e+00	0.000000e+00	
284	3.964000e-03	0.000000e+00	1.176732e+00	0.000000e+00	
285	3.984000e-03	0.000000e+00	1.156803e+00	0.000000e+00	
286	4.004000e-03	0.000000e+00	1.136693e+00	0.000000e+00	

Index   time            v.x1.v1#branch  v.x1.v2#branch  v.x1.vf1#branch 
--------------------------------------------------------------------------------
287	4.024000e-03	0.000000e+00	1.116404e+00	0.000000e+00	
288	4.044000e-03	0.000000e+00	1.095918e+00	0.000000e+00	
289	4.064000e-03	0.000000e+00	1.075267e+00	0.000000e+00	
290	4.084000e-03	0.000000e+00	1.054438e+00	0.000000e+00	
291	4.104000e-03	0.000000e+00	1.033441e+00	0.000000e+00	
292	4.124000e-03	0.000000e+00	1.012278e+00	0.000000e+00	
293	4.144000e-03	0.000000e+00	9.909559e-01	0.000000e+00	
294	4.164000e-03	0.000000e+00	9.694711e-01	0.000000e+00	
295	4.184000e-03	0.000000e+00	9.478324e-01	0.000000e+00	
296	4.204000e-03	0.000000e+00	9.260288e-01	0.000000e+00	
297	4.224000e-03	0.000000e+00	9.040933e-01	0.000000e+00	
298	4.244000e-03	0.000000e+00	8.819930e-01	0.000000e+00	
299	4.264000e-03	0.000000e+00	8.597580e-01	0.000000e+00	
300	4.284000e-03	0.000000e+00	8.373789e-01	0.000000e+00	
301	4.304000e-03	0.000000e+00	8.148653e-01	0.000000e+00	
302	4.324000e-03	0.000000e+00	7.922278e-01	0.000000e+00	
303	4.344000e-03	0.000000e+00	7.694553e-01	0.000000e+00	
304	4.364000e-03	0.000000e+00	7.465555e-01	0.000000e+00	
305	4.384000e-03	0.000000e+00	7.235445e-01	0.000000e+00	
306	4.404000e-03	0.000000e+00	7.004092e-01	0.000000e+00	
307	4.424000e-03	0.000000e+00	6.771674e-01	0.000000e+00	
308	4.444000e-03	0.000000e+00	6.538113e-01	0.000000e+00	
309	4.464000e-03	0.000000e+00	6.303417e-01	0.000000e+00	
310	4.484000e-03	0.000000e+00	6.067738e-01	0.000000e+00	
311	4.504000e-03	0.000000e+00	5.831084e-01	0.000000e+00	
312	4.524000e-03	0.000000e+00	5.593511e-01	0.000000e+00	
313	4.544000e-03	0.000000e+00	5.354994e-01	0.000000e+00	
314	4.564000e-03	0.000000e+00	5.115611e-01	0.000000e+00	
315	4.584000e-03	0.000000e+00	4.875424e-01	0.000000e+00	
316	4.604000e-03	0.000000e+00	4.634438e-01	0.000000e+00	
317	4.624000e-03	0.000000e+00	4.392756e-01	0.000000e+00	
318	4.644000e-03	0.000000e+00	4.150243e-01	0.000000e+00	
319	4.664000e-03	0.000000e+00	3.907157e-01	0.000000e+00	
320	4.684000e-03	0.000000e+00	3.663410e-01	0.000000e+00	
321	4.704000e-03	0.000000e+00	3.419087e-01	0.000000e+00	
322	4.724000e-03	0.000000e+00	3.174178e-01	0.000000e+00	
323	4.744000e-03	0.000000e+00	2.928825e-01	0.000000e+00	
324	4.764000e-03	0.000000e+00	2.683096e-01	0.000000e+00	
325	4.784000e-03	0.000000e+00	2.436872e-01	0.000000e+00	
326	4.804000e-03	0.000000e+00	2.190281e-01	0.000000e+00	
327	4.824000e-03	0.000000e+00	1.943447e-01	0.000000e+00	
328	4.844000e-03	0.000000e+00	1.696419e-01	0.000000e+00	
329	4.864000e-03	0.000000e+00	1.449189e-01	0.000000e+00	
330	4.884000e-03	0.000000e+00	1.201993e-01	0.000000e+00	
331	4.904000e-03	0.000000e+00	9.548275e-02	0.000000e+00	
