 * /home/fossee/updatedexamples/fullwaverectifier_scr/fullwaverectifier_scr.cir
 Transient Analysis  Thu Mar  3 21:32:31  2016
--------------------------------------------------------------------------------
Index   time            in1             in2             out1            
--------------------------------------------------------------------------------
0	0.000000e+00	-1.70501e-17	-1.70501e-17	-3.45369e-17	
1	2.000000e-07	1.262441e-02	-1.25083e-02	1.160863e-04	
2	4.000000e-07	2.536496e-02	-2.49005e-02	4.644355e-04	
3	8.000000e-07	5.119435e-02	-4.93366e-02	1.857745e-03	
4	1.600000e-06	1.042449e-01	-9.68170e-02	7.427887e-03	
5	3.200000e-06	2.158891e-01	-1.86234e-01	2.965468e-02	
6	6.400000e-06	4.611802e-01	-3.43065e-01	1.181148e-01	
7	1.035972e-05	8.048948e-01	-4.96937e-01	3.079576e-01	
8	1.278991e-05	1.047095e+00	-5.60115e-01	4.869799e-01	
9	1.556744e-05	1.373664e+00	-5.82566e-01	7.910977e-01	
10	1.843481e-05	1.737740e+00	-5.78795e-01	1.158945e+00	
11	2.148988e-05	2.123347e+00	-5.77069e-01	1.546279e+00	
12	2.431155e-05	2.479685e+00	-5.75275e-01	1.904410e+00	
13	2.995487e-05	3.191709e+00	-5.72309e-01	2.619400e+00	
14	4.124152e-05	4.614314e+00	-5.67668e-01	4.046646e+00	
15	5.850174e-05	6.787107e+00	-5.62783e-01	6.224323e+00	
16	7.850174e-05	9.302142e+00	-5.58678e-01	8.743465e+00	
17	9.850174e-05	1.181470e+01	-5.55495e-01	1.125920e+01	
18	1.185017e-04	1.432475e+01	-5.52867e-01	1.377188e+01	
19	1.385017e-04	1.683204e+01	-5.50647e-01	1.628139e+01	
20	1.585017e-04	1.933631e+01	-5.48702e-01	1.878760e+01	
21	1.785017e-04	2.183720e+01	-5.46991e-01	2.129021e+01	
22	1.985017e-04	2.433440e+01	-5.45448e-01	2.378895e+01	
23	2.185017e-04	2.682752e+01	-5.44049e-01	2.628347e+01	
24	2.385017e-04	2.931620e+01	-5.42764e-01	2.877344e+01	
25	2.585017e-04	3.180007e+01	-5.41576e-01	3.125850e+01	
26	2.785017e-04	3.427876e+01	-5.40470e-01	3.373829e+01	
27	2.985017e-04	3.675187e+01	-5.39433e-01	3.621244e+01	
28	3.185017e-04	3.921904e+01	-5.38458e-01	3.868058e+01	
29	3.385017e-04	4.167987e+01	-5.37535e-01	4.114234e+01	
30	3.585017e-04	4.413399e+01	-5.36658e-01	4.359734e+01	
31	3.785017e-04	4.658102e+01	-5.35822e-01	4.604520e+01	
32	3.985017e-04	4.902057e+01	-5.35022e-01	4.848555e+01	
33	4.185017e-04	5.145226e+01	-5.34255e-01	5.091801e+01	
34	4.385017e-04	5.387572e+01	-5.33516e-01	5.334220e+01	
35	4.585017e-04	5.629056e+01	-5.32804e-01	5.575775e+01	
36	4.785017e-04	5.869640e+01	-5.32115e-01	5.816428e+01	
37	4.985017e-04	6.109286e+01	-5.31448e-01	6.056141e+01	
38	5.185017e-04	6.347958e+01	-5.30800e-01	6.294878e+01	
39	5.385017e-04	6.585617e+01	-5.30169e-01	6.532600e+01	
40	5.585017e-04	6.822226e+01	-5.29554e-01	6.769270e+01	
41	5.785017e-04	7.057748e+01	-5.28954e-01	7.004852e+01	
42	5.985017e-04	7.292146e+01	-5.28367e-01	7.239309e+01	
43	6.185017e-04	7.525382e+01	-5.27792e-01	7.472603e+01	
44	6.385017e-04	7.757421e+01	-5.27228e-01	7.704698e+01	
45	6.585017e-04	7.988226e+01	-5.26674e-01	7.935558e+01	
46	6.785017e-04	8.217760e+01	-5.26129e-01	8.165147e+01	
47	6.985017e-04	8.445987e+01	-5.25593e-01	8.393428e+01	
48	7.185017e-04	8.672871e+01	-5.25064e-01	8.620365e+01	
49	7.385017e-04	8.898377e+01	-5.24542e-01	8.845923e+01	
50	7.585017e-04	9.122469e+01	-5.24026e-01	9.070066e+01	
51	7.785017e-04	9.345111e+01	-5.23516e-01	9.292760e+01	
52	7.985017e-04	9.566269e+01	-5.23011e-01	9.513968e+01	
53	8.185017e-04	9.785908e+01	-5.22510e-01	9.733657e+01	
54	8.385017e-04	1.000399e+02	-5.22014e-01	9.951791e+01	

Index   time            in1             in2             out1            
--------------------------------------------------------------------------------
55	8.585017e-04	1.022049e+02	-5.21521e-01	1.016834e+02	
56	8.785017e-04	1.043536e+02	-5.21031e-01	1.038326e+02	
57	8.985017e-04	1.064858e+02	-5.20544e-01	1.059653e+02	
58	9.185017e-04	1.086011e+02	-5.20059e-01	1.080810e+02	
59	9.385017e-04	1.106991e+02	-5.19576e-01	1.101795e+02	
60	9.585017e-04	1.127796e+02	-5.19094e-01	1.122605e+02	
61	9.785017e-04	1.148422e+02	-5.18614e-01	1.143236e+02	
62	9.985017e-04	1.168865e+02	-5.18135e-01	1.163684e+02	
63	1.018502e-03	1.189124e+02	-5.17656e-01	1.183947e+02	
64	1.038502e-03	1.209193e+02	-5.17177e-01	1.204022e+02	
65	1.058502e-03	1.229071e+02	-5.16698e-01	1.223904e+02	
66	1.078502e-03	1.248754e+02	-5.16218e-01	1.243592e+02	
67	1.098502e-03	1.268239e+02	-5.15738e-01	1.263082e+02	
68	1.118502e-03	1.287523e+02	-5.15256e-01	1.282371e+02	
69	1.138502e-03	1.306603e+02	-5.14773e-01	1.301455e+02	
70	1.158502e-03	1.325476e+02	-5.14288e-01	1.320333e+02	
71	1.178502e-03	1.344138e+02	-5.13802e-01	1.339000e+02	
72	1.198502e-03	1.362588e+02	-5.13313e-01	1.357455e+02	
73	1.218502e-03	1.380822e+02	-5.12822e-01	1.375693e+02	
74	1.238502e-03	1.398836e+02	-5.12327e-01	1.393713e+02	
75	1.258502e-03	1.416629e+02	-5.11830e-01	1.411511e+02	
76	1.278502e-03	1.434198e+02	-5.11328e-01	1.429085e+02	
77	1.298502e-03	1.451540e+02	-5.10824e-01	1.446431e+02	
78	1.318502e-03	1.468651e+02	-5.10315e-01	1.463548e+02	
79	1.338502e-03	1.485530e+02	-5.09801e-01	1.480432e+02	
80	1.358502e-03	1.502173e+02	-5.09283e-01	1.497080e+02	
81	1.378502e-03	1.518578e+02	-5.08760e-01	1.513491e+02	
82	1.398502e-03	1.534743e+02	-5.08232e-01	1.529661e+02	
83	1.418502e-03	1.550665e+02	-5.07698e-01	1.545588e+02	
84	1.438502e-03	1.566341e+02	-5.07157e-01	1.561270e+02	
85	1.458502e-03	1.581769e+02	-5.06611e-01	1.576703e+02	
86	1.478502e-03	1.596947e+02	-5.06057e-01	1.591886e+02	
87	1.498502e-03	1.611872e+02	-5.05496e-01	1.606817e+02	
88	1.518502e-03	1.626541e+02	-5.04928e-01	1.621492e+02	
89	1.538502e-03	1.640953e+02	-5.04351e-01	1.635909e+02	
90	1.558502e-03	1.655105e+02	-5.03766e-01	1.650067e+02	
91	1.578502e-03	1.668995e+02	-5.03172e-01	1.663963e+02	
92	1.598502e-03	1.682621e+02	-5.02569e-01	1.677595e+02	
93	1.618502e-03	1.695980e+02	-5.01955e-01	1.690960e+02	
94	1.638502e-03	1.709071e+02	-5.01332e-01	1.704057e+02	
95	1.658502e-03	1.721891e+02	-5.00697e-01	1.716884e+02	
96	1.678502e-03	1.734439e+02	-5.00050e-01	1.729438e+02	
97	1.698502e-03	1.746712e+02	-4.99391e-01	1.741718e+02	
98	1.718502e-03	1.758708e+02	-4.98719e-01	1.753721e+02	
99	1.738502e-03	1.770426e+02	-4.98034e-01	1.765446e+02	
100	1.758502e-03	1.781865e+02	-4.97333e-01	1.776891e+02	
101	1.778502e-03	1.793021e+02	-4.96618e-01	1.788054e+02	
102	1.798502e-03	1.803893e+02	-4.95887e-01	1.798934e+02	
103	1.818502e-03	1.814480e+02	-4.95138e-01	1.809528e+02	
104	1.838502e-03	1.824779e+02	-4.94372e-01	1.819836e+02	
105	1.858502e-03	1.834790e+02	-4.93586e-01	1.829854e+02	
106	1.878502e-03	1.844511e+02	-4.92781e-01	1.839583e+02	
107	1.898502e-03	1.853940e+02	-4.91954e-01	1.849020e+02	
108	1.918502e-03	1.863075e+02	-4.91104e-01	1.858164e+02	
109	1.938502e-03	1.871916e+02	-4.90229e-01	1.867013e+02	
110	1.958502e-03	1.880460e+02	-4.89329e-01	1.875567e+02	
111	1.978502e-03	1.888707e+02	-4.88402e-01	1.883823e+02	
112	1.998502e-03	1.896656e+02	-4.87445e-01	1.891781e+02	

Index   time            in1             in2             out1            
--------------------------------------------------------------------------------
113	2.000000e-03	1.897239e+02	-4.87373e-01	1.892366e+02	
114	2.000003e-03	1.897241e+02	-4.87372e-01	1.892367e+02	
115	2.000010e-03	1.897243e+02	-4.87372e-01	1.892369e+02	
116	2.000015e-03	1.897245e+02	-4.87372e-01	1.892371e+02	
117	2.000020e-03	1.897247e+02	-4.87372e-01	1.892373e+02	
118	2.000030e-03	1.897251e+02	-4.87371e-01	1.892377e+02	
119	2.000050e-03	1.897259e+02	-4.87370e-01	1.892385e+02	
120	2.000090e-03	1.897274e+02	-4.87368e-01	1.892400e+02	
121	2.000170e-03	1.897305e+02	-4.87364e-01	1.892432e+02	
122	2.000329e-03	1.897367e+02	-4.87356e-01	1.892494e+02	
123	2.000649e-03	1.897491e+02	-4.87341e-01	1.892618e+02	
124	2.001288e-03	1.897740e+02	-4.87310e-01	1.892866e+02	
125	2.002235e-03	1.898106e+02	-4.87264e-01	1.893234e+02	
126	2.003650e-03	1.898654e+02	-4.87195e-01	1.893782e+02	
127	2.005550e-03	1.899385e+02	-4.87105e-01	1.894514e+02	
128	2.008156e-03	1.900385e+02	-4.87006e-01	1.895515e+02	
129	2.009318e-03	1.900829e+02	-4.86990e-01	1.895959e+02	
130	2.010218e-03	1.901172e+02	-4.87019e-01	1.896301e+02	
131	2.010912e-03	1.901435e+02	-4.87096e-01	1.896564e+02	
132	2.011551e-03	1.901676e+02	-4.87255e-01	1.896803e+02	
133	2.012164e-03	1.901905e+02	-4.87556e-01	1.897030e+02	
134	2.012753e-03	1.902123e+02	-4.88096e-01	1.897242e+02	
135	2.013317e-03	1.902327e+02	-4.89036e-01	1.897437e+02	
136	2.013860e-03	1.902516e+02	-4.90641e-01	1.897610e+02	
137	2.014438e-03	1.902704e+02	-4.93733e-01	1.897767e+02	
138	2.014964e-03	1.902853e+02	-4.98716e-01	1.897865e+02	
139	2.015501e-03	1.902966e+02	-5.07617e-01	1.897890e+02	
140	2.016003e-03	1.903013e+02	-5.21827e-01	1.897795e+02	
141	2.016510e-03	1.902969e+02	-5.45289e-01	1.897516e+02	
142	2.016995e-03	1.902824e+02	-5.78059e-01	1.897043e+02	
143	2.017481e-03	1.902660e+02	-6.12679e-01	1.896533e+02	
144	2.017952e-03	1.902611e+02	-6.35254e-01	1.896258e+02	
145	2.018421e-03	1.902631e+02	-6.50742e-01	1.896124e+02	
146	2.018637e-03	1.902639e+02	-6.58035e-01	1.896059e+02	
147	2.018935e-03	1.902651e+02	-6.68025e-01	1.895970e+02	
148	2.019142e-03	1.902657e+02	-6.75156e-01	1.895905e+02	
149	2.019409e-03	1.902662e+02	-6.84617e-01	1.895816e+02	
150	2.019920e-03	1.902651e+02	-7.04835e-01	1.895602e+02	
151	2.020000e-03	1.902651e+02	-7.07819e-01	1.895573e+02	
152	2.020059e-03	1.902648e+02	-7.10330e-01	1.895544e+02	
153	2.020176e-03	1.902638e+02	-7.15623e-01	1.895482e+02	
154	2.020410e-03	1.902606e+02	-7.27604e-01	1.895330e+02	
155	2.020468e-03	1.902594e+02	-7.30943e-01	1.895285e+02	
156	2.020585e-03	1.902564e+02	-7.38341e-01	1.895181e+02	
157	2.020819e-03	1.902437e+02	-7.59764e-01	1.894839e+02	
158	2.020876e-03	1.902374e+02	-7.68177e-01	1.894692e+02	
159	2.020989e-03	1.902121e+02	-7.97668e-01	1.894145e+02	
160	2.021009e-03	1.902022e+02	-8.08349e-01	1.893938e+02	
161	2.021049e-03	1.901510e+02	-8.60997e-01	1.892900e+02	
162	2.021053e-03	1.901403e+02	-8.71847e-01	1.892685e+02	
163	2.021060e-03	1.901094e+02	-9.03043e-01	1.892064e+02	
164	2.021068e-03	1.900279e+02	-9.84812e-01	1.890431e+02	
165	2.021079e-03	1.897082e+02	-1.30491e+00	1.884033e+02	
166	2.021089e-03	1.896574e+02	-1.35612e+00	1.883013e+02	
167	2.021099e-03	1.896575e+02	-1.35637e+00	1.883012e+02	
168	2.021112e-03	1.896578e+02	-1.35656e+00	1.883012e+02	
169	2.021137e-03	1.896589e+02	-1.35638e+00	1.883025e+02	
170	2.021186e-03	1.896606e+02	-1.35657e+00	1.883040e+02	

Index   time            in1             in2             out1            
--------------------------------------------------------------------------------
171	2.021286e-03	1.896645e+02	-1.35639e+00	1.883081e+02	
172	2.021486e-03	1.896717e+02	-1.35660e+00	1.883151e+02	
173	2.021884e-03	1.896867e+02	-1.35645e+00	1.883302e+02	
174	2.022682e-03	1.897160e+02	-1.35672e+00	1.883593e+02	
175	2.024278e-03	1.897752e+02	-1.35668e+00	1.884185e+02	
176	2.027469e-03	1.898924e+02	-1.35718e+00	1.885352e+02	
177	2.031245e-03	1.900305e+02	-1.35735e+00	1.886732e+02	
178	2.036034e-03	1.902037e+02	-1.35800e+00	1.888457e+02	
179	2.041266e-03	1.903913e+02	-1.35830e+00	1.890330e+02	
180	2.047875e-03	1.906250e+02	-1.35910e+00	1.892659e+02	
181	2.055494e-03	1.908906e+02	-1.35961e+00	1.895310e+02	
182	2.065425e-03	1.912298e+02	-1.36069e+00	1.898691e+02	
183	2.077716e-03	1.916397e+02	-1.36157e+00	1.902781e+02	
184	2.095179e-03	1.922018e+02	-1.36324e+00	1.908386e+02	
185	2.115179e-03	1.928175e+02	-1.36466e+00	1.914528e+02	
186	2.135179e-03	1.934022e+02	-1.36639e+00	1.920358e+02	
187	2.155179e-03	1.939566e+02	-1.36765e+00	1.925890e+02	
188	2.175179e-03	1.944799e+02	-1.36921e+00	1.931107e+02	
189	2.195179e-03	1.949727e+02	-1.37031e+00	1.936024e+02	
190	2.215179e-03	1.954342e+02	-1.37171e+00	1.940625e+02	
191	2.235179e-03	1.958651e+02	-1.37265e+00	1.944924e+02	
192	2.255179e-03	1.962645e+02	-1.37389e+00	1.948907e+02	
193	2.275179e-03	1.966332e+02	-1.37466e+00	1.952586e+02	
194	2.295179e-03	1.969704e+02	-1.37574e+00	1.955946e+02	
195	2.315179e-03	1.972766e+02	-1.37635e+00	1.959003e+02	
196	2.335179e-03	1.975512e+02	-1.37726e+00	1.961740e+02	
197	2.355179e-03	1.977949e+02	-1.37771e+00	1.964172e+02	
198	2.375179e-03	1.980068e+02	-1.37845e+00	1.966283e+02	
199	2.395179e-03	1.981877e+02	-1.37874e+00	1.968089e+02	
200	2.415179e-03	1.983367e+02	-1.37931e+00	1.969574e+02	
201	2.435179e-03	1.984547e+02	-1.37943e+00	1.970753e+02	
202	2.455179e-03	1.985408e+02	-1.37985e+00	1.971610e+02	
203	2.475179e-03	1.985959e+02	-1.37980e+00	1.972161e+02	
204	2.495179e-03	1.986190e+02	-1.38005e+00	1.972390e+02	
205	2.515179e-03	1.986111e+02	-1.37984e+00	1.972312e+02	
206	2.535179e-03	1.985712e+02	-1.37993e+00	1.971913e+02	
207	2.555179e-03	1.985003e+02	-1.37955e+00	1.971207e+02	
208	2.575179e-03	1.983974e+02	-1.37947e+00	1.970180e+02	
209	2.595179e-03	1.982635e+02	-1.37893e+00	1.968846e+02	
210	2.615179e-03	1.980978e+02	-1.37869e+00	1.967191e+02	
211	2.635179e-03	1.979010e+02	-1.37798e+00	1.965231e+02	
212	2.655179e-03	1.976725e+02	-1.37758e+00	1.962949e+02	
213	2.675179e-03	1.974130e+02	-1.37671e+00	1.960363e+02	
214	2.695179e-03	1.971218e+02	-1.37614e+00	1.957457e+02	
215	2.715179e-03	1.967998e+02	-1.37510e+00	1.954247e+02	
216	2.735179e-03	1.964461e+02	-1.37436e+00	1.950717e+02	
217	2.755179e-03	1.960616e+02	-1.37317e+00	1.946885e+02	
218	2.775179e-03	1.956457e+02	-1.37227e+00	1.942735e+02	
219	2.795179e-03	1.951992e+02	-1.37091e+00	1.938283e+02	
220	2.815179e-03	1.947213e+02	-1.36984e+00	1.933514e+02	
221	2.835179e-03	1.942128e+02	-1.36832e+00	1.928445e+02	
222	2.855179e-03	1.936733e+02	-1.36710e+00	1.923062e+02	
223	2.875179e-03	1.931033e+02	-1.36541e+00	1.917379e+02	
224	2.895179e-03	1.925024e+02	-1.36403e+00	1.911384e+02	
225	2.915179e-03	1.918713e+02	-1.36218e+00	1.905091e+02	
226	2.935179e-03	1.912094e+02	-1.36064e+00	1.898487e+02	
227	2.955179e-03	1.905175e+02	-1.35863e+00	1.891589e+02	
228	2.975179e-03	1.897951e+02	-1.35693e+00	1.884381e+02	

Index   time            in1             in2             out1            
--------------------------------------------------------------------------------
229	2.995179e-03	1.890429e+02	-1.35476e+00	1.876881e+02	
230	3.015179e-03	1.882603e+02	-1.35290e+00	1.869074e+02	
231	3.020000e-03	1.880675e+02	-1.35220e+00	1.867153e+02	
232	3.022000e-03	1.879868e+02	-1.35208e+00	1.866347e+02	
233	3.026000e-03	1.878247e+02	-1.35166e+00	1.864730e+02	
234	3.034000e-03	1.874969e+02	-1.35080e+00	1.861461e+02	
235	3.040000e-03	1.872480e+02	-1.35014e+00	1.858978e+02	
236	3.041600e-03	1.871811e+02	-1.34997e+00	1.858312e+02	
237	3.044800e-03	1.870469e+02	-1.34961e+00	1.856973e+02	
238	3.051200e-03	1.867761e+02	-1.34890e+00	1.854272e+02	
239	3.064000e-03	1.862255e+02	-1.34746e+00	1.848780e+02	
240	3.084000e-03	1.853409e+02	-1.34513e+00	1.839958e+02	
241	3.104000e-03	1.844269e+02	-1.34273e+00	1.830842e+02	
242	3.124000e-03	1.834837e+02	-1.34025e+00	1.821435e+02	
243	3.144000e-03	1.825114e+02	-1.33769e+00	1.811737e+02	
244	3.164000e-03	1.815101e+02	-1.33506e+00	1.801750e+02	
245	3.184000e-03	1.804800e+02	-1.33235e+00	1.791476e+02	
246	3.204000e-03	1.794213e+02	-1.32956e+00	1.780917e+02	
247	3.224000e-03	1.783341e+02	-1.32670e+00	1.770074e+02	
248	3.244000e-03	1.772186e+02	-1.32377e+00	1.758948e+02	
249	3.264000e-03	1.760750e+02	-1.32075e+00	1.747542e+02	
250	3.284000e-03	1.749034e+02	-1.31766e+00	1.735858e+02	
251	3.304000e-03	1.737041e+02	-1.31450e+00	1.723896e+02	
252	3.324000e-03	1.724773e+02	-1.31126e+00	1.711660e+02	
253	3.344000e-03	1.712230e+02	-1.30795e+00	1.699151e+02	
254	3.364000e-03	1.699416e+02	-1.30457e+00	1.686371e+02	
255	3.384000e-03	1.686333e+02	-1.30112e+00	1.673321e+02	
256	3.404000e-03	1.672981e+02	-1.29759e+00	1.660005e+02	
257	3.424000e-03	1.659364e+02	-1.29399e+00	1.646425e+02	
258	3.444000e-03	1.645484e+02	-1.29032e+00	1.632581e+02	
259	3.464000e-03	1.631343e+02	-1.28657e+00	1.618477e+02	
260	3.484000e-03	1.616943e+02	-1.28276e+00	1.604115e+02	
261	3.504000e-03	1.602286e+02	-1.27888e+00	1.589497e+02	
262	3.524000e-03	1.587374e+02	-1.27493e+00	1.574625e+02	
263	3.544000e-03	1.572211e+02	-1.27091e+00	1.559502e+02	
264	3.564000e-03	1.556798e+02	-1.26681e+00	1.544130e+02	
265	3.584000e-03	1.541138e+02	-1.26266e+00	1.528511e+02	
266	3.604000e-03	1.525233e+02	-1.25843e+00	1.512649e+02	
267	3.624000e-03	1.509086e+02	-1.25414e+00	1.496545e+02	
268	3.644000e-03	1.492700e+02	-1.24977e+00	1.480202e+02	
269	3.664000e-03	1.476076e+02	-1.24535e+00	1.463623e+02	
270	3.684000e-03	1.459218e+02	-1.24086e+00	1.446810e+02	
271	3.704000e-03	1.442129e+02	-1.23630e+00	1.429766e+02	
272	3.724000e-03	1.424810e+02	-1.23168e+00	1.412493e+02	
273	3.744000e-03	1.407265e+02	-1.22699e+00	1.394995e+02	
274	3.764000e-03	1.389497e+02	-1.22224e+00	1.377274e+02	
275	3.784000e-03	1.371507e+02	-1.21742e+00	1.359333e+02	
276	3.804000e-03	1.353300e+02	-1.21254e+00	1.341175e+02	
277	3.824000e-03	1.334878e+02	-1.20760e+00	1.322802e+02	
278	3.844000e-03	1.316244e+02	-1.20260e+00	1.304218e+02	
279	3.864000e-03	1.297401e+02	-1.19754e+00	1.285425e+02	
280	3.884000e-03	1.278351e+02	-1.19242e+00	1.266427e+02	
281	3.904000e-03	1.259099e+02	-1.18723e+00	1.247226e+02	
282	3.924000e-03	1.239646e+02	-1.18198e+00	1.227826e+02	
283	3.944000e-03	1.219996e+02	-1.17668e+00	1.208229e+02	
284	3.964000e-03	1.200153e+02	-1.17132e+00	1.188439e+02	
285	3.984000e-03	1.180118e+02	-1.16589e+00	1.168459e+02	
286	4.004000e-03	1.159896e+02	-1.16041e+00	1.148292e+02	

Index   time            in1             in2             out1            
--------------------------------------------------------------------------------
287	4.024000e-03	1.139490e+02	-1.15487e+00	1.127941e+02	
288	4.044000e-03	1.118902e+02	-1.14927e+00	1.107409e+02	
289	4.064000e-03	1.098137e+02	-1.14362e+00	1.086700e+02	
290	4.084000e-03	1.077196e+02	-1.13791e+00	1.065817e+02	
291	4.104000e-03	1.056085e+02	-1.13214e+00	1.044763e+02	
292	4.124000e-03	1.034805e+02	-1.12631e+00	1.023542e+02	
293	4.144000e-03	1.013361e+02	-1.12043e+00	1.002157e+02	
294	4.164000e-03	9.917558e+01	-1.11449e+00	9.806109e+01	
295	4.184000e-03	9.699926e+01	-1.10850e+00	9.589076e+01	
296	4.204000e-03	9.480751e+01	-1.10244e+00	9.370506e+01	
297	4.224000e-03	9.260066e+01	-1.09634e+00	9.150432e+01	
298	4.244000e-03	9.037908e+01	-1.09018e+00	8.928891e+01	
299	4.264000e-03	8.814311e+01	-1.08395e+00	8.705916e+01	
300	4.284000e-03	8.589311e+01	-1.07768e+00	8.481543e+01	
301	4.304000e-03	8.362943e+01	-1.07135e+00	8.255808e+01	
302	4.324000e-03	8.135243e+01	-1.06496e+00	8.028747e+01	
303	4.344000e-03	7.906247e+01	-1.05851e+00	7.800396e+01	
304	4.364000e-03	7.675992e+01	-1.05200e+00	7.570792e+01	
305	4.384000e-03	7.444514e+01	-1.04544e+00	7.339970e+01	
306	4.404000e-03	7.211851e+01	-1.03882e+00	7.107969e+01	
307	4.424000e-03	6.978037e+01	-1.03213e+00	6.874824e+01	
308	4.444000e-03	6.743112e+01	-1.02539e+00	6.640574e+01	
309	4.464000e-03	6.507113e+01	-1.01857e+00	6.405255e+01	
310	4.484000e-03	6.270076e+01	-1.01170e+00	6.168906e+01	
311	4.504000e-03	6.032040e+01	-1.00475e+00	5.931565e+01	
312	4.524000e-03	5.793043e+01	-9.97735e-01	5.693269e+01	
313	4.544000e-03	5.553122e+01	-9.90646e-01	5.454058e+01	
314	4.564000e-03	5.312317e+01	-9.83478e-01	5.213969e+01	
315	4.584000e-03	5.070665e+01	-9.76229e-01	4.973042e+01	
316	4.604000e-03	4.828206e+01	-9.68893e-01	4.731317e+01	
317	4.624000e-03	4.584979e+01	-9.61466e-01	4.488832e+01	
318	4.644000e-03	4.341023e+01	-9.53934e-01	4.245629e+01	
319	4.664000e-03	4.096376e+01	-9.46296e-01	4.001747e+01	
320	4.684000e-03	3.851081e+01	-9.38536e-01	3.757227e+01	
321	4.704000e-03	3.605175e+01	-9.30643e-01	3.512111e+01	
322	4.724000e-03	3.358701e+01	-9.22598e-01	3.266441e+01	
323	4.744000e-03	3.111699e+01	-9.14383e-01	3.020260e+01	
324	4.764000e-03	2.864210e+01	-9.05974e-01	2.773612e+01	
325	4.784000e-03	2.616278e+01	-8.97328e-01	2.526546e+01	
326	4.804000e-03	2.367947e+01	-8.88406e-01	2.279106e+01	
327	4.824000e-03	2.119262e+01	-8.79141e-01	2.031348e+01	
328	4.844000e-03	1.870271e+01	-8.69450e-01	1.783326e+01	
329	4.864000e-03	1.621028e+01	-8.59194e-01	1.535108e+01	
330	4.884000e-03	1.371591e+01	-8.48175e-01	1.286774e+01	
331	4.904000e-03	1.122036e+01	-8.36043e-01	1.038432e+01	
