 * /home/fossee/updatedexamples/fullwaverectifier_scr/fullwaverectifier_scr.cir
 Transient Analysis  Fri Sep  1 14:40:40  2017
--------------------------------------------------------------------------------
Index   time            in1             in2             out1            
--------------------------------------------------------------------------------
0	0.000000e+00	-1.36891e-14	-1.36891e-14	-2.73779e-14	
1	2.000000e-07	1.306107e-02	-1.20717e-02	9.894081e-04	
2	4.000000e-07	2.712511e-02	-2.31404e-02	3.984734e-03	
3	8.000000e-07	5.831548e-02	-4.22155e-02	1.609999e-02	
4	1.600000e-06	1.318361e-01	-6.92258e-02	6.261025e-02	
5	3.200000e-06	3.045769e-01	-9.75467e-02	2.070302e-01	
6	6.400000e-06	6.817786e-01	-1.22467e-01	5.593117e-01	
7	1.280000e-05	1.464072e+00	-1.44406e-01	1.319666e+00	
8	2.560000e-05	3.052298e+00	-1.64554e-01	2.887743e+00	
9	4.019931e-05	4.873956e+00	-1.77101e-01	4.696855e+00	
10	6.019931e-05	7.374972e+00	-1.88092e-01	7.186880e+00	
11	8.019931e-05	9.878094e+00	-1.95784e-01	9.682311e+00	
12	1.001993e-04	1.238139e+01	-2.01712e-01	1.217968e+01	
13	1.201993e-04	1.488378e+01	-2.06557e-01	1.467722e+01	
14	1.401993e-04	1.738458e+01	-2.10606e-01	1.717398e+01	
15	1.601993e-04	1.988316e+01	-2.14106e-01	1.966905e+01	
16	1.801993e-04	2.237897e+01	-2.17189e-01	2.216179e+01	
17	2.001993e-04	2.487156e+01	-2.19940e-01	2.465162e+01	
18	2.201993e-04	2.736044e+01	-2.22424e-01	2.713802e+01	
19	2.401993e-04	2.984519e+01	-2.24686e-01	2.962051e+01	
20	2.601993e-04	3.232538e+01	-2.26763e-01	3.209862e+01	
21	2.801993e-04	3.480059e+01	-2.28683e-01	3.457191e+01	
22	3.001993e-04	3.727040e+01	-2.30465e-01	3.703993e+01	
23	3.201993e-04	3.973441e+01	-2.32129e-01	3.950228e+01	
24	3.401993e-04	4.219221e+01	-2.33689e-01	4.195852e+01	
25	3.601993e-04	4.464340e+01	-2.35157e-01	4.440825e+01	
26	3.801993e-04	4.708759e+01	-2.36541e-01	4.685105e+01	
27	4.001993e-04	4.952438e+01	-2.37852e-01	4.928653e+01	
28	4.201993e-04	5.195338e+01	-2.39095e-01	5.171429e+01	
29	4.401993e-04	5.437420e+01	-2.40277e-01	5.413393e+01	
30	4.601993e-04	5.678646e+01	-2.41404e-01	5.654505e+01	
31	4.801993e-04	5.918975e+01	-2.42480e-01	5.894727e+01	
32	5.001993e-04	6.158371e+01	-2.43509e-01	6.134020e+01	
33	5.201993e-04	6.396795e+01	-2.44495e-01	6.372345e+01	
34	5.401993e-04	6.634209e+01	-2.45440e-01	6.609665e+01	
35	5.601993e-04	6.870575e+01	-2.46349e-01	6.845940e+01	
36	5.801993e-04	7.105855e+01	-2.47222e-01	7.081133e+01	
37	6.001993e-04	7.340013e+01	-2.48063e-01	7.315207e+01	
38	6.201993e-04	7.573011e+01	-2.48874e-01	7.548124e+01	
39	6.401993e-04	7.804813e+01	-2.49656e-01	7.779847e+01	
40	6.601993e-04	8.035380e+01	-2.50411e-01	8.010339e+01	
41	6.801993e-04	8.264677e+01	-2.51141e-01	8.239563e+01	
42	7.001993e-04	8.492667e+01	-2.51846e-01	8.467483e+01	
43	7.201993e-04	8.719315e+01	-2.52529e-01	8.694062e+01	
44	7.401993e-04	8.944584e+01	-2.53190e-01	8.919265e+01	
45	7.601993e-04	9.168438e+01	-2.53831e-01	9.143055e+01	
46	7.801993e-04	9.390843e+01	-2.54453e-01	9.365398e+01	
47	8.001993e-04	9.611763e+01	-2.55055e-01	9.586257e+01	
48	8.201993e-04	9.831162e+01	-2.55641e-01	9.805598e+01	
49	8.401993e-04	1.004901e+02	-2.56209e-01	1.002339e+02	
50	8.601993e-04	1.026526e+02	-2.56761e-01	1.023959e+02	
51	8.801993e-04	1.047989e+02	-2.57297e-01	1.045416e+02	
52	9.001993e-04	1.069287e+02	-2.57818e-01	1.066709e+02	
53	9.201993e-04	1.090415e+02	-2.58325e-01	1.087832e+02	
54	9.401993e-04	1.111371e+02	-2.58819e-01	1.108783e+02	

Index   time            in1             in2             out1            
--------------------------------------------------------------------------------
55	9.601993e-04	1.132151e+02	-2.59299e-01	1.129558e+02	
56	9.801993e-04	1.152752e+02	-2.59766e-01	1.150155e+02	
57	1.000199e-03	1.173171e+02	-2.60221e-01	1.170569e+02	
58	1.020199e-03	1.193404e+02	-2.60664e-01	1.190797e+02	
59	1.040199e-03	1.213448e+02	-2.61096e-01	1.210838e+02	
60	1.060199e-03	1.233301e+02	-2.61516e-01	1.230686e+02	
61	1.080199e-03	1.252958e+02	-2.61926e-01	1.250339e+02	
62	1.100199e-03	1.272418e+02	-2.62325e-01	1.269794e+02	
63	1.120199e-03	1.291676e+02	-2.62715e-01	1.289049e+02	
64	1.140199e-03	1.310729e+02	-2.63094e-01	1.308099e+02	
65	1.160199e-03	1.329576e+02	-2.63464e-01	1.326941e+02	
66	1.180199e-03	1.348212e+02	-2.63825e-01	1.345574e+02	
67	1.200199e-03	1.366635e+02	-2.64176e-01	1.363993e+02	
68	1.220199e-03	1.384842e+02	-2.64519e-01	1.382197e+02	
69	1.240199e-03	1.402830e+02	-2.64853e-01	1.400181e+02	
70	1.260199e-03	1.420596e+02	-2.65179e-01	1.417944e+02	
71	1.280199e-03	1.438137e+02	-2.65497e-01	1.435482e+02	
72	1.300199e-03	1.455451e+02	-2.65807e-01	1.452793e+02	
73	1.320199e-03	1.472534e+02	-2.66110e-01	1.469873e+02	
74	1.340199e-03	1.489385e+02	-2.66404e-01	1.486721e+02	
75	1.360199e-03	1.506000e+02	-2.66692e-01	1.503333e+02	
76	1.380199e-03	1.522377e+02	-2.66972e-01	1.519708e+02	
77	1.400199e-03	1.538514e+02	-2.67245e-01	1.535841e+02	
78	1.420199e-03	1.554407e+02	-2.67511e-01	1.551732e+02	
79	1.440199e-03	1.570054e+02	-2.67771e-01	1.567376e+02	
80	1.460199e-03	1.585453e+02	-2.68023e-01	1.582773e+02	
81	1.480199e-03	1.600601e+02	-2.68270e-01	1.597918e+02	
82	1.500199e-03	1.615496e+02	-2.68510e-01	1.612811e+02	
83	1.520199e-03	1.630136e+02	-2.68743e-01	1.627448e+02	
84	1.540199e-03	1.644518e+02	-2.68971e-01	1.641828e+02	
85	1.560199e-03	1.658639e+02	-2.69192e-01	1.655947e+02	
86	1.580199e-03	1.672499e+02	-2.69408e-01	1.669805e+02	
87	1.600199e-03	1.686094e+02	-2.69618e-01	1.683398e+02	
88	1.620199e-03	1.699422e+02	-2.69821e-01	1.696724e+02	
89	1.640199e-03	1.712482e+02	-2.70020e-01	1.709782e+02	
90	1.660199e-03	1.725271e+02	-2.70212e-01	1.722569e+02	
91	1.680199e-03	1.737787e+02	-2.70400e-01	1.735083e+02	
92	1.700199e-03	1.750028e+02	-2.70581e-01	1.747322e+02	
93	1.720199e-03	1.761993e+02	-2.70758e-01	1.759285e+02	
94	1.740199e-03	1.773679e+02	-2.70929e-01	1.770969e+02	
95	1.760199e-03	1.785084e+02	-2.71095e-01	1.782373e+02	
96	1.780199e-03	1.796207e+02	-2.71256e-01	1.793495e+02	
97	1.800199e-03	1.807047e+02	-2.71412e-01	1.804332e+02	
98	1.820199e-03	1.817600e+02	-2.71563e-01	1.814884e+02	
99	1.840199e-03	1.827866e+02	-2.71708e-01	1.825149e+02	
100	1.860199e-03	1.837843e+02	-2.71849e-01	1.835125e+02	
101	1.880199e-03	1.847530e+02	-2.71986e-01	1.844810e+02	
102	1.900199e-03	1.856924e+02	-2.72117e-01	1.854203e+02	
103	1.920199e-03	1.866025e+02	-2.72244e-01	1.863302e+02	
104	1.940199e-03	1.874830e+02	-2.72365e-01	1.872107e+02	
105	1.960199e-03	1.883340e+02	-2.72483e-01	1.880615e+02	
106	1.980199e-03	1.891551e+02	-2.72595e-01	1.888825e+02	
107	2.000000e-03	1.899386e+02	-2.72702e-01	1.896659e+02	
108	2.000044e-03	1.899403e+02	-2.72706e-01	1.896676e+02	
109	2.000131e-03	1.899437e+02	-2.72720e-01	1.896709e+02	
110	2.000198e-03	1.899462e+02	-2.72740e-01	1.896735e+02	
111	2.000264e-03	1.899488e+02	-2.72767e-01	1.896760e+02	
112	2.000397e-03	1.899539e+02	-2.72845e-01	1.896810e+02	

Index   time            in1             in2             out1            
--------------------------------------------------------------------------------
113	2.000663e-03	1.899639e+02	-2.73091e-01	1.896908e+02	
114	2.001194e-03	1.899837e+02	-2.73935e-01	1.897097e+02	
115	2.002159e-03	1.900181e+02	-2.76869e-01	1.897412e+02	
116	2.003481e-03	1.900619e+02	-2.84141e-01	1.897777e+02	
117	2.005391e-03	1.901168e+02	-3.02762e-01	1.898140e+02	
118	2.007875e-03	1.901728e+02	-3.42011e-01	1.898308e+02	
119	2.009100e-03	1.901951e+02	-3.66509e-01	1.898285e+02	
120	2.010029e-03	1.902102e+02	-3.86747e-01	1.898235e+02	
121	2.010753e-03	1.902208e+02	-4.03686e-01	1.898172e+02	
122	2.011408e-03	1.902301e+02	-4.19265e-01	1.898109e+02	
123	2.012030e-03	1.902384e+02	-4.34584e-01	1.898038e+02	
124	2.012625e-03	1.902459e+02	-4.49640e-01	1.897963e+02	
125	2.013194e-03	1.902527e+02	-4.64387e-01	1.897884e+02	
126	2.013741e-03	1.902590e+02	-4.78852e-01	1.897801e+02	
127	2.014328e-03	1.902653e+02	-4.94738e-01	1.897705e+02	
128	2.014858e-03	1.902707e+02	-5.09218e-01	1.897615e+02	
129	2.015399e-03	1.902760e+02	-5.24350e-01	1.897517e+02	
130	2.015904e-03	1.902808e+02	-5.38607e-01	1.897422e+02	
131	2.016413e-03	1.902853e+02	-5.53261e-01	1.897320e+02	
132	2.016900e-03	1.902894e+02	-5.67432e-01	1.897220e+02	
133	2.017388e-03	1.902933e+02	-5.81876e-01	1.897114e+02	
134	2.017860e-03	1.902968e+02	-5.96081e-01	1.897007e+02	
135	2.018330e-03	1.902999e+02	-6.10539e-01	1.896894e+02	
136	2.018529e-03	1.903013e+02	-6.16629e-01	1.896847e+02	
137	2.018856e-03	1.903030e+02	-6.27099e-01	1.896759e+02	
138	2.019068e-03	1.903040e+02	-6.34114e-01	1.896699e+02	
139	2.019311e-03	1.903048e+02	-6.42367e-01	1.896624e+02	
140	2.019796e-03	1.903048e+02	-6.60532e-01	1.896442e+02	
141	2.020000e-03	1.903045e+02	-6.68418e-01	1.896361e+02	
142	2.020097e-03	1.903039e+02	-6.72637e-01	1.896313e+02	
143	2.020291e-03	1.903021e+02	-6.81627e-01	1.896205e+02	
144	2.020679e-03	1.902922e+02	-7.06052e-01	1.895862e+02	
145	2.020764e-03	1.902873e+02	-7.14117e-01	1.895732e+02	
146	2.020934e-03	1.902675e+02	-7.40208e-01	1.895273e+02	
147	2.020958e-03	1.902623e+02	-7.46333e-01	1.895160e+02	
148	2.021005e-03	1.902466e+02	-7.63812e-01	1.894828e+02	
149	2.021017e-03	1.902396e+02	-7.71214e-01	1.894684e+02	
150	2.021040e-03	1.902145e+02	-7.97172e-01	1.894174e+02	
151	2.021043e-03	1.902088e+02	-8.02993e-01	1.894058e+02	
152	2.021050e-03	1.901942e+02	-8.17879e-01	1.893763e+02	
153	2.021058e-03	1.901673e+02	-8.45016e-01	1.893223e+02	
154	2.021067e-03	1.901627e+02	-8.49992e-01	1.893127e+02	
155	2.021076e-03	1.901630e+02	-8.50083e-01	1.893129e+02	
156	2.021088e-03	1.901634e+02	-8.50084e-01	1.893133e+02	
157	2.021110e-03	1.901642e+02	-8.50084e-01	1.893141e+02	
158	2.021154e-03	1.901659e+02	-8.50084e-01	1.893158e+02	
159	2.021242e-03	1.901691e+02	-8.50085e-01	1.893191e+02	
160	2.021419e-03	1.901757e+02	-8.50086e-01	1.893256e+02	
161	2.021771e-03	1.901888e+02	-8.50087e-01	1.893387e+02	
162	2.022477e-03	1.902150e+02	-8.50091e-01	1.893649e+02	
163	2.023888e-03	1.902674e+02	-8.50098e-01	1.894173e+02	
164	2.026710e-03	1.903715e+02	-8.50112e-01	1.895214e+02	
165	2.030477e-03	1.905097e+02	-8.50131e-01	1.896596e+02	
166	2.034993e-03	1.906739e+02	-8.50154e-01	1.898238e+02	
167	2.040196e-03	1.908612e+02	-8.50179e-01	1.900110e+02	
168	2.046427e-03	1.910828e+02	-8.50210e-01	1.902326e+02	
169	2.053902e-03	1.913447e+02	-8.50246e-01	1.904945e+02	
170	2.063221e-03	1.916653e+02	-8.50289e-01	1.908150e+02	

Index   time            in1             in2             out1            
--------------------------------------------------------------------------------
171	2.075067e-03	1.920633e+02	-8.50343e-01	1.912130e+02	
172	2.091145e-03	1.925865e+02	-8.50414e-01	1.917361e+02	
173	2.111145e-03	1.932097e+02	-8.50499e-01	1.923592e+02	
174	2.131145e-03	1.938022e+02	-8.50578e-01	1.929516e+02	
175	2.151145e-03	1.943640e+02	-8.50654e-01	1.935134e+02	
176	2.171145e-03	1.948950e+02	-8.50725e-01	1.940443e+02	
177	2.191145e-03	1.953951e+02	-8.50792e-01	1.945443e+02	
178	2.211145e-03	1.958642e+02	-8.50855e-01	1.950134e+02	
179	2.231145e-03	1.963022e+02	-8.50913e-01	1.954513e+02	
180	2.251145e-03	1.967092e+02	-8.50967e-01	1.958582e+02	
181	2.271145e-03	1.970849e+02	-8.51017e-01	1.962339e+02	
182	2.291145e-03	1.974293e+02	-8.51062e-01	1.965783e+02	
183	2.311145e-03	1.977425e+02	-8.51103e-01	1.968914e+02	
184	2.331145e-03	1.980243e+02	-8.51141e-01	1.971732e+02	
185	2.351145e-03	1.982747e+02	-8.51174e-01	1.974235e+02	
186	2.371145e-03	1.984937e+02	-8.51203e-01	1.976425e+02	
187	2.391145e-03	1.986812e+02	-8.51227e-01	1.978299e+02	
188	2.411145e-03	1.988371e+02	-8.51248e-01	1.979859e+02	
189	2.431145e-03	1.989616e+02	-8.51264e-01	1.981103e+02	
190	2.451145e-03	1.990545e+02	-8.51276e-01	1.982032e+02	
191	2.471145e-03	1.991158e+02	-8.51284e-01	1.982646e+02	
192	2.491145e-03	1.991456e+02	-8.51288e-01	1.982943e+02	
193	2.511145e-03	1.991438e+02	-8.51288e-01	1.982925e+02	
194	2.531145e-03	1.991104e+02	-8.51283e-01	1.982591e+02	
195	2.551145e-03	1.990455e+02	-8.51275e-01	1.981942e+02	
196	2.571145e-03	1.989489e+02	-8.51262e-01	1.980977e+02	
197	2.591145e-03	1.988209e+02	-8.51245e-01	1.979696e+02	
198	2.611145e-03	1.986613e+02	-8.51225e-01	1.978101e+02	
199	2.631145e-03	1.984702e+02	-8.51200e-01	1.976190e+02	
200	2.651145e-03	1.982476e+02	-8.51170e-01	1.973965e+02	
201	2.671145e-03	1.979936e+02	-8.51137e-01	1.971425e+02	
202	2.691145e-03	1.977082e+02	-8.51099e-01	1.968571e+02	
203	2.711145e-03	1.973915e+02	-8.51057e-01	1.965404e+02	
204	2.731145e-03	1.970434e+02	-8.51011e-01	1.961924e+02	
205	2.751145e-03	1.966641e+02	-8.50961e-01	1.958132e+02	
206	2.771145e-03	1.962537e+02	-8.50906e-01	1.954028e+02	
207	2.791145e-03	1.958121e+02	-8.50848e-01	1.949612e+02	
208	2.811145e-03	1.953394e+02	-8.50785e-01	1.944886e+02	
209	2.831145e-03	1.948358e+02	-8.50717e-01	1.939851e+02	
210	2.851145e-03	1.943013e+02	-8.50646e-01	1.934506e+02	
211	2.871145e-03	1.937359e+02	-8.50570e-01	1.928854e+02	
212	2.891145e-03	1.931399e+02	-8.50489e-01	1.922894e+02	
213	2.911145e-03	1.925132e+02	-8.50404e-01	1.916628e+02	
214	2.931145e-03	1.918560e+02	-8.50315e-01	1.910056e+02	
215	2.951145e-03	1.911683e+02	-8.50221e-01	1.903181e+02	
216	2.971145e-03	1.904504e+02	-8.50123e-01	1.896002e+02	
217	2.991145e-03	1.897022e+02	-8.50021e-01	1.888522e+02	
218	3.011145e-03	1.889239e+02	-8.49913e-01	1.880740e+02	
219	3.020000e-03	1.885698e+02	-8.49864e-01	1.877199e+02	
220	3.022000e-03	1.884890e+02	-8.49853e-01	1.876391e+02	
221	3.026000e-03	1.883265e+02	-8.49831e-01	1.874767e+02	
222	3.034000e-03	1.879979e+02	-8.49785e-01	1.871481e+02	
223	3.040000e-03	1.877484e+02	-8.49750e-01	1.868986e+02	
224	3.041600e-03	1.876814e+02	-8.49741e-01	1.868316e+02	
225	3.044800e-03	1.875468e+02	-8.49722e-01	1.866971e+02	
226	3.051200e-03	1.872753e+02	-8.49685e-01	1.864257e+02	
227	3.064000e-03	1.867233e+02	-8.49607e-01	1.858737e+02	
228	3.084000e-03	1.858366e+02	-8.49483e-01	1.849871e+02	

Index   time            in1             in2             out1            
--------------------------------------------------------------------------------
229	3.104000e-03	1.849203e+02	-8.49354e-01	1.840710e+02	
230	3.124000e-03	1.839747e+02	-8.49220e-01	1.831255e+02	
231	3.144000e-03	1.830000e+02	-8.49082e-01	1.821509e+02	
232	3.164000e-03	1.819962e+02	-8.48938e-01	1.811473e+02	
233	3.184000e-03	1.809635e+02	-8.48790e-01	1.801148e+02	
234	3.204000e-03	1.799022e+02	-8.48636e-01	1.790535e+02	
235	3.224000e-03	1.788123e+02	-8.48477e-01	1.779638e+02	
236	3.244000e-03	1.776940e+02	-8.48314e-01	1.768457e+02	
237	3.264000e-03	1.765476e+02	-8.48145e-01	1.756994e+02	
238	3.284000e-03	1.753731e+02	-8.47970e-01	1.745251e+02	
239	3.304000e-03	1.741708e+02	-8.47791e-01	1.733230e+02	
240	3.324000e-03	1.729409e+02	-8.47606e-01	1.720933e+02	
241	3.344000e-03	1.716836e+02	-8.47415e-01	1.708362e+02	
242	3.364000e-03	1.703990e+02	-8.47219e-01	1.695518e+02	
243	3.384000e-03	1.690874e+02	-8.47017e-01	1.682403e+02	
244	3.404000e-03	1.677489e+02	-8.46809e-01	1.669021e+02	
245	3.424000e-03	1.663838e+02	-8.46596e-01	1.655372e+02	
246	3.444000e-03	1.649924e+02	-8.46376e-01	1.641460e+02	
247	3.464000e-03	1.635747e+02	-8.46151e-01	1.627286e+02	
248	3.484000e-03	1.621311e+02	-8.45919e-01	1.612852e+02	
249	3.504000e-03	1.606618e+02	-8.45681e-01	1.598161e+02	
250	3.524000e-03	1.591669e+02	-8.45437e-01	1.583215e+02	
251	3.544000e-03	1.576468e+02	-8.45186e-01	1.568016e+02	
252	3.564000e-03	1.561017e+02	-8.44929e-01	1.552568e+02	
253	3.584000e-03	1.545318e+02	-8.44664e-01	1.536871e+02	
254	3.604000e-03	1.529374e+02	-8.44393e-01	1.520930e+02	
255	3.624000e-03	1.513187e+02	-8.44115e-01	1.504745e+02	
256	3.644000e-03	1.496759e+02	-8.43829e-01	1.488321e+02	
257	3.664000e-03	1.480094e+02	-8.43536e-01	1.471659e+02	
258	3.684000e-03	1.463195e+02	-8.43236e-01	1.454762e+02	
259	3.704000e-03	1.446062e+02	-8.42928e-01	1.437633e+02	
260	3.724000e-03	1.428701e+02	-8.42612e-01	1.420275e+02	
261	3.744000e-03	1.411112e+02	-8.42288e-01	1.402689e+02	
262	3.764000e-03	1.393299e+02	-8.41955e-01	1.384880e+02	
263	3.784000e-03	1.375265e+02	-8.41614e-01	1.366849e+02	
264	3.804000e-03	1.357013e+02	-8.41264e-01	1.348600e+02	
265	3.824000e-03	1.338545e+02	-8.40905e-01	1.330136e+02	
266	3.844000e-03	1.319865e+02	-8.40537e-01	1.311459e+02	
267	3.864000e-03	1.300974e+02	-8.40159e-01	1.292573e+02	
268	3.884000e-03	1.281878e+02	-8.39772e-01	1.273480e+02	
269	3.904000e-03	1.262577e+02	-8.39374e-01	1.254183e+02	
270	3.924000e-03	1.243076e+02	-8.38967e-01	1.234686e+02	
271	3.944000e-03	1.223378e+02	-8.38548e-01	1.214992e+02	
272	3.964000e-03	1.203485e+02	-8.38118e-01	1.195103e+02	
273	3.984000e-03	1.183400e+02	-8.37676e-01	1.175024e+02	
274	4.004000e-03	1.163128e+02	-8.37223e-01	1.154756e+02	
275	4.024000e-03	1.142671e+02	-8.36757e-01	1.134303e+02	
276	4.044000e-03	1.122032e+02	-8.36279e-01	1.113669e+02	
277	4.064000e-03	1.101215e+02	-8.35787e-01	1.092857e+02	
278	4.084000e-03	1.080223e+02	-8.35282e-01	1.071870e+02	
279	4.104000e-03	1.059059e+02	-8.34762e-01	1.050711e+02	
280	4.124000e-03	1.037726e+02	-8.34227e-01	1.029384e+02	
281	4.144000e-03	1.016229e+02	-8.33677e-01	1.007892e+02	
282	4.164000e-03	9.945696e+01	-8.33110e-01	9.862385e+01	
283	4.184000e-03	9.727523e+01	-8.32527e-01	9.644270e+01	
284	4.204000e-03	9.507803e+01	-8.31926e-01	9.424610e+01	
285	4.224000e-03	9.286570e+01	-8.31306e-01	9.203439e+01	
286	4.244000e-03	9.063859e+01	-8.30666e-01	8.980792e+01	

Index   time            in1             in2             out1            
--------------------------------------------------------------------------------
287	4.264000e-03	8.839706e+01	-8.30006e-01	8.756705e+01	
288	4.284000e-03	8.614146e+01	-8.29325e-01	8.531214e+01	
289	4.304000e-03	8.387215e+01	-8.28621e-01	8.304353e+01	
290	4.324000e-03	8.158949e+01	-8.27893e-01	8.076160e+01	
291	4.344000e-03	7.929384e+01	-8.27139e-01	7.846670e+01	
292	4.364000e-03	7.698557e+01	-8.26359e-01	7.615921e+01	
293	4.384000e-03	7.466504e+01	-8.25550e-01	7.383949e+01	
294	4.404000e-03	7.233261e+01	-8.24710e-01	7.150790e+01	
295	4.424000e-03	6.998867e+01	-8.23838e-01	6.916483e+01	
296	4.444000e-03	6.763358e+01	-8.22931e-01	6.681065e+01	
297	4.464000e-03	6.526771e+01	-8.21987e-01	6.444573e+01	
298	4.484000e-03	6.289145e+01	-8.21003e-01	6.207045e+01	
299	4.504000e-03	6.050518e+01	-8.19975e-01	5.968520e+01	
300	4.524000e-03	5.810926e+01	-8.18901e-01	5.729036e+01	
301	4.544000e-03	5.570409e+01	-8.17775e-01	5.488632e+01	
302	4.564000e-03	5.329005e+01	-8.16594e-01	5.247346e+01	
303	4.584000e-03	5.086753e+01	-8.15353e-01	5.005218e+01	
304	4.604000e-03	4.843691e+01	-8.14043e-01	4.762287e+01	
305	4.624000e-03	4.599860e+01	-8.12660e-01	4.518594e+01	
306	4.644000e-03	4.355297e+01	-8.11194e-01	4.274177e+01	
307	4.664000e-03	4.110042e+01	-8.09636e-01	4.029079e+01	
308	4.684000e-03	3.864137e+01	-8.07973e-01	3.783339e+01	
309	4.704000e-03	3.617620e+01	-8.06192e-01	3.537001e+01	
310	4.724000e-03	3.370533e+01	-8.04275e-01	3.290106e+01	
311	4.744000e-03	3.122917e+01	-8.02199e-01	3.042697e+01	
312	4.764000e-03	2.874814e+01	-7.99938e-01	2.794820e+01	
313	4.784000e-03	2.626266e+01	-7.97456e-01	2.546520e+01	
314	4.804000e-03	2.377317e+01	-7.94708e-01	2.297846e+01	
315	4.824000e-03	2.128014e+01	-7.91626e-01	2.048851e+01	
316	4.844000e-03	1.878404e+01	-7.88123e-01	1.799592e+01	
317	4.864000e-03	1.628540e+01	-7.84070e-01	1.550133e+01	
318	4.884000e-03	1.378483e+01	-7.79260e-01	1.300557e+01	
319	4.904000e-03	1.128305e+01	-7.73350e-01	1.050970e+01	
320	4.924000e-03	8.781127e+00	-7.65685e-01	8.015442e+00	
321	4.944000e-03	6.280920e+00	-7.54796e-01	5.526124e+00	
322	4.964000e-03	3.787638e+00	-7.35870e-01	3.051768e+00	
323	4.979124e-03	1.926828e+00	-6.96403e-01	1.230425e+00	
324	4.986833e-03	1.124310e+00	-5.30267e-01	5.940437e-01	
325	4.991647e-03	7.746806e-01	-2.75045e-01	4.996354e-01	
326	4.994566e-03	5.888548e-01	-9.40435e-02	4.948113e-01	
327	4.997069e-03	4.297739e-01	6.144662e-02	4.912205e-01	
328	4.999808e-03	2.559319e-01	2.317456e-01	4.876775e-01	
329	5.003458e-03	2.206805e-02	4.566584e-01	4.787265e-01	
330	5.007577e-03	-1.54263e-01	7.978868e-01	6.436233e-01	
331	5.011475e-03	-1.65025e-01	1.276961e+00	1.111937e+00	
