 * /home/fossee/updatedexamples/fullwaverectifier_scr/fullwaverectifier_scr.cir
 Transient Analysis  Fri Sep  1 14:40:40  2017
--------------------------------------------------------------------------------
Index   time            v.x1.v1#branch  v.x1.v2#branch  v.x1.vf1#branch 
--------------------------------------------------------------------------------
0	0.000000e+00	0.000000e+00	-1.60868e-26	0.000000e+00	
1	2.000000e-07	0.000000e+00	9.894081e-16	0.000000e+00	
2	4.000000e-07	0.000000e+00	3.984734e-15	0.000000e+00	
3	8.000000e-07	0.000000e+00	1.609999e-14	0.000000e+00	
4	1.600000e-06	0.000000e+00	6.261025e-14	0.000000e+00	
5	3.200000e-06	0.000000e+00	2.070302e-13	0.000000e+00	
6	6.400000e-06	0.000000e+00	5.593116e-13	0.000000e+00	
7	1.280000e-05	0.000000e+00	1.319666e-12	0.000000e+00	
8	2.560000e-05	0.000000e+00	2.887743e-12	0.000000e+00	
9	4.019931e-05	0.000000e+00	4.696855e-12	0.000000e+00	
10	6.019931e-05	0.000000e+00	7.186879e-12	0.000000e+00	
11	8.019931e-05	0.000000e+00	9.682309e-12	0.000000e+00	
12	1.001993e-04	0.000000e+00	1.217967e-11	0.000000e+00	
13	1.201993e-04	0.000000e+00	1.467722e-11	0.000000e+00	
14	1.401993e-04	0.000000e+00	1.717397e-11	0.000000e+00	
15	1.601993e-04	0.000000e+00	1.966904e-11	0.000000e+00	
16	1.801993e-04	0.000000e+00	2.216178e-11	0.000000e+00	
17	2.001993e-04	0.000000e+00	2.465160e-11	0.000000e+00	
18	2.201993e-04	0.000000e+00	2.713800e-11	0.000000e+00	
19	2.401993e-04	0.000000e+00	2.962049e-11	0.000000e+00	
20	2.601993e-04	0.000000e+00	3.209860e-11	0.000000e+00	
21	2.801993e-04	0.000000e+00	3.457188e-11	0.000000e+00	
22	3.001993e-04	0.000000e+00	3.703991e-11	0.000000e+00	
23	3.201993e-04	0.000000e+00	3.950225e-11	0.000000e+00	
24	3.401993e-04	0.000000e+00	4.195848e-11	0.000000e+00	
25	3.601993e-04	0.000000e+00	4.440821e-11	0.000000e+00	
26	3.801993e-04	0.000000e+00	4.685101e-11	0.000000e+00	
27	4.001993e-04	0.000000e+00	4.928648e-11	0.000000e+00	
28	4.201993e-04	0.000000e+00	5.171424e-11	0.000000e+00	
29	4.401993e-04	0.000000e+00	5.413387e-11	0.000000e+00	
30	4.601993e-04	0.000000e+00	5.654499e-11	0.000000e+00	
31	4.801993e-04	0.000000e+00	5.894720e-11	0.000000e+00	
32	5.001993e-04	0.000000e+00	6.134012e-11	0.000000e+00	
33	5.201993e-04	0.000000e+00	6.372337e-11	0.000000e+00	
34	5.401993e-04	0.000000e+00	6.609656e-11	0.000000e+00	
35	5.601993e-04	0.000000e+00	6.845930e-11	0.000000e+00	
36	5.801993e-04	0.000000e+00	7.081123e-11	0.000000e+00	
37	6.001993e-04	0.000000e+00	7.315196e-11	0.000000e+00	
38	6.201993e-04	0.000000e+00	7.548112e-11	0.000000e+00	
39	6.401993e-04	0.000000e+00	7.779834e-11	0.000000e+00	
40	6.601993e-04	0.000000e+00	8.010325e-11	0.000000e+00	
41	6.801993e-04	0.000000e+00	8.239549e-11	0.000000e+00	
42	7.001993e-04	0.000000e+00	8.467468e-11	0.000000e+00	
43	7.201993e-04	0.000000e+00	8.694046e-11	0.000000e+00	
44	7.401993e-04	0.000000e+00	8.919248e-11	0.000000e+00	
45	7.601993e-04	0.000000e+00	9.143037e-11	0.000000e+00	
46	7.801993e-04	0.000000e+00	9.365379e-11	0.000000e+00	
47	8.001993e-04	0.000000e+00	9.586237e-11	0.000000e+00	
48	8.201993e-04	0.000000e+00	9.805577e-11	0.000000e+00	
49	8.401993e-04	0.000000e+00	1.002336e-10	0.000000e+00	
50	8.601993e-04	0.000000e+00	1.023956e-10	0.000000e+00	
51	8.801993e-04	0.000000e+00	1.045414e-10	0.000000e+00	
52	9.001993e-04	0.000000e+00	1.066706e-10	0.000000e+00	
53	9.201993e-04	0.000000e+00	1.087829e-10	0.000000e+00	
54	9.401993e-04	0.000000e+00	1.108780e-10	0.000000e+00	

Index   time            v.x1.v1#branch  v.x1.v2#branch  v.x1.vf1#branch 
--------------------------------------------------------------------------------
55	9.601993e-04	0.000000e+00	1.129555e-10	0.000000e+00	
56	9.801993e-04	0.000000e+00	1.150152e-10	0.000000e+00	
57	1.000199e-03	0.000000e+00	1.170566e-10	0.000000e+00	
58	1.020199e-03	0.000000e+00	1.190794e-10	0.000000e+00	
59	1.040199e-03	0.000000e+00	1.210834e-10	0.000000e+00	
60	1.060199e-03	0.000000e+00	1.230682e-10	0.000000e+00	
61	1.080199e-03	0.000000e+00	1.250336e-10	0.000000e+00	
62	1.100199e-03	0.000000e+00	1.269791e-10	0.000000e+00	
63	1.120199e-03	0.000000e+00	1.289045e-10	0.000000e+00	
64	1.140199e-03	0.000000e+00	1.308095e-10	0.000000e+00	
65	1.160199e-03	0.000000e+00	1.326937e-10	0.000000e+00	
66	1.180199e-03	0.000000e+00	1.345570e-10	0.000000e+00	
67	1.200199e-03	0.000000e+00	1.363989e-10	0.000000e+00	
68	1.220199e-03	0.000000e+00	1.382192e-10	0.000000e+00	
69	1.240199e-03	0.000000e+00	1.400176e-10	0.000000e+00	
70	1.260199e-03	0.000000e+00	1.417939e-10	0.000000e+00	
71	1.280199e-03	0.000000e+00	1.435477e-10	0.000000e+00	
72	1.300199e-03	0.000000e+00	1.452787e-10	0.000000e+00	
73	1.320199e-03	0.000000e+00	1.469868e-10	0.000000e+00	
74	1.340199e-03	0.000000e+00	1.486716e-10	0.000000e+00	
75	1.360199e-03	0.000000e+00	1.503328e-10	0.000000e+00	
76	1.380199e-03	0.000000e+00	1.519702e-10	0.000000e+00	
77	1.400199e-03	0.000000e+00	1.535835e-10	0.000000e+00	
78	1.420199e-03	0.000000e+00	1.551726e-10	0.000000e+00	
79	1.440199e-03	0.000000e+00	1.567370e-10	0.000000e+00	
80	1.460199e-03	0.000000e+00	1.582766e-10	0.000000e+00	
81	1.480199e-03	0.000000e+00	1.597912e-10	0.000000e+00	
82	1.500199e-03	0.000000e+00	1.612804e-10	0.000000e+00	
83	1.520199e-03	0.000000e+00	1.627441e-10	0.000000e+00	
84	1.540199e-03	0.000000e+00	1.641821e-10	0.000000e+00	
85	1.560199e-03	0.000000e+00	1.655940e-10	0.000000e+00	
86	1.580199e-03	0.000000e+00	1.669797e-10	0.000000e+00	
87	1.600199e-03	0.000000e+00	1.683390e-10	0.000000e+00	
88	1.620199e-03	0.000000e+00	1.696716e-10	0.000000e+00	
89	1.640199e-03	0.000000e+00	1.709774e-10	0.000000e+00	
90	1.660199e-03	0.000000e+00	1.722561e-10	0.000000e+00	
91	1.680199e-03	0.000000e+00	1.735075e-10	0.000000e+00	
92	1.700199e-03	0.000000e+00	1.747314e-10	0.000000e+00	
93	1.720199e-03	0.000000e+00	1.759276e-10	0.000000e+00	
94	1.740199e-03	0.000000e+00	1.770960e-10	0.000000e+00	
95	1.760199e-03	0.000000e+00	1.782364e-10	0.000000e+00	
96	1.780199e-03	0.000000e+00	1.793486e-10	0.000000e+00	
97	1.800199e-03	0.000000e+00	1.804323e-10	0.000000e+00	
98	1.820199e-03	0.000000e+00	1.814875e-10	0.000000e+00	
99	1.840199e-03	0.000000e+00	1.825139e-10	0.000000e+00	
100	1.860199e-03	0.000000e+00	1.835115e-10	0.000000e+00	
101	1.880199e-03	0.000000e+00	1.844800e-10	0.000000e+00	
102	1.900199e-03	0.000000e+00	1.854192e-10	0.000000e+00	
103	1.920199e-03	0.000000e+00	1.863292e-10	0.000000e+00	
104	1.940199e-03	0.000000e+00	1.872096e-10	0.000000e+00	
105	1.960199e-03	0.000000e+00	1.880604e-10	0.000000e+00	
106	1.980199e-03	0.000000e+00	1.888814e-10	0.000000e+00	
107	2.000000e-03	0.000000e+00	1.896647e-10	0.000000e+00	
108	2.000044e-03	2.180071e-04	1.897160e-10	2.180071e-04	
109	2.000131e-03	6.540214e-04	1.899174e-10	6.540214e-04	
110	2.000198e-03	9.883632e-04	1.902056e-10	9.883632e-04	
111	2.000264e-03	1.320399e-03	1.906064e-10	1.320399e-03	
112	2.000397e-03	1.984471e-03	1.917477e-10	1.984471e-03	

Index   time            v.x1.v1#branch  v.x1.v2#branch  v.x1.vf1#branch 
--------------------------------------------------------------------------------
113	2.000663e-03	3.312615e-03	1.953851e-10	3.312615e-03	
114	2.001194e-03	5.968902e-03	2.081063e-10	5.968902e-03	
115	2.002159e-03	1.079335e-02	2.558761e-10	1.079335e-02	
116	2.003481e-03	1.740590e-02	3.998410e-10	1.740590e-02	
117	2.005391e-03	2.695707e-02	1.022513e-09	2.695707e-02	
118	2.007875e-03	3.937573e-02	5.338823e-09	3.937573e-02	
119	2.009100e-03	4.549984e-02	1.405878e-08	4.549984e-02	
120	2.010029e-03	5.014260e-02	3.099214e-08	5.014260e-02	
121	2.010753e-03	5.376588e-02	5.922140e-08	5.376588e-02	
122	2.011408e-03	5.703880e-02	1.085863e-07	5.703880e-02	
123	2.012030e-03	6.014801e-02	1.965687e-07	6.014801e-02	
124	2.012625e-03	6.312379e-02	3.521459e-07	6.312379e-02	
125	2.013194e-03	6.597135e-02	6.232451e-07	6.597135e-02	
126	2.013741e-03	6.870733e-02	1.090925e-06	6.870733e-02	
127	2.014328e-03	7.164185e-02	2.012087e-06	7.164185e-02	
128	2.014858e-03	7.428869e-02	3.529660e-06	7.428869e-02	
129	2.015399e-03	7.699578e-02	6.330129e-06	7.699578e-02	
130	2.015904e-03	7.951826e-02	1.099942e-05	7.951826e-02	
131	2.016413e-03	8.206588e-02	1.937288e-05	8.206588e-02	
132	2.016900e-03	8.450010e-02	3.353005e-05	8.450010e-02	
133	2.017388e-03	8.693996e-02	5.858852e-05	8.693996e-02	
134	2.017860e-03	8.930160e-02	1.014982e-04	8.930160e-02	
135	2.018330e-03	9.165062e-02	1.774397e-04	9.165062e-02	
136	2.018529e-03	9.264696e-02	2.259634e-04	9.264696e-02	
137	2.018856e-03	9.427882e-02	3.387209e-04	9.427882e-02	
138	2.019068e-03	9.534143e-02	4.440290e-04	9.534143e-02	
139	2.019311e-03	9.655481e-02	6.106808e-04	9.655481e-02	
140	2.019796e-03	9.898157e-02	1.216106e-03	9.898157e-02	
141	2.020000e-03	1.000000e-01	1.672008e-03	1.000000e-01	
142	2.020097e-03	1.000000e-01	1.969929e-03	1.000000e-01	
143	2.020291e-03	1.000000e-01	2.785159e-03	1.000000e-01	
144	2.020679e-03	1.000000e-01	7.161731e-03	1.000000e-01	
145	2.020764e-03	1.000000e-01	9.783501e-03	1.000000e-01	
146	2.020934e-03	1.000000e-01	2.683219e-02	1.000000e-01	
147	2.020958e-03	1.000000e-01	3.402377e-02	1.000000e-01	
148	2.021005e-03	1.000000e-01	6.689191e-02	1.000000e-01	
149	2.021017e-03	1.000000e-01	8.899748e-02	1.000000e-01	
150	2.021040e-03	1.000000e-01	2.427887e-01	1.000000e-01	
151	2.021043e-03	1.000000e-01	3.042585e-01	1.000000e-01	
152	2.021050e-03	1.000000e-01	5.370823e-01	1.000000e-01	
153	2.021058e-03	1.000000e-01	1.545073e+00	1.000000e-01	
154	2.021067e-03	1.000000e-01	1.872841e+00	1.000000e-01	
155	2.021076e-03	1.000000e-01	1.879489e+00	1.000000e-01	
156	2.021088e-03	1.000000e-01	1.879542e+00	1.000000e-01	
157	2.021110e-03	1.000000e-01	1.879550e+00	1.000000e-01	
158	2.021154e-03	1.000000e-01	1.879562e+00	1.000000e-01	
159	2.021242e-03	1.000000e-01	1.879605e+00	1.000000e-01	
160	2.021419e-03	1.000000e-01	1.879665e+00	1.000000e-01	
161	2.021771e-03	1.000000e-01	1.879796e+00	1.000000e-01	
162	2.022477e-03	1.000000e-01	1.880057e+00	1.000000e-01	
163	2.023888e-03	1.000000e-01	1.880584e+00	1.000000e-01	
164	2.026710e-03	1.000000e-01	1.881618e+00	1.000000e-01	
165	2.030477e-03	1.000000e-01	1.883006e+00	1.000000e-01	
166	2.034993e-03	1.000000e-01	1.884633e+00	1.000000e-01	
167	2.040196e-03	1.000000e-01	1.886503e+00	1.000000e-01	
168	2.046427e-03	1.000000e-01	1.888713e+00	1.000000e-01	
169	2.053902e-03	1.000000e-01	1.891323e+00	1.000000e-01	
170	2.063221e-03	1.000000e-01	1.894520e+00	1.000000e-01	

Index   time            v.x1.v1#branch  v.x1.v2#branch  v.x1.vf1#branch 
--------------------------------------------------------------------------------
171	2.075067e-03	1.000000e-01	1.898489e+00	1.000000e-01	
172	2.091145e-03	1.000000e-01	1.903708e+00	1.000000e-01	
173	2.111145e-03	1.000000e-01	1.909921e+00	1.000000e-01	
174	2.131145e-03	1.000000e-01	1.915824e+00	1.000000e-01	
175	2.151145e-03	1.000000e-01	1.921442e+00	1.000000e-01	
176	2.171145e-03	1.000000e-01	1.926729e+00	1.000000e-01	
177	2.191145e-03	1.000000e-01	1.931714e+00	1.000000e-01	
178	2.211145e-03	1.000000e-01	1.936397e+00	1.000000e-01	
179	2.231145e-03	1.000000e-01	1.940769e+00	1.000000e-01	
180	2.251145e-03	1.000000e-01	1.944822e+00	1.000000e-01	
181	2.271145e-03	1.000000e-01	1.948567e+00	1.000000e-01	
182	2.291145e-03	1.000000e-01	1.952001e+00	1.000000e-01	
183	2.311145e-03	1.000000e-01	1.955117e+00	1.000000e-01	
184	2.331145e-03	1.000000e-01	1.957928e+00	1.000000e-01	
185	2.351145e-03	1.000000e-01	1.960436e+00	1.000000e-01	
186	2.371145e-03	1.000000e-01	1.962616e+00	1.000000e-01	
187	2.391145e-03	1.000000e-01	1.964483e+00	1.000000e-01	
188	2.411145e-03	1.000000e-01	1.966048e+00	1.000000e-01	
189	2.431145e-03	1.000000e-01	1.967284e+00	1.000000e-01	
190	2.451145e-03	1.000000e-01	1.968202e+00	1.000000e-01	
191	2.471145e-03	1.000000e-01	1.968830e+00	1.000000e-01	
192	2.491145e-03	1.000000e-01	1.969103e+00	1.000000e-01	
193	2.511145e-03	1.000000e-01	1.969104e+00	1.000000e-01	
194	2.531145e-03	1.000000e-01	1.968768e+00	1.000000e-01	
195	2.551145e-03	1.000000e-01	1.968120e+00	1.000000e-01	
196	2.571145e-03	1.000000e-01	1.967161e+00	1.000000e-01	
197	2.591145e-03	1.000000e-01	1.965877e+00	1.000000e-01	
198	2.611145e-03	1.000000e-01	1.964288e+00	1.000000e-01	
199	2.631145e-03	1.000000e-01	1.962393e+00	1.000000e-01	
200	2.651145e-03	1.000000e-01	1.960163e+00	1.000000e-01	
201	2.671145e-03	1.000000e-01	1.957635e+00	1.000000e-01	
202	2.691145e-03	1.000000e-01	1.954781e+00	1.000000e-01	
203	2.711145e-03	1.000000e-01	1.951626e+00	1.000000e-01	
204	2.731145e-03	1.000000e-01	1.948152e+00	1.000000e-01	
205	2.751145e-03	1.000000e-01	1.944380e+00	1.000000e-01	
206	2.771145e-03	1.000000e-01	1.940276e+00	1.000000e-01	
207	2.791145e-03	1.000000e-01	1.935873e+00	1.000000e-01	
208	2.811145e-03	1.000000e-01	1.931166e+00	1.000000e-01	
209	2.831145e-03	1.000000e-01	1.926149e+00	1.000000e-01	
210	2.851145e-03	1.000000e-01	1.920811e+00	1.000000e-01	
211	2.871145e-03	1.000000e-01	1.915170e+00	1.000000e-01	
212	2.891145e-03	1.000000e-01	1.909228e+00	1.000000e-01	
213	2.911145e-03	1.000000e-01	1.902980e+00	1.000000e-01	
214	2.931145e-03	1.000000e-01	1.896441e+00	1.000000e-01	
215	2.951145e-03	1.000000e-01	1.889566e+00	1.000000e-01	
216	2.971145e-03	1.000000e-01	1.882404e+00	1.000000e-01	
217	2.991145e-03	1.000000e-01	1.874954e+00	1.000000e-01	
218	3.011145e-03	1.000000e-01	1.867189e+00	1.000000e-01	
219	3.020000e-03	1.000000e-01	1.863651e+00	1.000000e-01	
220	3.022000e-03	9.000000e-02	1.862845e+00	9.000000e-02	
221	3.026000e-03	7.000000e-02	1.861230e+00	7.000000e-02	
222	3.034000e-03	3.000000e-02	1.857955e+00	3.000000e-02	
223	3.040000e-03	0.000000e+00	1.855465e+00	0.000000e+00	
224	3.041600e-03	0.000000e+00	1.854790e+00	0.000000e+00	
225	3.044800e-03	0.000000e+00	1.853449e+00	0.000000e+00	
226	3.051200e-03	0.000000e+00	1.850749e+00	0.000000e+00	
227	3.064000e-03	0.000000e+00	1.845237e+00	0.000000e+00	
228	3.084000e-03	0.000000e+00	1.836400e+00	0.000000e+00	

Index   time            v.x1.v1#branch  v.x1.v2#branch  v.x1.vf1#branch 
--------------------------------------------------------------------------------
229	3.104000e-03	0.000000e+00	1.827260e+00	0.000000e+00	
230	3.124000e-03	0.000000e+00	1.817830e+00	0.000000e+00	
231	3.144000e-03	0.000000e+00	1.808105e+00	0.000000e+00	
232	3.164000e-03	0.000000e+00	1.798107e+00	0.000000e+00	
233	3.184000e-03	0.000000e+00	1.787810e+00	0.000000e+00	
234	3.204000e-03	0.000000e+00	1.777227e+00	0.000000e+00	
235	3.224000e-03	0.000000e+00	1.766345e+00	0.000000e+00	
236	3.244000e-03	0.000000e+00	1.755201e+00	0.000000e+00	
237	3.264000e-03	0.000000e+00	1.743760e+00	0.000000e+00	
238	3.284000e-03	0.000000e+00	1.732062e+00	0.000000e+00	
239	3.304000e-03	0.000000e+00	1.720061e+00	0.000000e+00	
240	3.324000e-03	0.000000e+00	1.707799e+00	0.000000e+00	
241	3.344000e-03	0.000000e+00	1.695258e+00	0.000000e+00	
242	3.364000e-03	0.000000e+00	1.682448e+00	0.000000e+00	
243	3.384000e-03	0.000000e+00	1.669379e+00	0.000000e+00	
244	3.404000e-03	0.000000e+00	1.656022e+00	0.000000e+00	
245	3.424000e-03	0.000000e+00	1.642410e+00	0.000000e+00	
246	3.444000e-03	0.000000e+00	1.628533e+00	0.000000e+00	
247	3.464000e-03	0.000000e+00	1.614399e+00	0.000000e+00	
248	3.484000e-03	0.000000e+00	1.600002e+00	0.000000e+00	
249	3.504000e-03	0.000000e+00	1.585348e+00	0.000000e+00	
250	3.524000e-03	0.000000e+00	1.570445e+00	0.000000e+00	
251	3.544000e-03	0.000000e+00	1.555286e+00	0.000000e+00	
252	3.564000e-03	0.000000e+00	1.539881e+00	0.000000e+00	
253	3.584000e-03	0.000000e+00	1.524223e+00	0.000000e+00	
254	3.604000e-03	0.000000e+00	1.508332e+00	0.000000e+00	
255	3.624000e-03	0.000000e+00	1.492189e+00	0.000000e+00	
256	3.644000e-03	0.000000e+00	1.475805e+00	0.000000e+00	
257	3.664000e-03	0.000000e+00	1.459192e+00	0.000000e+00	
258	3.684000e-03	0.000000e+00	1.442335e+00	0.000000e+00	
259	3.704000e-03	0.000000e+00	1.425249e+00	0.000000e+00	
260	3.724000e-03	0.000000e+00	1.407948e+00	0.000000e+00	
261	3.744000e-03	0.000000e+00	1.390409e+00	0.000000e+00	
262	3.764000e-03	0.000000e+00	1.372636e+00	0.000000e+00	
263	3.784000e-03	0.000000e+00	1.354663e+00	0.000000e+00	
264	3.804000e-03	0.000000e+00	1.336457e+00	0.000000e+00	
265	3.824000e-03	0.000000e+00	1.318040e+00	0.000000e+00	
266	3.844000e-03	0.000000e+00	1.299420e+00	0.000000e+00	
267	3.864000e-03	0.000000e+00	1.280580e+00	0.000000e+00	
268	3.884000e-03	0.000000e+00	1.261538e+00	0.000000e+00	
269	3.904000e-03	0.000000e+00	1.242294e+00	0.000000e+00	
270	3.924000e-03	0.000000e+00	1.222859e+00	0.000000e+00	
271	3.944000e-03	0.000000e+00	1.203220e+00	0.000000e+00	
272	3.964000e-03	0.000000e+00	1.183384e+00	0.000000e+00	
273	3.984000e-03	0.000000e+00	1.163349e+00	0.000000e+00	
274	4.004000e-03	0.000000e+00	1.143133e+00	0.000000e+00	
275	4.024000e-03	0.000000e+00	1.122738e+00	0.000000e+00	
276	4.044000e-03	0.000000e+00	1.102160e+00	0.000000e+00	
277	4.064000e-03	0.000000e+00	1.081407e+00	0.000000e+00	
278	4.084000e-03	0.000000e+00	1.060475e+00	0.000000e+00	
279	4.104000e-03	0.000000e+00	1.039374e+00	0.000000e+00	
280	4.124000e-03	0.000000e+00	1.018106e+00	0.000000e+00	
281	4.144000e-03	0.000000e+00	9.966743e-01	0.000000e+00	
282	4.164000e-03	0.000000e+00	9.750838e-01	0.000000e+00	
283	4.184000e-03	0.000000e+00	9.533251e-01	0.000000e+00	
284	4.204000e-03	0.000000e+00	9.314296e-01	0.000000e+00	
285	4.224000e-03	0.000000e+00	9.093684e-01	0.000000e+00	
286	4.244000e-03	0.000000e+00	8.871628e-01	0.000000e+00	

Index   time            v.x1.v1#branch  v.x1.v2#branch  v.x1.vf1#branch 
--------------------------------------------------------------------------------
287	4.264000e-03	0.000000e+00	8.648166e-01	0.000000e+00	
288	4.284000e-03	0.000000e+00	8.423320e-01	0.000000e+00	
289	4.304000e-03	0.000000e+00	8.197082e-01	0.000000e+00	
290	4.324000e-03	0.000000e+00	7.969540e-01	0.000000e+00	
291	4.344000e-03	0.000000e+00	7.740712e-01	0.000000e+00	
292	4.364000e-03	0.000000e+00	7.510622e-01	0.000000e+00	
293	4.384000e-03	0.000000e+00	7.279260e-01	0.000000e+00	
294	4.404000e-03	0.000000e+00	7.046910e-01	0.000000e+00	
295	4.424000e-03	0.000000e+00	6.813169e-01	0.000000e+00	
296	4.444000e-03	0.000000e+00	6.578440e-01	0.000000e+00	
297	4.464000e-03	0.000000e+00	6.342606e-01	0.000000e+00	
298	4.484000e-03	0.000000e+00	6.105775e-01	0.000000e+00	
299	4.504000e-03	0.000000e+00	5.867963e-01	0.000000e+00	
300	4.524000e-03	0.000000e+00	5.629178e-01	0.000000e+00	
301	4.544000e-03	0.000000e+00	5.389464e-01	0.000000e+00	
302	4.564000e-03	0.000000e+00	5.148896e-01	0.000000e+00	
303	4.584000e-03	0.000000e+00	4.907579e-01	0.000000e+00	
304	4.604000e-03	0.000000e+00	4.665345e-01	0.000000e+00	
305	4.624000e-03	0.000000e+00	4.422368e-01	0.000000e+00	
306	4.644000e-03	0.000000e+00	4.178697e-01	0.000000e+00	
307	4.664000e-03	0.000000e+00	3.934379e-01	0.000000e+00	
308	4.684000e-03	0.000000e+00	3.689431e-01	0.000000e+00	
309	4.704000e-03	0.000000e+00	3.443891e-01	0.000000e+00	
310	4.724000e-03	0.000000e+00	3.197844e-01	0.000000e+00	
311	4.744000e-03	0.000000e+00	2.951191e-01	0.000000e+00	
312	4.764000e-03	0.000000e+00	2.704142e-01	0.000000e+00	
313	4.784000e-03	0.000000e+00	2.456714e-01	0.000000e+00	
314	4.804000e-03	0.000000e+00	2.209024e-01	0.000000e+00	
315	4.824000e-03	0.000000e+00	1.960956e-01	0.000000e+00	
316	4.844000e-03	0.000000e+00	1.712576e-01	0.000000e+00	
317	4.864000e-03	0.000000e+00	1.464157e-01	0.000000e+00	
318	4.884000e-03	0.000000e+00	1.215740e-01	0.000000e+00	
319	4.904000e-03	0.000000e+00	9.673553e-02	0.000000e+00	
320	4.924000e-03	0.000000e+00	7.192657e-02	0.000000e+00	
321	4.944000e-03	0.000000e+00	4.721058e-02	0.000000e+00	
322	4.964000e-03	0.000000e+00	2.271106e-02	0.000000e+00	
323	4.979124e-03	0.000000e+00	4.937783e-03	0.000000e+00	
324	4.986833e-03	0.000000e+00	8.014721e-06	0.000000e+00	
325	4.991647e-03	0.000000e+00	4.147981e-10	0.000000e+00	
326	4.994566e-03	0.000000e+00	-1.36281e-13	0.000000e+00	
327	4.997069e-03	0.000000e+00	-5.10288e-13	0.000000e+00	
328	4.999808e-03	0.000000e+00	-5.07645e-13	0.000000e+00	
329	5.003458e-03	0.000000e+00	-4.94476e-13	0.000000e+00	
330	5.007577e-03	0.000000e+00	3.229260e-12	0.000000e+00	
331	5.011475e-03	0.000000e+00	4.740418e-12	0.000000e+00	
