        * /home/fossee/esim-workspace/differentiator/differentiator.cir
        Transient Analysis  Thu Mar  3 20:53:54  2016
--------------------------------------------------------------------------------
Index   time            in              net-_c1-pad1_   net-_c1-pad2_   
--------------------------------------------------------------------------------
0	0.000000e+00	0.000000e+00	0.000000e+00	0.000000e+00	
1	5.000000e-06	5.000000e-02	-5.37398e-05	-1.78874e-04	
2	5.421749e-06	5.421749e-02	-2.99451e-05	-1.66519e-04	
3	6.265246e-06	6.265246e-02	-2.53144e-05	-1.86545e-04	
4	7.952241e-06	7.952241e-02	7.229371e-05	-1.48879e-04	
5	1.132623e-05	1.132623e-01	1.831640e-04	-2.00406e-04	
6	1.807421e-05	1.807421e-01	7.391162e-04	-1.38882e-04	
7	3.157017e-05	3.157017e-01	2.338429e-03	-2.04182e-04	
8	5.856209e-05	5.856209e-01	8.419069e-03	-1.33056e-04	
9	1.125459e-04	1.125459e+00	3.091419e-02	-1.99758e-04	
10	2.205136e-04	2.205136e+00	1.169023e-01	-1.20917e-04	
11	4.364489e-04	4.364489e+00	4.413608e-01	-1.78806e-04	
12	5.000000e-04	5.000000e+00	5.740846e-01	-1.02734e-04	
13	5.151657e-04	5.000000e+00	6.075297e-01	3.484059e-05	
14	5.454972e-04	5.000000e+00	6.736395e-01	3.085623e-05	
15	6.061602e-04	5.000000e+00	8.029066e-01	3.343315e-05	
16	7.274862e-04	5.000000e+00	1.050014e+00	2.798498e-05	
17	9.701382e-04	5.000000e+00	1.501841e+00	2.817997e-05	
18	1.455442e-03	5.000000e+00	2.258825e+00	1.886205e-05	
19	2.426050e-03	5.000000e+00	3.329357e+00	1.440465e-05	
20	3.873668e-03	5.000000e+00	4.217243e+00	4.093141e-06	
21	5.209945e-03	5.000000e+00	4.609270e+00	4.756028e-06	
22	6.662390e-03	5.000000e+00	4.817435e+00	-4.34299e-07	
23	7.985619e-03	5.000000e+00	4.908200e+00	2.504064e-06	
24	9.378633e-03	5.000000e+00	4.955621e+00	-1.47825e-06	
25	1.131240e-02	5.000000e+00	4.984549e+00	1.930085e-06	
26	1.331240e-02	5.000000e+00	4.994847e+00	-1.77542e-06	
27	1.531240e-02	5.000000e+00	4.998285e+00	1.827889e-06	
28	1.731240e-02	5.000000e+00	4.999426e+00	-1.81131e-06	
29	1.931240e-02	5.000000e+00	4.999811e+00	1.817757e-06	
30	2.131240e-02	5.000000e+00	4.999935e+00	-1.81653e-06	
31	2.331240e-02	5.000000e+00	4.999981e+00	1.817855e-06	
32	2.500000e-02	5.000000e+00	4.999990e+00	-1.81845e-06	
33	2.502433e-02	4.513466e+00	4.994485e+00	3.440176e-04	
34	2.507298e-02	3.540399e+00	4.971218e+00	3.313720e-04	
35	2.517029e-02	1.594263e+00	4.857030e+00	3.231074e-04	
36	2.536490e-02	-2.29801e+00	4.373655e+00	2.918234e-04	
37	2.550000e-02	-5.00000e+00	3.849421e+00	2.810103e-04	
38	2.552695e-02	-5.00000e+00	3.731400e+00	-6.82958e-05	
39	2.558086e-02	-5.00000e+00	3.499192e+00	-6.15888e-05	
40	2.568868e-02	-5.00000e+00	3.053044e+00	-6.32333e-05	
41	2.590431e-02	-5.00000e+00	2.229226e+00	-5.19868e-05	
42	2.633557e-02	-5.00000e+00	8.221006e-01	-4.64252e-05	
43	2.719809e-02	-5.00000e+00	-1.24335e+00	-2.57968e-05	
44	2.858761e-02	-5.00000e+00	-3.18041e+00	-1.62497e-05	
45	3.009618e-02	-5.00000e+00	-4.17702e+00	-3.67408e-06	
46	3.136523e-02	-5.00000e+00	-4.57345e+00	-5.74889e-06	
47	3.269829e-02	-5.00000e+00	-4.78669e+00	9.257774e-07	
48	3.406380e-02	-5.00000e+00	-4.89527e+00	-3.32526e-06	
49	3.558326e-02	-5.00000e+00	-4.95293e+00	2.181890e-06	
50	3.758326e-02	-5.00000e+00	-4.98431e+00	-2.65607e-06	
51	3.958326e-02	-5.00000e+00	-4.99477e+00	2.499291e-06	
52	4.158326e-02	-5.00000e+00	-4.99826e+00	-2.55283e-06	
53	4.358326e-02	-5.00000e+00	-4.99942e+00	2.536268e-06	
54	4.558326e-02	-5.00000e+00	-4.99981e+00	-2.54307e-06	

Index   time            in              net-_c1-pad1_   net-_c1-pad2_   
--------------------------------------------------------------------------------
55	4.758326e-02	-5.00000e+00	-4.99993e+00	2.542089e-06	
56	4.958326e-02	-5.00000e+00	-4.99998e+00	-2.54370e-06	
57	5.000000e-02	-5.00000e+00	-4.99998e+00	2.548035e-06	
58	5.000653e-02	-4.86931e+00	-4.99991e+00	-3.54311e-04	
59	5.001960e-02	-4.60794e+00	-4.99819e+00	-3.30991e-04	
60	5.004574e-02	-4.08519e+00	-4.98974e+00	-3.49417e-04	
61	5.009802e-02	-3.03969e+00	-4.95289e+00	-3.19019e-04	
62	5.020257e-02	-9.48692e-01	-4.80217e+00	-3.27431e-04	
63	5.041167e-02	3.233304e+00	-4.21150e+00	-2.77185e-04	
64	5.050000e-02	5.000000e+00	-3.85163e+00	-2.89887e-04	
65	5.051895e-02	5.000000e+00	-3.76818e+00	6.971208e-05	
66	5.055686e-02	5.000000e+00	-3.60357e+00	6.119894e-05	
67	5.063267e-02	5.000000e+00	-3.28350e+00	6.616716e-05	
68	5.078429e-02	5.000000e+00	-2.67847e+00	5.416820e-05	
69	5.108754e-02	5.000000e+00	-1.59628e+00	5.347333e-05	
70	5.169403e-02	5.000000e+00	1.406318e-01	3.289808e-05	
71	5.290701e-02	5.000000e+00	2.402024e+00	2.333295e-05	
72	5.429363e-02	5.000000e+00	3.739554e+00	5.757668e-06	
73	5.556627e-02	5.000000e+00	4.348014e+00	8.664382e-06	
74	5.697105e-02	5.000000e+00	4.686927e+00	-1.38982e-06	
75	5.837322e-02	5.000000e+00	4.849453e+00	4.887561e-06	
76	5.988615e-02	5.000000e+00	4.932077e+00	-3.24216e-06	
77	6.188615e-02	5.000000e+00	4.977364e+00	3.926406e-06	
78	6.388615e-02	5.000000e+00	4.992450e+00	-3.70022e-06	
79	6.588615e-02	5.000000e+00	4.997488e+00	3.777514e-06	
80	6.788615e-02	5.000000e+00	4.999158e+00	-3.75365e-06	
81	6.988615e-02	5.000000e+00	4.999724e+00	3.763502e-06	
82	7.188615e-02	5.000000e+00	4.999903e+00	-3.76212e-06	
83	7.388615e-02	5.000000e+00	4.999973e+00	3.764479e-06	
84	7.500000e-02	5.000000e+00	4.999979e+00	-3.76667e-06	
85	7.501629e-02	4.674118e+00	4.997693e+00	3.465846e-04	
86	7.504888e-02	4.022355e+00	4.987183e+00	3.334520e-04	
87	7.511406e-02	2.718829e+00	4.935345e+00	3.324573e-04	
88	7.524441e-02	1.117775e-01	4.713137e+00	3.059585e-04	
89	7.550000e-02	-5.00000e+00	3.853392e+00	2.824524e-04	
90	7.552607e-02	-5.00000e+00	3.739124e+00	-6.84487e-05	
91	7.557821e-02	-5.00000e+00	3.514229e+00	-6.16049e-05	
92	7.568249e-02	-5.00000e+00	3.081566e+00	-6.35470e-05	
93	7.589106e-02	-5.00000e+00	2.280579e+00	-5.22747e-05	
94	7.630819e-02	-5.00000e+00	9.055114e-01	-4.71538e-05	
95	7.714244e-02	-5.00000e+00	-1.13272e+00	-2.65311e-05	
96	7.853196e-02	-5.00000e+00	-3.12682e+00	-1.67536e-05	
97	8.000975e-02	-5.00000e+00	-4.13750e+00	-3.87217e-06	
98	8.127240e-02	-5.00000e+00	-4.55138e+00	-6.01535e-06	
99	8.261185e-02	-5.00000e+00	-4.77645e+00	9.486327e-07	
100	8.398566e-02	-5.00000e+00	-4.89076e+00	-3.45935e-06	
101	8.550177e-02	-5.00000e+00	-4.95080e+00	2.266013e-06	
102	8.750177e-02	-5.00000e+00	-4.98360e+00	-2.76158e-06	
103	8.950177e-02	-5.00000e+00	-4.99453e+00	2.597722e-06	
104	9.150177e-02	-5.00000e+00	-4.99818e+00	-2.65367e-06	
105	9.350177e-02	-5.00000e+00	-4.99939e+00	2.636357e-06	
106	9.550177e-02	-5.00000e+00	-4.99980e+00	-2.64346e-06	
107	9.750177e-02	-5.00000e+00	-4.99993e+00	2.642429e-06	
108	9.950177e-02	-5.00000e+00	-4.99998e+00	-2.64411e-06	
109	1.000000e-01	-5.00000e+00	-4.99998e+00	2.647830e-06	

        * /home/fossee/esim-workspace/differentiator/differentiator.cir
        Transient Analysis  Thu Mar  3 20:53:54  2016
--------------------------------------------------------------------------------
Index   time            net-_r2-pad1_   out             x1.1            
--------------------------------------------------------------------------------
0	0.000000e+00	0.000000e+00	0.000000e+00	0.000000e+00	
1	5.000000e-06	-8.93924e-08	-5.18514e-03	-5.61157e-03	
2	5.421749e-06	-8.32178e-08	-5.59209e-03	-6.05219e-03	
3	6.265246e-06	-9.32257e-08	-6.45525e-03	-6.98641e-03	
4	7.952241e-06	-7.44022e-08	-8.09463e-03	-8.76133e-03	
5	1.132623e-05	-1.00153e-07	-1.15093e-02	-1.24573e-02	
6	1.807421e-05	-6.94064e-08	-1.81399e-02	-1.96354e-02	
7	3.157017e-05	-1.02040e-07	-3.15415e-02	-3.41422e-02	
8	5.856209e-05	-6.64949e-08	-5.78539e-02	-6.26258e-02	
9	1.125459e-04	-9.98290e-08	-1.09655e-01	-1.18700e-01	
10	2.205136e-04	-6.04284e-08	-2.08945e-01	-2.26182e-01	
11	4.364489e-04	-8.93585e-08	-3.92493e-01	-4.24872e-01	
12	5.000000e-04	-5.13416e-08	-4.42695e-01	-4.79216e-01	
13	5.151657e-04	1.741159e-08	-4.39212e-01	-4.75447e-01	
14	5.454972e-04	1.542040e-08	-4.32605e-01	-4.68295e-01	
15	6.061602e-04	1.670822e-08	-4.19676e-01	-4.54299e-01	
16	7.274862e-04	1.398550e-08	-3.94970e-01	-4.27556e-01	
17	9.701382e-04	1.408294e-08	-3.49788e-01	-3.78645e-01	
18	1.455442e-03	9.426312e-09	-2.74099e-01	-2.96712e-01	
19	2.426050e-03	7.198726e-09	-1.67050e-01	-1.80832e-01	
20	3.873668e-03	2.045548e-09	-7.82716e-02	-8.47290e-02	
21	5.209945e-03	2.376826e-09	-3.90683e-02	-4.22914e-02	
22	6.662390e-03	-2.17041e-10	-1.82570e-02	-1.97632e-02	
23	7.985619e-03	1.251406e-09	-9.17751e-03	-9.93467e-03	
24	9.378633e-03	-7.38756e-10	-4.43941e-03	-4.80565e-03	
25	1.131240e-02	9.645602e-10	-1.54318e-03	-1.67051e-03	
26	1.331240e-02	-8.87264e-10	-5.17073e-04	-5.59718e-04	
27	1.531240e-02	9.134879e-10	-1.69686e-04	-1.83698e-04	
28	1.731240e-02	-9.05205e-10	-5.92372e-05	-6.41106e-05	
29	1.931240e-02	9.084242e-10	-1.70702e-05	-1.84921e-05	
30	2.131240e-02	-9.07810e-10	-8.36689e-06	-9.04353e-06	
31	2.331240e-02	9.084730e-10	-1.11196e-07	-1.34004e-07	
32	2.500000e-02	-9.08769e-10	-2.87126e-06	-3.09450e-06	
33	2.502433e-02	1.719228e-07	4.844758e-02	5.244192e-02	
34	2.507298e-02	1.656032e-07	1.434149e-01	1.552442e-01	
35	2.517029e-02	1.614729e-07	3.266014e-01	3.535436e-01	
36	2.536490e-02	1.458388e-07	6.674595e-01	7.225227e-01	
37	2.550000e-02	1.404349e-07	8.852245e-01	9.582534e-01	
38	2.552695e-02	-3.41308e-08	8.730713e-01	9.451002e-01	
39	2.558086e-02	-3.07790e-08	8.498573e-01	9.199709e-01	
40	2.568868e-02	-3.16009e-08	8.052409e-01	8.716737e-01	
41	2.590431e-02	-2.59804e-08	7.228703e-01	7.825075e-01	
42	2.633557e-02	-2.32010e-08	5.821634e-01	6.301922e-01	
43	2.719809e-02	-1.28919e-08	3.756393e-01	4.066297e-01	
44	2.858761e-02	-8.12078e-09	1.819422e-01	1.969525e-01	
45	3.009618e-02	-1.83612e-09	8.229402e-02	8.908330e-02	
46	3.136523e-02	-2.87301e-09	4.264883e-02	4.616741e-02	
47	3.269829e-02	4.626574e-10	2.133204e-02	2.309193e-02	
48	3.406380e-02	-1.66180e-09	1.047005e-02	1.133385e-02	
49	3.558326e-02	1.090400e-09	4.709495e-03	5.098012e-03	
50	3.758326e-02	-1.32737e-09	1.566109e-03	1.695333e-03	
51	3.958326e-02	1.249021e-09	5.257815e-04	5.691397e-04	
52	4.158326e-02	-1.27578e-09	1.715208e-04	1.856905e-04	
53	4.358326e-02	1.267500e-09	6.091703e-05	6.592366e-05	
54	4.558326e-02	-1.27090e-09	1.656162e-05	1.794703e-05	

Index   time            net-_r2-pad1_   out             x1.1            
--------------------------------------------------------------------------------
55	4.758326e-02	1.270409e-09	9.266272e-06	1.001167e-05	
56	4.958326e-02	-1.27121e-09	-6.58306e-07	-6.93539e-07	
57	5.000000e-02	1.273381e-09	4.561819e-06	4.919059e-06	
58	5.000653e-02	-1.77067e-07	-1.34158e-02	-1.45200e-02	
59	5.001960e-02	-1.65413e-07	-3.93574e-02	-4.26019e-02	
60	5.004574e-02	-1.74621e-07	-9.08066e-02	-9.82955e-02	
61	5.009802e-02	-1.59430e-07	-1.91640e-01	-2.07448e-01	
62	5.020257e-02	-1.63634e-07	-3.85677e-01	-4.17493e-01	
63	5.041167e-02	-1.38523e-07	-7.44759e-01	-8.06200e-01	
64	5.050000e-02	-1.44871e-07	-8.85454e-01	-9.58502e-01	
65	5.051895e-02	3.483862e-08	-8.76748e-01	-9.49080e-01	
66	5.055686e-02	3.058418e-08	-8.60295e-01	-9.31270e-01	
67	5.063267e-02	3.306704e-08	-8.28284e-01	-8.96618e-01	
68	5.078429e-02	2.707056e-08	-7.67792e-01	-8.31136e-01	
69	5.108754e-02	2.672331e-08	-6.59574e-01	-7.13990e-01	
70	5.169403e-02	1.644082e-08	-4.85904e-01	-5.25991e-01	
71	5.290701e-02	1.166064e-08	-2.59774e-01	-2.81206e-01	
72	5.429363e-02	2.877395e-09	-1.26039e-01	-1.36437e-01	
73	5.556627e-02	4.330026e-09	-6.51899e-02	-7.05682e-02	
74	5.697105e-02	-6.94561e-10	-3.13087e-02	-3.38916e-02	
75	5.837322e-02	2.442559e-09	-1.50498e-02	-1.62915e-02	
76	5.988615e-02	-1.62027e-09	-6.79555e-03	-7.35616e-03	
77	6.188615e-02	1.962222e-09	-2.25967e-03	-2.44613e-03	
78	6.388615e-02	-1.84919e-09	-7.58767e-04	-8.21338e-04	
79	6.588615e-02	1.887813e-09	-2.47388e-04	-2.67826e-04	
80	6.788615e-02	-1.87589e-09	-8.80026e-05	-9.52346e-05	
81	6.988615e-02	1.880810e-09	-2.37933e-05	-2.57844e-05	
82	7.188615e-02	-1.88012e-09	-1.34745e-05	-1.45579e-05	
83	7.388615e-02	1.881299e-09	1.053876e-06	1.112587e-06	
84	7.500000e-02	-1.88240e-09	-5.91500e-06	-6.37474e-06	
85	7.501629e-02	1.732057e-07	3.270576e-02	3.540138e-02	
86	7.504888e-02	1.666427e-07	9.681788e-02	1.048029e-01	
87	7.511406e-02	1.661456e-07	2.219857e-01	2.402970e-01	
88	7.524441e-02	1.529028e-07	4.604434e-01	4.984277e-01	
89	7.550000e-02	1.411556e-07	8.856231e-01	9.586848e-01	
90	7.552607e-02	-3.42073e-08	8.738436e-01	9.459363e-01	
91	7.557821e-02	-3.07870e-08	8.513610e-01	9.215988e-01	
92	7.568249e-02	-3.17576e-08	8.080928e-01	8.747609e-01	
93	7.589106e-02	-2.61243e-08	7.280054e-01	7.880662e-01	
94	7.630819e-02	-2.35651e-08	5.905038e-01	6.392207e-01	
95	7.714244e-02	-1.32589e-08	3.867012e-01	4.186042e-01	
96	7.853196e-02	-8.37262e-09	1.873009e-01	2.027534e-01	
97	8.000975e-02	-1.93512e-09	8.624621e-02	9.336155e-02	
98	8.127240e-02	-3.00617e-09	4.485640e-02	4.855710e-02	
99	8.261185e-02	4.740793e-10	2.235567e-02	2.420000e-02	
100	8.398566e-02	-1.72881e-09	1.092097e-02	1.182197e-02	
101	8.550177e-02	1.132440e-09	4.921943e-03	5.327986e-03	
102	8.750177e-02	-1.38010e-09	1.636778e-03	1.771833e-03	
103	8.950177e-02	1.298212e-09	5.494858e-04	5.947989e-04	
104	9.150177e-02	-1.32617e-09	1.792747e-04	1.940847e-04	
105	9.350177e-02	1.317520e-09	6.364940e-05	6.888071e-05	
106	9.550177e-02	-1.32107e-09	1.732463e-05	1.877374e-05	
107	9.750177e-02	1.320554e-09	9.668461e-06	1.044629e-05	
108	9.950177e-02	-1.32139e-09	-6.72149e-07	-7.07771e-07	
109	1.000000e-01	1.323253e-09	4.677052e-06	5.043050e-06	

        * /home/fossee/esim-workspace/differentiator/differentiator.cir
        Transient Analysis  Thu Mar  3 20:53:54  2016
--------------------------------------------------------------------------------
Index   time            x1.2            x1.4            
--------------------------------------------------------------------------------
0	0.000000e+00	0.000000e+00	0.000000e+00	
1	5.000000e-06	-5.61157e-03	-1.78785e+01	
2	5.421749e-06	-6.05219e-03	-1.66436e+01	
3	6.265246e-06	-6.98641e-03	-1.86451e+01	
4	7.952241e-06	-8.76133e-03	-1.48804e+01	
5	1.132623e-05	-1.24573e-02	-2.00306e+01	
6	1.807421e-05	-1.96354e-02	-1.38813e+01	
7	3.157017e-05	-3.41422e-02	-2.04080e+01	
8	5.856209e-05	-6.26258e-02	-1.32990e+01	
9	1.125459e-04	-1.18700e-01	-1.99658e+01	
10	2.205136e-04	-2.26182e-01	-1.20857e+01	
11	4.364489e-04	-4.24872e-01	-1.78717e+01	
12	5.000000e-04	-4.79216e-01	-1.02683e+01	
13	5.151657e-04	-4.75447e-01	3.482318e+00	
14	5.454972e-04	-4.68295e-01	3.084081e+00	
15	6.061602e-04	-4.54299e-01	3.341644e+00	
16	7.274862e-04	-4.27556e-01	2.797099e+00	
17	9.701382e-04	-3.78645e-01	2.816589e+00	
18	1.455442e-03	-2.96712e-01	1.885262e+00	
19	2.426050e-03	-1.80832e-01	1.439745e+00	
20	3.873668e-03	-8.47290e-02	4.091096e-01	
21	5.209945e-03	-4.22914e-02	4.753651e-01	
22	6.662390e-03	-1.97632e-02	-4.34082e-02	
23	7.985619e-03	-9.93467e-03	2.502813e-01	
24	9.378633e-03	-4.80565e-03	-1.47751e-01	
25	1.131240e-02	-1.67051e-03	1.929120e-01	
26	1.331240e-02	-5.59718e-04	-1.77453e-01	
27	1.531240e-02	-1.83698e-04	1.826976e-01	
28	1.731240e-02	-6.41106e-05	-1.81041e-01	
29	1.931240e-02	-1.84921e-05	1.816848e-01	
30	2.131240e-02	-9.04353e-06	-1.81562e-01	
31	2.331240e-02	-1.34004e-07	1.816946e-01	
32	2.500000e-02	-3.09450e-06	-1.81754e-01	
33	2.502433e-02	5.244192e-02	3.438456e+01	
34	2.507298e-02	1.552442e-01	3.312064e+01	
35	2.517029e-02	3.535436e-01	3.229459e+01	
36	2.536490e-02	7.225227e-01	2.916775e+01	
37	2.550000e-02	9.582534e-01	2.808699e+01	
38	2.552695e-02	9.451002e-01	-6.82616e+00	
39	2.558086e-02	9.199709e-01	-6.15580e+00	
40	2.568868e-02	8.716737e-01	-6.32017e+00	
41	2.590431e-02	7.825075e-01	-5.19608e+00	
42	2.633557e-02	6.301922e-01	-4.64020e+00	
43	2.719809e-02	4.066297e-01	-2.57839e+00	
44	2.858761e-02	1.969525e-01	-1.62416e+00	
45	3.009618e-02	8.908330e-02	-3.67224e-01	
46	3.136523e-02	4.616741e-02	-5.74602e-01	
47	3.269829e-02	2.309193e-02	9.253148e-02	
48	3.406380e-02	1.133385e-02	-3.32359e-01	
49	3.558326e-02	5.098012e-03	2.180800e-01	
50	3.758326e-02	1.695333e-03	-2.65474e-01	
51	3.958326e-02	5.691397e-04	2.498042e-01	
52	4.158326e-02	1.856905e-04	-2.55156e-01	
53	4.358326e-02	6.592366e-05	2.535001e-01	
54	4.558326e-02	1.794703e-05	-2.54180e-01	

Index   time            x1.2            x1.4            
--------------------------------------------------------------------------------
55	4.758326e-02	1.001167e-05	2.540818e-01	
56	4.958326e-02	-6.93539e-07	-2.54243e-01	
57	5.000000e-02	4.919059e-06	2.546762e-01	
58	5.000653e-02	-1.45200e-02	-3.54134e+01	
59	5.001960e-02	-4.26019e-02	-3.30825e+01	
60	5.004574e-02	-9.82955e-02	-3.49243e+01	
61	5.009802e-02	-2.07448e-01	-3.18860e+01	
62	5.020257e-02	-4.17493e-01	-3.27267e+01	
63	5.041167e-02	-8.06200e-01	-2.77047e+01	
64	5.050000e-02	-9.58502e-01	-2.89742e+01	
65	5.051895e-02	-9.49080e-01	6.967725e+00	
66	5.055686e-02	-9.31270e-01	6.116836e+00	
67	5.063267e-02	-8.96618e-01	6.613409e+00	
68	5.078429e-02	-8.31136e-01	5.414113e+00	
69	5.108754e-02	-7.13990e-01	5.344661e+00	
70	5.169403e-02	-5.25991e-01	3.288164e+00	
71	5.290701e-02	-2.81206e-01	2.332129e+00	
72	5.429363e-02	-1.36437e-01	5.754790e-01	
73	5.556627e-02	-7.05682e-02	8.660052e-01	
74	5.697105e-02	-3.38916e-02	-1.38912e-01	
75	5.837322e-02	-1.62915e-02	4.885118e-01	
76	5.988615e-02	-7.35616e-03	-3.24054e-01	
77	6.188615e-02	-2.44613e-03	3.924444e-01	
78	6.388615e-02	-8.21338e-04	-3.69837e-01	
79	6.588615e-02	-2.67826e-04	3.775626e-01	
80	6.788615e-02	-9.52346e-05	-3.75177e-01	
81	6.988615e-02	-2.57844e-05	3.761621e-01	
82	7.188615e-02	-1.45579e-05	-3.76024e-01	
83	7.388615e-02	1.112587e-06	3.762598e-01	
84	7.500000e-02	-6.37474e-06	-3.76479e-01	
85	7.501629e-02	3.540138e-02	3.464114e+01	
86	7.504888e-02	1.048029e-01	3.332853e+01	
87	7.511406e-02	2.402970e-01	3.322911e+01	
88	7.524441e-02	4.984277e-01	3.058056e+01	
89	7.550000e-02	9.586848e-01	2.823112e+01	
90	7.552607e-02	9.459363e-01	-6.84145e+00	
91	7.557821e-02	9.215988e-01	-6.15741e+00	
92	7.568249e-02	8.747609e-01	-6.35153e+00	
93	7.589106e-02	7.880662e-01	-5.22486e+00	
94	7.630819e-02	6.392207e-01	-4.71302e+00	
95	7.714244e-02	4.186042e-01	-2.65178e+00	
96	7.853196e-02	2.027534e-01	-1.67452e+00	
97	8.000975e-02	9.336155e-02	-3.87024e-01	
98	8.127240e-02	4.855710e-02	-6.01234e-01	
99	8.261185e-02	2.420000e-02	9.481586e-02	
100	8.398566e-02	1.182197e-02	-3.45762e-01	
101	8.550177e-02	5.327986e-03	2.264880e-01	
102	8.750177e-02	1.771833e-03	-2.76020e-01	
103	8.950177e-02	5.947989e-04	2.596423e-01	
104	9.150177e-02	1.940847e-04	-2.65235e-01	
105	9.350177e-02	6.888071e-05	2.635039e-01	
106	9.550177e-02	1.877374e-05	-2.64214e-01	
107	9.750177e-02	1.044629e-05	2.641108e-01	
108	9.950177e-02	-7.07771e-07	-2.64279e-01	
109	1.000000e-01	5.043050e-06	2.646507e-01	
