Title: kicad schematic
Date: Tue Jun 30 19:48:23  2026
Plotname: Transient Analysis
Flags: real
No. Variables: 22
No. Points: 85      
Variables:
	0	time	time
	1	v(out1)	voltage
	2	v(net-_r2-pad1_)	voltage
	3	v(net-_r3-pad2_)	voltage
	4	v(out2)	voltage
	5	v(net-_c2-pad1_)	voltage
	6	v(net-_c1-pad2_)	voltage
	7	v(input)	voltage
	8	v(unconnected-_x2-pad2_)	voltage
	9	v(unconnected-_x2-pad3_)	voltage
	10	v(unconnected-_x2-pad6_)	voltage
	11	v(unconnected-_x2-pad4_)	voltage
	12	v(unconnected-_x2-pad5_)	voltage
	13	v(x2.net-_d1-pad2_)	voltage
	14	v(x2.net-_d1-pad1_)	voltage
	15	v(q.x2.q1#collCX)	voltage
	16	v(q.x2.q2#collCX)	voltage
	17	v(q.x2.q3#collCX)	voltage
	18	i(v1)	current
	19	i(v3)	current
	20	i(v4)	current
	21	i(v2)	current
Values:
0		0.000000000000000e+00
	9.000000000000000e+00
	7.250650207597252e+00
	6.000000000000000e+00
	4.313850671309311e+00
	-6.000000000000000e+00
	-8.075268150243332e-03
	0.000000000000000e+00
	-6.661407944397166e-01
	-1.105088508531075e-01
	-7.893766262771995e-01
	-1.105158532553596e-01
	-2.526251084184800e+00
	-5.999994498118857e+00
	-5.969828542522772e+00
	-6.695924440855494e-01
	4.312164521980620e+00
	7.248900857804848e+00
	0.000000000000000e+00
	3.473751416670264e-03
	-1.686149328690689e-03
	-1.749349792402749e-03
1		7.500000000000001e-06
	9.000000000000000e+00
	7.249555774894159e+00
	6.000000000000000e+00
	4.312800040055761e+00
	-6.000000000000000e+00
	-3.432640395720078e-03
	4.712384620128243e-03
	-6.615163877183171e-01
	-1.080269844452740e-01
	-7.868804992069656e-01
	-1.080347312696438e-01
	-2.524586999471310e+00
	-5.999993913207385e+00
	-5.969057822493820e+00
	-6.649701980880146e-01
	4.311112840095817e+00
	7.247805330669053e+00
	-9.300915413998573e-06
	3.475415767252601e-03
	-1.687199959944239e-03
	-1.750444225105821e-03
2		1.500000000000000e-05
	9.000000000000000e+00
	7.248580719034566e+00
	6.000000000000000e+00
	4.311863681938777e+00
	-6.000000000000000e+00
	1.141286627666628e-03
	9.424743078746847e-03
	-6.569587581630667e-01
	-1.058218983138633e-01
	-7.846617694321427e-01
	-1.058296417820930e-01
	-2.523107846288095e+00
	-5.999993915842357e+00
	-5.968555537232006e+00
	-6.604144887019798e-01
	4.310175545620716e+00
	7.246829299753600e+00
	-1.845752469758620e-05
	3.476894919238101e-03
	-1.688136318061223e-03
	-1.751419280965415e-03
3		3.000000000000000e-05
	9.000000000000000e+00
	7.246756841480408e+00
	6.000000000000000e+00
	4.310112552934124e+00
	-6.000000000000000e+00
	1.015364786806828e-02
	1.884927686628802e-02
	-6.479770177045069e-01
	-1.016976287133437e-01
	-7.805116983612777e-01
	-1.017053899030940e-01
	-2.520341132240852e+00
	-5.999993901922292e+00
	-5.967877845495359e+00
	-6.514363398177253e-01
	4.308422665487058e+00
	7.245003598321887e+00
	-3.649881492101548e-05
	3.479661639612647e-03
	-1.689887447065877e-03
	-1.753243158519572e-03
4		6.000000000000001e-05
	9.000000000000000e+00
	7.243796954714175e+00
	6.000000000000000e+00
	4.307272746624730e+00
	-6.000000000000000e+00
	2.738882131996384e-02
	3.769687943081636e-02
	-6.307923178562537e-01
	-9.500693860644929e-02
	-7.737783642071656e-01
	-9.501459629465817e-02
	-2.515852242804777e+00
	-5.999993983248505e+00
	-5.967686723136599e+00
	-6.342574669599820e-01
	4.305580019371355e+00
	7.242040751668888e+00
	-7.099645925450339e-05
	3.484150492082275e-03
	-1.692727253375270e-03
	-1.756203045285819e-03
5		1.200000000000000e-04
	9.000000000000000e+00
	7.240256938099497e+00
	6.000000000000000e+00
	4.303884747703971e+00
	-6.000000000000000e+00
	5.891964131915513e-02
	7.538036533986910e-02
	-5.993252925187814e-01
	-8.701560905934458e-02
	-7.657320980136628e-01
	-8.702292317100328e-02
	-2.510488065342442e+00
	-5.999994253194414e+00
	-5.968585624921579e+00
	-6.027974039432070e-01
	4.302188632451674e+00
	7.238497195037596e+00
	-1.340924044075449e-04
	3.489514546841918e-03
	-1.696115252296029e-03
	-1.759743061900497e-03
6		2.122954032421740e-04
	9.000000000000000e+00
	7.238413570761452e+00
	6.000000000000000e+00
	4.302139935139198e+00
	-6.000000000000000e+00
	1.006050461549425e-01
	1.332902683452280e-01
	-5.576812002704519e-01
	-8.287850228725838e-02
	-7.615578505376233e-01
	-8.288555912493449e-02
	-2.507705233691749e+00
	-5.999994455350189e+00
	-5.969624909612044e+00
	-5.611569218560407e-01
	4.300442075074336e+00
	7.236651984332212e+00
	-2.174851953348840e-04
	3.492297286603622e-03
	-1.697860064860802e-03
	-1.761586429238549e-03
7		3.968862097265218e-04
	9.000000000000000e+00
	7.237853918281231e+00
	6.000000000000000e+00
	4.301649266797372e+00
	-6.000000000000000e+00
	1.641610865976355e-01
	2.487253225833386e-01
	-4.941540309056159e-01
	-8.167127292416279e-02
	-7.603219905804189e-01
	-8.167827109848139e-02
	-2.506881327053613e+00
	-5.999994501440089e+00
	-5.969830720621728e+00
	-4.976308178228277e-01
	4.299950916064169e+00
	7.236091772199511e+00
	-3.446122870206817e-04
	3.493121172291802e-03
	-1.698350733202628e-03
	-1.762146081718770e-03
8		5.686056580743620e-04
	9.000000000000000e+00
	7.237781311090519e+00
	6.000000000000000e+00
	4.301610426564052e+00
	-6.000000000000000e+00
	2.046706902382767e-01
	3.553684645294916e-01
	-4.536585098561763e-01
	-8.154558690501711e-02
	-7.601817057208399e-01
	-8.155259757300840e-02
	-2.506787803813893e+00
	-5.999994491626481e+00
	-5.969806003008840e+00
	-4.571354154383342e-01
	4.299912036990616e+00
	7.236019092401609e+00
	-4.256387118242448e-04
	3.493214699992253e-03
	-1.698389573435948e-03
	-1.762218688909480e-03
9		8.991838383249919e-04
	9.000000000000000e+00
	7.237739373112083e+00
	6.000000000000000e+00
	4.301605484226009e+00
	-6.000000000000000e+00
	2.508259034477759e-01
	5.574897460129343e-01
	-4.075187753001709e-01
	-8.149496285267446e-02
	-7.601148483364789e-01
	-8.150195932602415e-02
	-2.506743232224319e+00
	-5.999994502772023e+00
	-5.969865516973294e+00
	-4.109957355737055e-01
	4.299907089710235e+00
	7.235977112485195e+00
	-5.179569493031595e-04
	3.493259266515672e-03
	-1.698394515773991e-03
	-1.762260626887918e-03
10		1.404780559061345e-03
	9.000000000000000e+00
	7.237717057867437e+00
	6.000000000000000e+00
	4.301601772419601e+00
	-6.000000000000000e+00
	2.740110203762737e-01
	8.542754632770343e-01
	-3.843414522372555e-01
	-8.146683451193226e-02
	-7.600786382938944e-01
	-8.147384280247366e-02
	-2.506719092195929e+00
	-5.999994493494535e+00
	-5.969821637014859e+00
	-3.878184422807303e-01
	4.299903374192020e+00
	7.235954774925304e+00
	-5.643309260498670e-04
	3.493283410761101e-03
	-1.698398227580399e-03
	-1.762282942132563e-03
11		2.100029035872451e-03
	9.000000000000000e+00
	7.237731561686465e+00
	6.000000000000000e+00
	4.301606237738324e+00
	-6.000000000000000e+00
	2.617436525273530e-01
	1.225828522666571e+00
	-3.966046472354405e-01
	-8.148850535134118e-02
	-7.601045574333187e-01
	-8.149550218610889e-02
	-2.506736371622212e+00
	-5.999994502477007e+00
	-5.969860141079480e+00
	-4.000816156612174e-01
	4.299907843976062e+00
	7.235969293248150e+00
	-5.397935417919767e-04
	3.493266127251876e-03
	-1.698393762261676e-03
	-1.762268438313535e-03
12		3.008677849913860e-03
	9.000000000000000e+00
	7.237775562657919e+00
	6.000000000000000e+00
	4.301610204236288e+00
	-6.000000000000000e+00
	2.119313737557833e-01
	1.621232843911565e+00
	-4.464002258153097e-01
	-8.154134369986082e-02
	-7.601748383194132e-01
	-8.154835121397450e-02
	-2.506783225546275e+00
	-5.999994494096519e+00
	-5.969826877841472e+00
	-4.498771368232571e-01
	4.299911814440524e+00
	7.236013338220577e+00
	-4.401595338883157e-04
	3.493219277137125e-03
	-1.698389795763713e-03
	-1.762224437342080e-03
13		4.008677849913860e-03
	9.000000000000000e+00
	7.238005736748925e+00
	6.000000000000000e+00
	4.301771364444734e+00
	-6.000000000000000e+00
	1.331346428993582e-01
	1.903790862875989e+00
	-5.251681325346610e-01
	-8.198880082795415e-02
	-7.606517553228203e-01
	-8.199579560602824e-02
	-2.507101170215214e+00
	-5.999994504102060e+00
	-5.969864472065287e+00
	-5.286446361018864e-01
	4.300073135809178e+00
	7.236243742485673e+00
	-2.825499657533832e-04
	3.492901327920212e-03
	-1.698228635555267e-03
	-1.761994263251074e-03
14		5.008677849913860e-03
	9.000000000000000e+00
	7.242124076338730e+00
	6.000000000000000e+00
	4.305669235497194e+00
	-6.000000000000000e+00
	3.997329297019494e-02
	1.999992567691199e+00
	-6.182371928379543e-01
	-9.123357445129690e-02
	-7.699792987175941e-01
	-9.124052518809057e-02
	-2.513319532478396e+00
	-5.999994538707769e+00
	-5.970000625101269e+00
	-6.217056290723700e-01
	4.303974904732691e+00
	7.240366200415068e+00
	-9.617614373536601e-05
	3.486682949927162e-03
	-1.694330764502806e-03
	-1.757875923661270e-03
15		6.008677849913860e-03
	9.000000000000000e+00
	7.264166836188656e+00
	6.000000000000000e+00
	4.326841280398225e+00
	-6.000000000000000e+00
	-5.785008748059453e-02
	1.900421065213194e+00
	-7.156930169308130e-01
	-1.410943141070586e-01
	-8.201458230771037e-01
	-1.411010469560863e-01
	-2.546763882051402e+00
	-5.999994709896969e+00
	-5.970669753844646e+00
	-7.191180365898100e-01
	4.325168121678622e+00
	7.262431003024844e+00
	9.967238778979746e-05
	3.453238522540882e-03
	-1.673158719601776e-03
	-1.735833163811344e-03
16		7.008677849913860e-03
	9.000000000000000e+00
	7.295884667842733e+00
	6.000000000000000e+00
	4.357345204717496e+00
	-6.000000000000000e+00
	-1.507426136344072e-01
	1.614823107859970e+00
	-8.080647273342996e-01
	-2.128887598371647e-01
	-8.923617114731938e-01
	-2.128955606949349e-01
	-2.594907807648796e+00
	-5.999994656468100e+00
	-5.970495693483045e+00
	-8.114272442027496e-01
	4.355702549922214e+00
	7.294180552510575e+00
	2.857384746090239e-04
	3.405094621229339e-03
	-1.642654795282504e-03
	-1.704115332157266e-03
17		8.008677849913860e-03
	9.000000000000000e+00
	7.325687499333688e+00
	6.000000000000000e+00
	4.386015960987516e+00
	-6.000000000000000e+00
	-2.296418160961270e-01
	1.171155013575239e+00
	-8.864691466768542e-01
	-2.803608705362161e-01
	-9.602240830349635e-01
	-2.803676320110700e-01
	-2.640149388689975e+00
	-5.999994687414345e+00
	-5.970571751440112e+00
	-8.897729275279795e-01
	4.384401976948503e+00
	7.324013186833021e+00
	4.437993090369995e-04
	3.359853026121684e-03
	-1.613984039012484e-03
	-1.674312500666310e-03
18		9.008677849913861e-03
	9.000000000000000e+00
	7.348135124731618e+00
	6.000000000000000e+00
	4.407613930090946e+00
	-6.000000000000000e+00
	-2.868474056330720e-01
	6.128461066449700e-01
	-9.432974139000068e-01
	-3.311854777402725e-01
	-1.011340426477578e+00
	-3.311923837204619e-01
	-2.674226950985052e+00
	-5.999994573873113e+00
	-5.970179605477759e+00
	-9.465569523189488e-01
	4.406021544021037e+00
	7.346483259856349e+00
	5.584073257496488e-04
	3.325775515436258e-03
	-1.592386069909054e-03
	-1.651864875268381e-03
19		1.000867784991386e-02
	9.000000000000000e+00
	7.359977019453001e+00
	6.000000000000000e+00
	4.419008134536693e+00
	-6.000000000000000e+00
	-3.167670829124840e-01
	-5.452447153614240e-03
	-9.730167313265718e-01
	-3.579981715819219e-01
	-1.038306395348786e+00
	-3.580050921496916e-01
	-2.692204263565857e+00
	-5.999994562414336e+00
	-5.970063140789387e+00
	-9.762529298993445e-01
	4.417427142671229e+00
	7.358336996472453e+00
	6.183504272886959e-04
	3.307798208063988e-03
	-1.580991865463307e-03
	-1.640022980546998e-03
20		1.100867784991386e-02
	9.000000000000000e+00
	7.359867562925012e+00
	6.000000000000000e+00
	4.418902834477566e+00
	-6.000000000000000e+00
	-3.164746303508630e-01
	-6.232172774353678e-01
	-9.727263116912376e-01
	-3.577497597206676e-01
	-1.038056794769700e+00
	-3.577568415535147e-01
	-2.692037863179800e+00
	-5.999994435703239e+00
	-5.969640714742596e+00
	-9.759627264043635e-01
	4.417321737312044e+00
	7.358227430487936e+00
	6.177641383980535e-04
	3.307964666045999e-03
	-1.581097165522433e-03
	-1.640132437074987e-03
21		1.200867784991386e-02
	9.000000000000000e+00
	7.347740908242041e+00
	6.000000000000000e+00
	4.407234449308591e+00
	-6.000000000000000e+00
	-2.859992068694526e-01
	-1.179977258391649e+00
	-9.424565223849428e-01
	-3.302915952465533e-01
	-1.010441763347593e+00
	-3.302986965706893e-01
	-2.673627842231729e+00
	-5.999994420381748e+00
	-5.969494415791898e+00
	-9.457168387589031e-01
	4.405641683757899e+00
	7.346088649150282e+00
	5.567066704773299e-04
	3.326374693958385e-03
	-1.592765550691409e-03
	-1.652259091757959e-03
22		1.300867784991386e-02
	9.000000000000000e+00
	7.325109522400480e+00
	6.000000000000000e+00
	4.385459812497777e+00
	-6.000000000000000e+00
	-2.283234586387750e-01
	-1.621232843911567e+00
	-8.851609061566219e-01
	-2.790501559492803e-01
	-9.589064682682866e-01
	-2.790573927556239e-01
	-2.639270978845524e+00
	-5.999994313940254e+00
	-5.969170237576512e+00
	-8.884658277302717e-01
	4.383845272310275e+00
	7.323434631922879e+00
	4.411559970238618e-04
	3.360731605727086e-03
	-1.614540187502222e-03
	-1.674890477599520e-03
23		1.400867784991387e-02
	9.000000000000000e+00
	7.295291979309598e+00
	6.000000000000000e+00
	4.356775321646879e+00
	-6.000000000000000e+00
	-1.490901646143226e-01
	-1.903790862875990e+00
	-8.064220819895409e-01
	-2.115453159328869e-01
	-8.910106847923959e-01
	-2.115525255465895e-01
	-2.594007123194931e+00
	-5.999994335306498e+00
	-5.969153999599357e+00
	-8.097857683772116e-01
	4.355132096968525e+00
	7.293587271288906e+00
	2.824266289538914e-04
	3.405995451665751e-03
	-1.643224678353121e-03
	-1.704708020690402e-03
24		1.500867784991387e-02
	9.000000000000000e+00
	7.263656207929028e+00
	6.000000000000000e+00
	4.326350695172644e+00
	-6.000000000000000e+00
	-5.604787845444159e-02
	-1.999992567691199e+00
	-7.138992367041114e-01
	-1.399366158436169e-01
	-8.189816711181899e-01
	-1.399438786417943e-01
	-2.545987780745460e+00
	-5.999994293518776e+00
	-5.969092516657434e+00
	-7.173252641933363e-01
	4.324677045867816e+00
	7.261919864136956e+00
	9.606135299629075e-05
	3.454014813109641e-03
	-1.673649304827356e-03
	-1.736343792070971e-03
25		1.600867784991387e-02
	9.000000000000000e+00
	7.241917032982687e+00
	6.000000000000000e+00
	4.305471223658956e+00
	-6.000000000000000e+00
	4.171887019167501e-02
	-1.900421065213192e+00
	-6.164953315261403e-01
	-9.076451015397996e-02
	-7.695071533596292e-01
	-9.077157637018198e-02
	-2.513004768906419e+00
	-5.999994447969279e+00
	-5.969578315734568e+00
	-6.199641763782316e-01
	4.303776694882615e+00
	7.240158950015669e+00
	-9.967086066007024e-05
	3.486997754743907e-03
	-1.694528776341044e-03
	-1.758082967017313e-03
26		1.700867784991387e-02
	9.000000000000000e+00
	7.237988420791112e+00
	6.000000000000000e+00
	4.301756037856299e+00
	-6.000000000000000e+00
	1.346701037531086e-01
	-1.614823107859968e+00
	-5.236334426190891e-01
	-8.194963629446288e-02
	-7.606119936162048e-01
	-8.195663470047246e-02
	-2.507074662410803e+00
	-5.999994501254086e+00
	-5.969911609894602e+00
	-5.271099805283229e-01
	4.300057793894155e+00
	7.236226409211902e+00
	-2.856225869235125e-04
	3.492927837019157e-03
	-1.698243962143701e-03
	-1.762011579208887e-03
27		1.800867784991387e-02
	9.000000000000000e+00
	7.237777466510448e+00
	6.000000000000000e+00
	4.301613527052278e+00
	-6.000000000000000e+00
	2.136889332654770e-01
	-1.171155013575234e+00
	-4.446432735276151e-01
	-8.154632262210548e-02
	-7.601792504828725e-01
	-8.155333089011320e-02
	-2.506786166988582e+00
	-5.999994493494539e+00
	-5.969769055216461e+00
	-4.481201805986069e-01
	4.299915140579330e+00
	7.236015243976958e+00
	-4.436759426212170e-04
	3.493216335968445e-03
	-1.698386472947722e-03
	-1.762222533489551e-03
28		1.900867784991387e-02
	9.000000000000000e+00
	7.237719148743275e+00
	6.000000000000000e+00
	4.301601524182289e+00
	-6.000000000000000e+00
	2.710027786576568e-01
	-6.128461066449642e-01
	-3.873487004986160e-01
	-8.146844082634402e-02
	-7.600813081245533e-01
	-8.147543891747486e-02
	-2.506720872083036e+00
	-5.999994501499383e+00
	-5.969903449161360e+00
	-3.908256884372951e-01
	4.299903125706471e+00
	7.235956867892018e+00
	-5.583141804549629e-04
	3.493281627235425e-03
	-1.698398475817711e-03
	-1.762280851256725e-03
29		2.000867784991387e-02
	9.000000000000000e+00
	7.237697314648609e+00
	6.000000000000000e+00
	4.301603608442215e+00
	-6.000000000000000e+00
	3.009936363837117e-01
	5.452447153618436e-03
	-3.573678295141627e-01
	-8.144758928355937e-02
	-7.600499695706004e-01
	-8.145459552159234e-02
	-2.506699979713733e+00
	-5.999994495100863e+00
	-5.969784762683298e+00
	-3.608448425184593e-01
	4.299905212050657e+00
	7.235935011963257e+00
	-6.183012116900924e-04
	3.493302522513146e-03
	-1.698396391557785e-03
	-1.762302685351390e-03
30		2.100867784991387e-02
	9.000000000000000e+00
	7.237694443859034e+00
	6.000000000000000e+00
	4.301600599308149e+00
	-6.000000000000000e+00
	3.007255053177595e-01
	6.232172774353718e-01
	-3.576359148447436e-01
	-8.144098821438160e-02
	-7.600434842131224e-01
	-8.144798769082742e-02
	-2.506695656142082e+00
	-5.999994500408030e+00
	-5.969892676733069e+00
	-3.611129334904105e-01
	4.299902199907457e+00
	7.235932138302893e+00
	-6.177647110053194e-04
	3.493306843672449e-03
	-1.698399400691851e-03
	-1.762305556140964e-03
31		2.200867784991387e-02
	9.000000000000000e+00
	7.237724686242710e+00
	6.000000000000000e+00
	4.301606162470422e+00
	-6.000000000000000e+00
	2.702246214375841e-01
	1.179977258391651e+00
	-3.881265149262163e-01
	-8.148098636043490e-02
	-7.600940826533378e-01
	-8.148799096085872e-02
	-2.506729388435558e+00
	-5.999994496385724e+00
	-5.969796161667025e+00
	-3.916034918417601e-01
	4.299907768632892e+00
	7.235962410928952e+00
	-5.567570186675911e-04
	3.493273113207292e-03
	-1.698393837529578e-03
	-1.762275313757289e-03
32		2.300867784991387e-02
	9.000000000000000e+00
	7.237775524010351e+00
	6.000000000000000e+00
	4.301610590170560e+00
	-6.000000000000000e+00
	2.124766292547508e-01
	1.621232843911570e+00
	-4.458551470831904e-01
	-8.154177416551167e-02
	-7.601750886004438e-01
	-8.154877470908946e-02
	-2.506783392400296e+00
	-5.999994499569258e+00
	-5.969884068627588e+00
	-4.493320578357017e-01
	4.299912200760730e+00
	7.236013299534360e+00
	-4.412501367379128e-04
	3.493219107795495e-03
	-1.698389409829440e-03
	-1.762224475989648e-03
33		2.400867784991387e-02
	9.000000000000000e+00
	7.237973478520733e+00
	6.000000000000000e+00
	4.301740267704299e+00
	-6.000000000000000e+00
	1.331345529236863e-01
	1.903790862875991e+00
	-5.251687094943235e-01
	-8.191570506188509e-02
	-7.605782531282865e-01
	-8.192270656655545e-02
	-2.507052168752191e+00
	-5.999994498812764e+00
	-5.969810717542972e+00
	-5.286452766845675e-01
	4.300042007972003e+00
	7.236211451999253e+00
	-2.825500538530602e-04
	3.492950331787461e-03
	-1.698259732295700e-03
	-1.762026521479266e-03
34		2.500867784991388e-02
	9.000000000000000e+00
	7.242123943243627e+00
	6.000000000000000e+00
	4.305669107157403e+00
	-6.000000000000000e+00
	3.997322569849059e-02
	1.999992567691199e+00
	-6.182372620980099e-01
	-9.123326673968619e-02
	-7.699789938308810e-01
	-9.124021095186896e-02
	-2.513319329220587e+00
	-5.999994543832737e+00
	-5.970050563989543e+00
	-6.217056985948956e-01
	4.303974776264560e+00
	7.240366067186869e+00
	-9.617601022774845e-05
	3.486683150855440e-03
	-1.694330892842597e-03
	-1.757876056756372e-03
35		2.600867784991388e-02
	9.000000000000000e+00
	7.264167632296836e+00
	6.000000000000000e+00
	4.326842047766874e+00
	-6.000000000000000e+00
	-5.785008608760454e-02
	1.900421065213191e+00
	-7.156930032315709e-01
	-1.410961240410077e-01
	-8.201476383759931e-01
	-1.411028627762330e-01
	-2.546765092250662e+00
	-5.999994705281968e+00
	-5.970624046293461e+00
	-7.191180213204842e-01
	4.325168889814641e+00
	7.262431799929132e+00
	9.967239161157301e-05
	3.453237314439352e-03
	-1.673157952233126e-03
	-1.735832367703164e-03
36		2.700867784991388e-02
	9.000000000000000e+00
	7.295884647889806e+00
	6.000000000000000e+00
	4.357345185481670e+00
	-6.000000000000000e+00
	-1.507426120154162e-01
	1.614823107859966e+00
	-8.080647260257650e-01
	-2.128887091566577e-01
	-8.923616648540753e-01
	-2.128955047083781e-01
	-2.594907776569384e+00
	-5.999994660629577e+00
	-5.970536821820184e+00
	-8.114272429335355e-01
	4.355702530667152e+00
	7.294180532537695e+00
	2.857384712392547e-04
	3.405094650417171e-03
	-1.642654814518330e-03
