           * /home/fossee/updatedexamples/4_bit_jk_ff/4_bit_jk_ff.cir
           Transient Analysis  Thu Mar  3 18:14:13  2016
--------------------------------------------------------------------------------
Index   time            a10#branch_1_0  a10#branch_1_1  a10#branch_1_2  
--------------------------------------------------------------------------------
0	0.000000e+00	0.000000e+00	0.000000e+00	0.000000e+00	
1	1.000000e-06	0.000000e+00	0.000000e+00	0.000000e+00	
2	2.000000e-06	0.000000e+00	0.000000e+00	0.000000e+00	
3	4.000000e-06	0.000000e+00	0.000000e+00	0.000000e+00	
4	8.000000e-06	0.000000e+00	0.000000e+00	0.000000e+00	
5	1.600000e-05	0.000000e+00	0.000000e+00	0.000000e+00	
6	3.200000e-05	0.000000e+00	0.000000e+00	0.000000e+00	
7	6.400000e-05	0.000000e+00	0.000000e+00	0.000000e+00	
8	1.000000e-04	0.000000e+00	0.000000e+00	0.000000e+00	
9	1.064000e-04	0.000000e+00	0.000000e+00	0.000000e+00	
10	1.192000e-04	0.000000e+00	0.000000e+00	0.000000e+00	
11	1.448000e-04	0.000000e+00	0.000000e+00	0.000000e+00	
12	1.448030e-04	0.000000e+00	0.000000e+00	0.000000e+00	
13	1.448031e-04	-5.00000e-04	-5.00000e-04	-5.00000e-04	
14	1.448033e-04	-1.50000e-03	-1.50000e-03	-1.50000e-03	
15	1.448037e-04	-3.50000e-03	-3.50000e-03	-3.50000e-03	
16	1.448040e-04	-5.00000e-03	-5.00000e-03	-5.00000e-03	
17	1.448041e-04	-5.00000e-03	-5.00000e-03	-5.00000e-03	
18	1.448042e-04	-5.00000e-03	-5.00000e-03	-5.00000e-03	
19	1.448046e-04	-5.00000e-03	-5.00000e-03	-5.00000e-03	
20	1.448052e-04	-5.00000e-03	-5.00000e-03	-5.00000e-03	
21	1.448065e-04	-5.00000e-03	-5.00000e-03	-5.00000e-03	
22	1.448090e-04	-5.00000e-03	-5.00000e-03	-5.00000e-03	
23	1.448142e-04	-5.00000e-03	-5.00000e-03	-5.00000e-03	
24	1.448244e-04	-5.00000e-03	-5.00000e-03	-5.00000e-03	
25	1.448449e-04	-5.00000e-03	-5.00000e-03	-5.00000e-03	
26	1.448858e-04	-5.00000e-03	-5.00000e-03	-5.00000e-03	
27	1.449678e-04	-5.00000e-03	-5.00000e-03	-5.00000e-03	
28	1.451316e-04	-5.00000e-03	-5.00000e-03	-5.00000e-03	
29	1.454593e-04	-5.00000e-03	-5.00000e-03	-5.00000e-03	
30	1.461146e-04	-5.00000e-03	-5.00000e-03	-5.00000e-03	
31	1.474254e-04	-5.00000e-03	-5.00000e-03	-5.00000e-03	
32	1.500468e-04	-5.00000e-03	-5.00000e-03	-5.00000e-03	
33	1.552897e-04	-5.00000e-03	-5.00000e-03	-5.00000e-03	
34	1.657754e-04	-5.00000e-03	-5.00000e-03	-5.00000e-03	
35	1.867470e-04	-5.00000e-03	-5.00000e-03	-5.00000e-03	
36	2.000000e-04	-5.00000e-03	-5.00000e-03	-5.00000e-03	
37	2.041943e-04	-5.00000e-03	-5.00000e-03	-5.00000e-03	
38	2.125829e-04	-5.00000e-03	-5.00000e-03	-5.00000e-03	
39	2.293601e-04	-5.00000e-03	-5.00000e-03	-5.00000e-03	
40	2.629146e-04	-5.00000e-03	-5.00000e-03	-5.00000e-03	
41	3.300234e-04	-5.00000e-03	-5.00000e-03	-5.00000e-03	
42	4.642412e-04	-5.00000e-03	-5.00000e-03	-5.00000e-03	
43	7.326766e-04	-5.00000e-03	-5.00000e-03	-5.00000e-03	
44	1.269548e-03	-5.00000e-03	-5.00000e-03	-5.00000e-03	
45	2.343289e-03	-5.00000e-03	-5.00000e-03	-5.00000e-03	
46	4.343289e-03	-5.00000e-03	-5.00000e-03	-5.00000e-03	
47	6.343289e-03	-5.00000e-03	-5.00000e-03	-5.00000e-03	
48	8.343289e-03	-5.00000e-03	-5.00000e-03	-5.00000e-03	
49	1.034329e-02	-5.00000e-03	-5.00000e-03	-5.00000e-03	
50	1.234329e-02	-5.00000e-03	-5.00000e-03	-5.00000e-03	
51	1.434329e-02	-5.00000e-03	-5.00000e-03	-5.00000e-03	
52	1.634329e-02	-5.00000e-03	-5.00000e-03	-5.00000e-03	
53	1.834329e-02	-5.00000e-03	-5.00000e-03	-5.00000e-03	
54	2.020000e-02	-5.00000e-03	-5.00000e-03	-5.00000e-03	

Index   time            a10#branch_1_0  a10#branch_1_1  a10#branch_1_2  
--------------------------------------------------------------------------------
55	2.021000e-02	-5.00000e-03	-5.00000e-03	-5.00000e-03	
56	2.023000e-02	-5.00000e-03	-5.00000e-03	-5.00000e-03	
57	2.027000e-02	-5.00000e-03	-5.00000e-03	-5.00000e-03	
58	2.030000e-02	-5.00000e-03	-5.00000e-03	-5.00000e-03	
59	2.030800e-02	-5.00000e-03	-5.00000e-03	-5.00000e-03	
60	2.032400e-02	-5.00000e-03	-5.00000e-03	-5.00000e-03	
61	2.035600e-02	-5.00000e-03	-5.00000e-03	-5.00000e-03	
62	2.042000e-02	-5.00000e-03	-5.00000e-03	-5.00000e-03	
63	2.054800e-02	-5.00000e-03	-5.00000e-03	-5.00000e-03	
64	2.080400e-02	-5.00000e-03	-5.00000e-03	-5.00000e-03	
65	2.131600e-02	-5.00000e-03	-5.00000e-03	-5.00000e-03	
66	2.234000e-02	-5.00000e-03	-5.00000e-03	-5.00000e-03	
67	2.434000e-02	-5.00000e-03	-5.00000e-03	-5.00000e-03	
68	2.634000e-02	-5.00000e-03	-5.00000e-03	-5.00000e-03	
69	2.834000e-02	-5.00000e-03	-5.00000e-03	-5.00000e-03	
70	3.034000e-02	-5.00000e-03	-5.00000e-03	-5.00000e-03	
71	3.234000e-02	-5.00000e-03	-5.00000e-03	-5.00000e-03	
72	3.434000e-02	-5.00000e-03	-5.00000e-03	-5.00000e-03	
73	3.634000e-02	-5.00000e-03	-5.00000e-03	-5.00000e-03	
74	3.834000e-02	-5.00000e-03	-5.00000e-03	-5.00000e-03	
75	4.010000e-02	-5.00000e-03	-5.00000e-03	-5.00000e-03	
76	4.011000e-02	-5.00000e-03	-5.00000e-03	-5.00000e-03	
77	4.013000e-02	-5.00000e-03	-5.00000e-03	-5.00000e-03	
78	4.017000e-02	-5.00000e-03	-5.00000e-03	-5.00000e-03	
79	4.017000e-02	-5.00000e-03	-5.00000e-03	-5.00000e-03	
80	4.017000e-02	-4.50000e-03	-5.00000e-03	-5.00000e-03	
81	4.017000e-02	-3.50000e-03	-5.00000e-03	-5.00000e-03	
82	4.017000e-02	-1.50000e-03	-5.00000e-03	-5.00000e-03	
83	4.017000e-02	-2.63178e-12	-5.00000e-03	-5.00000e-03	
84	4.017000e-02	0.000000e+00	-5.00000e-03	-5.00000e-03	
85	4.017000e-02	0.000000e+00	-5.00000e-03	-5.00000e-03	
86	4.017000e-02	0.000000e+00	-5.00000e-03	-5.00000e-03	
87	4.017001e-02	0.000000e+00	-5.00000e-03	-5.00000e-03	
88	4.017001e-02	0.000000e+00	-5.00000e-03	-5.00000e-03	
89	4.017001e-02	0.000000e+00	-5.00000e-03	-5.00000e-03	
90	4.017001e-02	0.000000e+00	-5.00000e-03	-5.00000e-03	
91	4.017002e-02	0.000000e+00	-5.00000e-03	-5.00000e-03	
92	4.017004e-02	0.000000e+00	-5.00000e-03	-5.00000e-03	
93	4.017009e-02	0.000000e+00	-5.00000e-03	-5.00000e-03	
94	4.017017e-02	0.000000e+00	-5.00000e-03	-5.00000e-03	
95	4.017033e-02	0.000000e+00	-5.00000e-03	-5.00000e-03	
96	4.017066e-02	0.000000e+00	-5.00000e-03	-5.00000e-03	
97	4.017131e-02	0.000000e+00	-5.00000e-03	-5.00000e-03	
98	4.017263e-02	0.000000e+00	-5.00000e-03	-5.00000e-03	
99	4.017525e-02	0.000000e+00	-5.00000e-03	-5.00000e-03	
100	4.018049e-02	0.000000e+00	-5.00000e-03	-5.00000e-03	
101	4.019098e-02	0.000000e+00	-5.00000e-03	-5.00000e-03	
102	4.020000e-02	0.000000e+00	-5.00000e-03	-5.00000e-03	
103	4.020210e-02	0.000000e+00	-5.00000e-03	-5.00000e-03	
104	4.020629e-02	0.000000e+00	-5.00000e-03	-5.00000e-03	
105	4.021468e-02	0.000000e+00	-5.00000e-03	-5.00000e-03	
106	4.023146e-02	0.000000e+00	-5.00000e-03	-5.00000e-03	
107	4.026501e-02	0.000000e+00	-5.00000e-03	-5.00000e-03	
108	4.033212e-02	0.000000e+00	-5.00000e-03	-5.00000e-03	
109	4.046634e-02	0.000000e+00	-5.00000e-03	-5.00000e-03	
110	4.073477e-02	0.000000e+00	-5.00000e-03	-5.00000e-03	
111	4.127164e-02	0.000000e+00	-5.00000e-03	-5.00000e-03	
112	4.234539e-02	0.000000e+00	-5.00000e-03	-5.00000e-03	

Index   time            a10#branch_1_0  a10#branch_1_1  a10#branch_1_2  
--------------------------------------------------------------------------------
113	4.434539e-02	0.000000e+00	-5.00000e-03	-5.00000e-03	
114	4.634539e-02	0.000000e+00	-5.00000e-03	-5.00000e-03	
115	4.834539e-02	0.000000e+00	-5.00000e-03	-5.00000e-03	
116	5.034539e-02	0.000000e+00	-5.00000e-03	-5.00000e-03	
117	5.234539e-02	0.000000e+00	-5.00000e-03	-5.00000e-03	
118	5.434539e-02	0.000000e+00	-5.00000e-03	-5.00000e-03	
119	5.634539e-02	0.000000e+00	-5.00000e-03	-5.00000e-03	
120	5.834539e-02	0.000000e+00	-5.00000e-03	-5.00000e-03	
121	6.020000e-02	0.000000e+00	-5.00000e-03	-5.00000e-03	
122	6.021000e-02	0.000000e+00	-5.00000e-03	-5.00000e-03	
123	6.023000e-02	0.000000e+00	-5.00000e-03	-5.00000e-03	
124	6.027000e-02	0.000000e+00	-5.00000e-03	-5.00000e-03	
125	6.030000e-02	0.000000e+00	-5.00000e-03	-5.00000e-03	
126	6.030800e-02	0.000000e+00	-5.00000e-03	-5.00000e-03	
127	6.032400e-02	0.000000e+00	-5.00000e-03	-5.00000e-03	
128	6.035600e-02	0.000000e+00	-5.00000e-03	-5.00000e-03	
129	6.042000e-02	0.000000e+00	-5.00000e-03	-5.00000e-03	
130	6.054800e-02	0.000000e+00	-5.00000e-03	-5.00000e-03	
131	6.080400e-02	0.000000e+00	-5.00000e-03	-5.00000e-03	
132	6.131600e-02	0.000000e+00	-5.00000e-03	-5.00000e-03	
133	6.234000e-02	0.000000e+00	-5.00000e-03	-5.00000e-03	
134	6.434000e-02	0.000000e+00	-5.00000e-03	-5.00000e-03	
135	6.634000e-02	0.000000e+00	-5.00000e-03	-5.00000e-03	
136	6.834000e-02	0.000000e+00	-5.00000e-03	-5.00000e-03	
137	7.034000e-02	0.000000e+00	-5.00000e-03	-5.00000e-03	
138	7.234000e-02	0.000000e+00	-5.00000e-03	-5.00000e-03	
139	7.434000e-02	0.000000e+00	-5.00000e-03	-5.00000e-03	
140	7.634000e-02	0.000000e+00	-5.00000e-03	-5.00000e-03	
141	7.834000e-02	0.000000e+00	-5.00000e-03	-5.00000e-03	
142	8.010000e-02	0.000000e+00	-5.00000e-03	-5.00000e-03	
143	8.011000e-02	0.000000e+00	-5.00000e-03	-5.00000e-03	
144	8.013000e-02	0.000000e+00	-5.00000e-03	-5.00000e-03	
145	8.017000e-02	0.000000e+00	-5.00000e-03	-5.00000e-03	
146	8.017000e-02	0.000000e+00	-5.00000e-03	-5.00000e-03	
147	8.017000e-02	-5.00000e-04	-4.50000e-03	-5.00000e-03	
148	8.017000e-02	-1.50000e-03	-3.50000e-03	-5.00000e-03	
149	8.017000e-02	-3.50000e-03	-1.50000e-03	-5.00000e-03	
150	8.017000e-02	-5.00000e-03	-2.63178e-12	-5.00000e-03	
151	8.017000e-02	-5.00000e-03	0.000000e+00	-5.00000e-03	
152	8.017000e-02	-5.00000e-03	0.000000e+00	-5.00000e-03	
153	8.017000e-02	-5.00000e-03	0.000000e+00	-5.00000e-03	
154	8.017001e-02	-5.00000e-03	0.000000e+00	-5.00000e-03	
155	8.017001e-02	-5.00000e-03	0.000000e+00	-5.00000e-03	
156	8.017001e-02	-5.00000e-03	0.000000e+00	-5.00000e-03	
157	8.017001e-02	-5.00000e-03	0.000000e+00	-5.00000e-03	
158	8.017002e-02	-5.00000e-03	0.000000e+00	-5.00000e-03	
159	8.017004e-02	-5.00000e-03	0.000000e+00	-5.00000e-03	
160	8.017009e-02	-5.00000e-03	0.000000e+00	-5.00000e-03	
161	8.017017e-02	-5.00000e-03	0.000000e+00	-5.00000e-03	
162	8.017033e-02	-5.00000e-03	0.000000e+00	-5.00000e-03	
163	8.017066e-02	-5.00000e-03	0.000000e+00	-5.00000e-03	
164	8.017131e-02	-5.00000e-03	0.000000e+00	-5.00000e-03	
165	8.017263e-02	-5.00000e-03	0.000000e+00	-5.00000e-03	
166	8.017525e-02	-5.00000e-03	0.000000e+00	-5.00000e-03	
167	8.018049e-02	-5.00000e-03	0.000000e+00	-5.00000e-03	
168	8.019098e-02	-5.00000e-03	0.000000e+00	-5.00000e-03	
169	8.020000e-02	-5.00000e-03	0.000000e+00	-5.00000e-03	
170	8.020210e-02	-5.00000e-03	0.000000e+00	-5.00000e-03	

Index   time            a10#branch_1_0  a10#branch_1_1  a10#branch_1_2  
--------------------------------------------------------------------------------
171	8.020629e-02	-5.00000e-03	0.000000e+00	-5.00000e-03	
172	8.021468e-02	-5.00000e-03	0.000000e+00	-5.00000e-03	
173	8.023146e-02	-5.00000e-03	0.000000e+00	-5.00000e-03	
174	8.026501e-02	-5.00000e-03	0.000000e+00	-5.00000e-03	
175	8.033212e-02	-5.00000e-03	0.000000e+00	-5.00000e-03	
176	8.046634e-02	-5.00000e-03	0.000000e+00	-5.00000e-03	
177	8.073477e-02	-5.00000e-03	0.000000e+00	-5.00000e-03	
178	8.127164e-02	-5.00000e-03	0.000000e+00	-5.00000e-03	
179	8.234539e-02	-5.00000e-03	0.000000e+00	-5.00000e-03	
180	8.434539e-02	-5.00000e-03	0.000000e+00	-5.00000e-03	
181	8.634539e-02	-5.00000e-03	0.000000e+00	-5.00000e-03	
182	8.834539e-02	-5.00000e-03	0.000000e+00	-5.00000e-03	
183	9.034539e-02	-5.00000e-03	0.000000e+00	-5.00000e-03	
184	9.234539e-02	-5.00000e-03	0.000000e+00	-5.00000e-03	
185	9.434539e-02	-5.00000e-03	0.000000e+00	-5.00000e-03	
186	9.634539e-02	-5.00000e-03	0.000000e+00	-5.00000e-03	
187	9.834539e-02	-5.00000e-03	0.000000e+00	-5.00000e-03	
188	1.000000e-01	-5.00000e-03	0.000000e+00	-5.00000e-03	

           * /home/fossee/updatedexamples/4_bit_jk_ff/4_bit_jk_ff.cir
           Transient Analysis  Thu Mar  3 18:14:13  2016
--------------------------------------------------------------------------------
Index   time            a10#branch_1_3  a11#branch_1_0  v1#branch       
--------------------------------------------------------------------------------
0	0.000000e+00	0.000000e+00	0.000000e+00	0.000000e+00	
1	1.000000e-06	0.000000e+00	0.000000e+00	0.000000e+00	
2	2.000000e-06	0.000000e+00	0.000000e+00	0.000000e+00	
3	4.000000e-06	0.000000e+00	0.000000e+00	0.000000e+00	
4	8.000000e-06	0.000000e+00	0.000000e+00	0.000000e+00	
5	1.600000e-05	0.000000e+00	0.000000e+00	0.000000e+00	
6	3.200000e-05	0.000000e+00	0.000000e+00	0.000000e+00	
7	6.400000e-05	0.000000e+00	0.000000e+00	0.000000e+00	
8	1.000000e-04	0.000000e+00	0.000000e+00	0.000000e+00	
9	1.064000e-04	0.000000e+00	0.000000e+00	0.000000e+00	
10	1.192000e-04	0.000000e+00	0.000000e+00	0.000000e+00	
11	1.448000e-04	0.000000e+00	0.000000e+00	0.000000e+00	
12	1.448030e-04	0.000000e+00	0.000000e+00	0.000000e+00	
13	1.448031e-04	-5.00000e-04	0.000000e+00	0.000000e+00	
14	1.448033e-04	-1.50000e-03	0.000000e+00	0.000000e+00	
15	1.448037e-04	-3.50000e-03	0.000000e+00	0.000000e+00	
16	1.448040e-04	-5.00000e-03	0.000000e+00	0.000000e+00	
17	1.448041e-04	-5.00000e-03	0.000000e+00	0.000000e+00	
18	1.448042e-04	-5.00000e-03	0.000000e+00	0.000000e+00	
19	1.448046e-04	-5.00000e-03	0.000000e+00	0.000000e+00	
20	1.448052e-04	-5.00000e-03	0.000000e+00	0.000000e+00	
21	1.448065e-04	-5.00000e-03	0.000000e+00	0.000000e+00	
22	1.448090e-04	-5.00000e-03	0.000000e+00	0.000000e+00	
23	1.448142e-04	-5.00000e-03	0.000000e+00	0.000000e+00	
24	1.448244e-04	-5.00000e-03	0.000000e+00	0.000000e+00	
25	1.448449e-04	-5.00000e-03	0.000000e+00	0.000000e+00	
26	1.448858e-04	-5.00000e-03	0.000000e+00	0.000000e+00	
27	1.449678e-04	-5.00000e-03	0.000000e+00	0.000000e+00	
28	1.451316e-04	-5.00000e-03	0.000000e+00	0.000000e+00	
29	1.454593e-04	-5.00000e-03	0.000000e+00	0.000000e+00	
30	1.461146e-04	-5.00000e-03	0.000000e+00	0.000000e+00	
31	1.474254e-04	-5.00000e-03	0.000000e+00	0.000000e+00	
32	1.500468e-04	-5.00000e-03	0.000000e+00	0.000000e+00	
33	1.552897e-04	-5.00000e-03	0.000000e+00	0.000000e+00	
34	1.657754e-04	-5.00000e-03	0.000000e+00	0.000000e+00	
35	1.867470e-04	-5.00000e-03	0.000000e+00	0.000000e+00	
36	2.000000e-04	-5.00000e-03	0.000000e+00	0.000000e+00	
37	2.041943e-04	-5.00000e-03	0.000000e+00	0.000000e+00	
38	2.125829e-04	-5.00000e-03	0.000000e+00	0.000000e+00	
39	2.293601e-04	-5.00000e-03	0.000000e+00	0.000000e+00	
40	2.629146e-04	-5.00000e-03	0.000000e+00	0.000000e+00	
41	3.300234e-04	-5.00000e-03	0.000000e+00	0.000000e+00	
42	4.642412e-04	-5.00000e-03	0.000000e+00	0.000000e+00	
43	7.326766e-04	-5.00000e-03	0.000000e+00	0.000000e+00	
44	1.269548e-03	-5.00000e-03	0.000000e+00	0.000000e+00	
45	2.343289e-03	-5.00000e-03	0.000000e+00	0.000000e+00	
46	4.343289e-03	-5.00000e-03	0.000000e+00	0.000000e+00	
47	6.343289e-03	-5.00000e-03	0.000000e+00	0.000000e+00	
48	8.343289e-03	-5.00000e-03	0.000000e+00	0.000000e+00	
49	1.034329e-02	-5.00000e-03	0.000000e+00	0.000000e+00	
50	1.234329e-02	-5.00000e-03	0.000000e+00	0.000000e+00	
51	1.434329e-02	-5.00000e-03	0.000000e+00	0.000000e+00	
52	1.634329e-02	-5.00000e-03	0.000000e+00	0.000000e+00	
53	1.834329e-02	-5.00000e-03	0.000000e+00	0.000000e+00	
54	2.020000e-02	-5.00000e-03	0.000000e+00	0.000000e+00	

Index   time            a10#branch_1_3  a11#branch_1_0  v1#branch       
--------------------------------------------------------------------------------
55	2.021000e-02	-5.00000e-03	0.000000e+00	0.000000e+00	
56	2.023000e-02	-5.00000e-03	0.000000e+00	0.000000e+00	
57	2.027000e-02	-5.00000e-03	0.000000e+00	0.000000e+00	
58	2.030000e-02	-5.00000e-03	0.000000e+00	0.000000e+00	
59	2.030800e-02	-5.00000e-03	0.000000e+00	0.000000e+00	
60	2.032400e-02	-5.00000e-03	0.000000e+00	0.000000e+00	
61	2.035600e-02	-5.00000e-03	0.000000e+00	0.000000e+00	
62	2.042000e-02	-5.00000e-03	0.000000e+00	0.000000e+00	
63	2.054800e-02	-5.00000e-03	0.000000e+00	0.000000e+00	
64	2.080400e-02	-5.00000e-03	0.000000e+00	0.000000e+00	
65	2.131600e-02	-5.00000e-03	0.000000e+00	0.000000e+00	
66	2.234000e-02	-5.00000e-03	0.000000e+00	0.000000e+00	
67	2.434000e-02	-5.00000e-03	0.000000e+00	0.000000e+00	
68	2.634000e-02	-5.00000e-03	0.000000e+00	0.000000e+00	
69	2.834000e-02	-5.00000e-03	0.000000e+00	0.000000e+00	
70	3.034000e-02	-5.00000e-03	0.000000e+00	0.000000e+00	
71	3.234000e-02	-5.00000e-03	0.000000e+00	0.000000e+00	
72	3.434000e-02	-5.00000e-03	0.000000e+00	0.000000e+00	
73	3.634000e-02	-5.00000e-03	0.000000e+00	0.000000e+00	
74	3.834000e-02	-5.00000e-03	0.000000e+00	0.000000e+00	
75	4.010000e-02	-5.00000e-03	0.000000e+00	0.000000e+00	
76	4.011000e-02	-5.00000e-03	0.000000e+00	0.000000e+00	
77	4.013000e-02	-5.00000e-03	0.000000e+00	0.000000e+00	
78	4.017000e-02	-5.00000e-03	0.000000e+00	0.000000e+00	
79	4.017000e-02	-5.00000e-03	0.000000e+00	0.000000e+00	
80	4.017000e-02	-5.00000e-03	0.000000e+00	0.000000e+00	
81	4.017000e-02	-5.00000e-03	0.000000e+00	0.000000e+00	
82	4.017000e-02	-5.00000e-03	0.000000e+00	0.000000e+00	
83	4.017000e-02	-5.00000e-03	0.000000e+00	0.000000e+00	
84	4.017000e-02	-5.00000e-03	0.000000e+00	0.000000e+00	
85	4.017000e-02	-5.00000e-03	0.000000e+00	0.000000e+00	
86	4.017000e-02	-5.00000e-03	0.000000e+00	0.000000e+00	
87	4.017001e-02	-5.00000e-03	0.000000e+00	0.000000e+00	
88	4.017001e-02	-5.00000e-03	0.000000e+00	0.000000e+00	
89	4.017001e-02	-5.00000e-03	0.000000e+00	0.000000e+00	
90	4.017001e-02	-5.00000e-03	0.000000e+00	0.000000e+00	
91	4.017002e-02	-5.00000e-03	0.000000e+00	0.000000e+00	
92	4.017004e-02	-5.00000e-03	0.000000e+00	0.000000e+00	
93	4.017009e-02	-5.00000e-03	0.000000e+00	0.000000e+00	
94	4.017017e-02	-5.00000e-03	0.000000e+00	0.000000e+00	
95	4.017033e-02	-5.00000e-03	0.000000e+00	0.000000e+00	
96	4.017066e-02	-5.00000e-03	0.000000e+00	0.000000e+00	
97	4.017131e-02	-5.00000e-03	0.000000e+00	0.000000e+00	
98	4.017263e-02	-5.00000e-03	0.000000e+00	0.000000e+00	
99	4.017525e-02	-5.00000e-03	0.000000e+00	0.000000e+00	
100	4.018049e-02	-5.00000e-03	0.000000e+00	0.000000e+00	
101	4.019098e-02	-5.00000e-03	0.000000e+00	0.000000e+00	
102	4.020000e-02	-5.00000e-03	0.000000e+00	0.000000e+00	
103	4.020210e-02	-5.00000e-03	0.000000e+00	0.000000e+00	
104	4.020629e-02	-5.00000e-03	0.000000e+00	0.000000e+00	
105	4.021468e-02	-5.00000e-03	0.000000e+00	0.000000e+00	
106	4.023146e-02	-5.00000e-03	0.000000e+00	0.000000e+00	
107	4.026501e-02	-5.00000e-03	0.000000e+00	0.000000e+00	
108	4.033212e-02	-5.00000e-03	0.000000e+00	0.000000e+00	
109	4.046634e-02	-5.00000e-03	0.000000e+00	0.000000e+00	
110	4.073477e-02	-5.00000e-03	0.000000e+00	0.000000e+00	
111	4.127164e-02	-5.00000e-03	0.000000e+00	0.000000e+00	
112	4.234539e-02	-5.00000e-03	0.000000e+00	0.000000e+00	

Index   time            a10#branch_1_3  a11#branch_1_0  v1#branch       
--------------------------------------------------------------------------------
113	4.434539e-02	-5.00000e-03	0.000000e+00	0.000000e+00	
114	4.634539e-02	-5.00000e-03	0.000000e+00	0.000000e+00	
115	4.834539e-02	-5.00000e-03	0.000000e+00	0.000000e+00	
116	5.034539e-02	-5.00000e-03	0.000000e+00	0.000000e+00	
117	5.234539e-02	-5.00000e-03	0.000000e+00	0.000000e+00	
118	5.434539e-02	-5.00000e-03	0.000000e+00	0.000000e+00	
119	5.634539e-02	-5.00000e-03	0.000000e+00	0.000000e+00	
120	5.834539e-02	-5.00000e-03	0.000000e+00	0.000000e+00	
121	6.020000e-02	-5.00000e-03	0.000000e+00	0.000000e+00	
122	6.021000e-02	-5.00000e-03	0.000000e+00	0.000000e+00	
123	6.023000e-02	-5.00000e-03	0.000000e+00	0.000000e+00	
124	6.027000e-02	-5.00000e-03	0.000000e+00	0.000000e+00	
125	6.030000e-02	-5.00000e-03	0.000000e+00	0.000000e+00	
126	6.030800e-02	-5.00000e-03	0.000000e+00	0.000000e+00	
127	6.032400e-02	-5.00000e-03	0.000000e+00	0.000000e+00	
128	6.035600e-02	-5.00000e-03	0.000000e+00	0.000000e+00	
129	6.042000e-02	-5.00000e-03	0.000000e+00	0.000000e+00	
130	6.054800e-02	-5.00000e-03	0.000000e+00	0.000000e+00	
131	6.080400e-02	-5.00000e-03	0.000000e+00	0.000000e+00	
132	6.131600e-02	-5.00000e-03	0.000000e+00	0.000000e+00	
133	6.234000e-02	-5.00000e-03	0.000000e+00	0.000000e+00	
134	6.434000e-02	-5.00000e-03	0.000000e+00	0.000000e+00	
135	6.634000e-02	-5.00000e-03	0.000000e+00	0.000000e+00	
136	6.834000e-02	-5.00000e-03	0.000000e+00	0.000000e+00	
137	7.034000e-02	-5.00000e-03	0.000000e+00	0.000000e+00	
138	7.234000e-02	-5.00000e-03	0.000000e+00	0.000000e+00	
