Title: kicad schematic
Date: Sun Nov 16 14:08:39  2025
Plotname: Transient Analysis
Flags: real
No. Variables: 6
No. Points: 214     
Variables:
	0	time	time
	1	v(net-_m1-pad1_)	voltage
	2	v(input)	voltage
	3	v(output)	voltage
	4	i(v1)	current
	5	i(v2)	current
Values:
0		0.000000000000000e+00
	5.000000000000000e+00
	0.000000000000000e+00
	2.628305822645506e+00
	0.000000000000000e+00
	-2.332854625461174e-01
1		1.000000000000000e-03
	5.000000000000000e+00
	0.000000000000000e+00
	2.628305822645506e+00
	3.308722450212111e-23
	-2.332854625461138e-01
2		2.000000000000000e-03
	5.000000000000000e+00
	0.000000000000000e+00
	2.628305822645506e+00
	3.308722450212111e-23
	-2.332854625461138e-01
3		4.000000000000000e-03
	5.000000000000000e+00
	0.000000000000000e+00
	2.628305822645506e+00
	-1.257314531080602e-22
	-2.332854625461138e-01
4		8.000000000000000e-03
	5.000000000000000e+00
	0.000000000000000e+00
	2.628305822645507e+00
	-5.624828165360588e-23
	-2.332854625461138e-01
5		1.600000000000000e-02
	5.000000000000000e+00
	0.000000000000000e+00
	2.628305822645507e+00
	-1.654361225106055e-24
	-2.332854625461174e-01
6		3.200000000000000e-02
	5.000000000000000e+00
	0.000000000000000e+00
	2.628305822645507e+00
	-1.406207041340147e-23
	-2.332854625461103e-01
7		6.400000000000000e-02
	5.000000000000000e+00
	0.000000000000000e+00
	2.628305822645506e+00
	3.308722450212111e-24
	-2.332854625461174e-01
8		1.280000000000000e-01
	5.000000000000000e+00
	0.000000000000000e+00
	2.628305822645506e+00
	-2.274746684520826e-24
	-2.332854625461209e-01
9		2.280000000000000e-01
	5.000000000000000e+00
	0.000000000000000e+00
	2.628305822645506e+00
	4.549493369041652e-24
	-2.332854625461138e-01
10		3.280000000000000e-01
	5.000000000000000e+00
	0.000000000000000e+00
	2.628305822645506e+00
	-8.065010972392020e-24
	-2.332854625461138e-01
11		4.280000000000000e-01
	5.000000000000000e+00
	0.000000000000000e+00
	2.628305822645506e+00
	5.169878828456423e-24
	-2.332854625461138e-01
12		5.280000000000000e-01
	5.000000000000000e+00
	0.000000000000000e+00
	2.628305822645506e+00
	-6.410649747285964e-24
	-2.332854625461138e-01
13		6.280000000000000e-01
	5.000000000000000e+00
	0.000000000000000e+00
	2.628305822645506e+00
	5.169878828456423e-24
	-2.332854625461138e-01
14		7.280000000000000e-01
	5.000000000000000e+00
	0.000000000000000e+00
	2.628305822645506e+00
	-6.410649747285964e-24
	-2.332854625461138e-01
15		8.280000000000000e-01
	5.000000000000000e+00
	0.000000000000000e+00
	2.628305822645506e+00
	5.169878828456423e-24
	-2.332854625461138e-01
16		9.279999999999999e-01
	5.000000000000000e+00
	0.000000000000000e+00
	2.628305822645506e+00
	-6.410649747285964e-24
	-2.332854625461138e-01
17		1.028000000000000e+00
	5.000000000000000e+00
	0.000000000000000e+00
	2.628305822645506e+00
	5.169878828456423e-24
	-2.332854625461138e-01
18		1.128000000000000e+00
	5.000000000000000e+00
	0.000000000000000e+00
	2.628305822645506e+00
	-6.410649747285964e-24
	-2.332854625461138e-01
19		1.228000000000000e+00
	5.000000000000000e+00
	0.000000000000000e+00
	2.628305822645506e+00
	5.169878828456423e-24
	-2.332854625461138e-01
20		1.328000000000000e+00
	5.000000000000000e+00
	0.000000000000000e+00
	2.628305822645506e+00
	-6.410649747285964e-24
	-2.332854625461138e-01
21		1.428000000000000e+00
	5.000000000000000e+00
	0.000000000000000e+00
	2.628305822645506e+00
	5.169878828456423e-24
	-2.332854625461138e-01
22		1.528000000000000e+00
	5.000000000000000e+00
	0.000000000000000e+00
	2.628305822645506e+00
	-6.410649747285964e-24
	-2.332854625461138e-01
23		1.628000000000001e+00
	5.000000000000000e+00
	0.000000000000000e+00
	2.628305822645506e+00
	5.169878828456423e-24
	-2.332854625461138e-01
24		1.728000000000001e+00
	5.000000000000000e+00
	0.000000000000000e+00
	2.628305822645506e+00
	-6.410649747285964e-24
	-2.332854625461138e-01
25		1.828000000000001e+00
	5.000000000000000e+00
	0.000000000000000e+00
	2.628305822645506e+00
	5.169878828456423e-24
	-2.332854625461138e-01
26		1.928000000000001e+00
	5.000000000000000e+00
	0.000000000000000e+00
	2.628305822645506e+00
	-6.410649747285964e-24
	-2.332854625461138e-01
27		2.028000000000001e+00
	5.000000000000000e+00
	0.000000000000000e+00
	2.628305822645506e+00
	5.169878828456423e-24
	-2.332854625461138e-01
28		2.128000000000001e+00
	5.000000000000000e+00
	0.000000000000000e+00
	2.628305822645506e+00
	-6.410649747285964e-24
	-2.332854625461138e-01
29		2.228000000000001e+00
	5.000000000000000e+00
	0.000000000000000e+00
	2.628305822645506e+00
	5.169878828456423e-24
	-2.332854625461138e-01
30		2.328000000000001e+00
	5.000000000000000e+00
	0.000000000000000e+00
	2.628305822645506e+00
	-6.410649747285964e-24
	-2.332854625461138e-01
31		2.428000000000001e+00
	5.000000000000000e+00
	0.000000000000000e+00
	2.628305822645506e+00
	5.169878828456423e-24
	-2.332854625461138e-01
32		2.528000000000001e+00
	5.000000000000000e+00
	0.000000000000000e+00
	2.628305822645506e+00
	-6.410649747285964e-24
	-2.332854625461138e-01
33		2.628000000000001e+00
	5.000000000000000e+00
	0.000000000000000e+00
	2.628305822645506e+00
	5.169878828456423e-24
	-2.332854625461138e-01
34		2.728000000000002e+00
	5.000000000000000e+00
	0.000000000000000e+00
	2.628305822645506e+00
	-6.410649747285964e-24
	-2.332854625461138e-01
35		2.828000000000002e+00
	5.000000000000000e+00
	0.000000000000000e+00
	2.628305822645506e+00
	5.169878828456423e-24
	-2.332854625461138e-01
36		2.928000000000002e+00
	5.000000000000000e+00
	0.000000000000000e+00
	2.628305822645506e+00
	-6.410649747285964e-24
	-2.332854625461138e-01
37		3.028000000000002e+00
	5.000000000000000e+00
	0.000000000000000e+00
	2.628305822645506e+00
	5.169878828456423e-24
	-2.332854625461138e-01
38		3.128000000000002e+00
	5.000000000000000e+00
	0.000000000000000e+00
	2.628305822645506e+00
	-6.410649747285964e-24
	-2.332854625461138e-01
39		3.228000000000002e+00
	5.000000000000000e+00
	0.000000000000000e+00
	2.628305822645506e+00
	5.169878828456423e-24
	-2.332854625461138e-01
40		3.328000000000002e+00
	5.000000000000000e+00
	0.000000000000000e+00
	2.628305822645506e+00
	-6.410649747285964e-24
	-2.332854625461138e-01
41		3.428000000000002e+00
	5.000000000000000e+00
	0.000000000000000e+00
	2.628305822645506e+00
	5.169878828456423e-24
	-2.332854625461138e-01
42		3.528000000000002e+00
	5.000000000000000e+00
	0.000000000000000e+00
	2.628305822645506e+00
	-6.410649747285964e-24
	-2.332854625461138e-01
43		3.628000000000002e+00
	5.000000000000000e+00
	0.000000000000000e+00
	2.628305822645506e+00
	5.169878828456423e-24
	-2.332854625461138e-01
44		3.728000000000002e+00
	5.000000000000000e+00
	0.000000000000000e+00
	2.628305822645506e+00
	-6.410649747285964e-24
	-2.332854625461138e-01
45		3.828000000000003e+00
	5.000000000000000e+00
	0.000000000000000e+00
	2.628305822645506e+00
	5.169878828456423e-24
	-2.332854625461138e-01
46		3.928000000000003e+00
	5.000000000000000e+00
	0.000000000000000e+00
	2.628305822645506e+00
	-6.410649747285964e-24
	-2.332854625461138e-01
47		4.028000000000002e+00
	5.000000000000000e+00
	0.000000000000000e+00
	2.628305822645506e+00
	5.169878828456423e-24
	-2.332854625461138e-01
48		4.128000000000002e+00
	5.000000000000000e+00
	0.000000000000000e+00
	2.628305822645506e+00
	-6.410649747285964e-24
	-2.332854625461138e-01
49		4.228000000000002e+00
	5.000000000000000e+00
	0.000000000000000e+00
	2.628305822645506e+00
	5.169878828456423e-24
	-2.332854625461138e-01
50		4.328000000000001e+00
	5.000000000000000e+00
	0.000000000000000e+00
	2.628305822645506e+00
	-6.410649747285964e-24
	-2.332854625461138e-01
51		4.428000000000001e+00
	5.000000000000000e+00
	0.000000000000000e+00
	2.628305822645506e+00
	5.169878828456423e-24
	-2.332854625461138e-01
52		4.528000000000000e+00
	5.000000000000000e+00
	0.000000000000000e+00
	2.628305822645506e+00
	-6.410649747285964e-24
	-2.332854625461138e-01
53		4.628000000000000e+00
	5.000000000000000e+00
	0.000000000000000e+00
	2.628305822645506e+00
	5.169878828456423e-24
	-2.332854625461138e-01
54		4.728000000000000e+00
	5.000000000000000e+00
	0.000000000000000e+00
	2.628305822645506e+00
	-6.410649747285964e-24
	-2.332854625461138e-01
55		4.827999999999999e+00
	5.000000000000000e+00
	0.000000000000000e+00
	2.628305822645506e+00
	5.169878828456423e-24
	-2.332854625461138e-01
56		4.927999999999999e+00
	5.000000000000000e+00
	0.000000000000000e+00
	2.628305822645506e+00
	-6.410649747285964e-24
	-2.332854625461138e-01
57		5.027999999999999e+00
	5.000000000000000e+00
	0.000000000000000e+00
	2.628305822645506e+00
	5.169878828456423e-24
	-2.332854625461138e-01
58		5.127999999999998e+00
	5.000000000000000e+00
	0.000000000000000e+00
	2.628305822645506e+00
	-6.410649747285964e-24
	-2.332854625461138e-01
59		5.227999999999998e+00
	5.000000000000000e+00
	0.000000000000000e+00
	2.628305822645506e+00
	5.169878828456423e-24
	-2.332854625461138e-01
60		5.327999999999998e+00
	5.000000000000000e+00
	0.000000000000000e+00
	2.628305822645506e+00
	-6.410649747285964e-24
	-2.332854625461138e-01
61		5.427999999999997e+00
	5.000000000000000e+00
	0.000000000000000e+00
	2.628305822645506e+00
	5.169878828456423e-24
	-2.332854625461138e-01
62		5.527999999999997e+00
	5.000000000000000e+00
	0.000000000000000e+00
	2.628305822645506e+00
	-6.410649747285964e-24
	-2.332854625461138e-01
63		5.627999999999997e+00
	5.000000000000000e+00
	0.000000000000000e+00
	2.628305822645506e+00
	5.169878828456423e-24
	-2.332854625461138e-01
64		5.727999999999996e+00
	5.000000000000000e+00
	0.000000000000000e+00
	2.628305822645506e+00
	-6.410649747285964e-24
	-2.332854625461138e-01
65		5.827999999999996e+00
	5.000000000000000e+00
	0.000000000000000e+00
	2.628305822645506e+00
	5.169878828456423e-24
	-2.332854625461138e-01
66		5.927999999999995e+00
	5.000000000000000e+00
	0.000000000000000e+00
	2.628305822645506e+00
	-6.410649747285964e-24
	-2.332854625461138e-01
67		6.027999999999995e+00
	5.000000000000000e+00
	0.000000000000000e+00
	2.628305822645506e+00
	5.169878828456423e-24
	-2.332854625461138e-01
68		6.127999999999995e+00
	5.000000000000000e+00
	0.000000000000000e+00
	2.628305822645506e+00
	-6.410649747285964e-24
	-2.332854625461138e-01
69		6.227999999999994e+00
	5.000000000000000e+00
	0.000000000000000e+00
	2.628305822645506e+00
	5.169878828456423e-24
	-2.332854625461138e-01
70		6.327999999999994e+00
	5.000000000000000e+00
	0.000000000000000e+00
	2.628305822645506e+00
	-6.410649747285964e-24
	-2.332854625461138e-01
71		6.427999999999994e+00
	5.000000000000000e+00
	0.000000000000000e+00
	2.628305822645506e+00
	5.169878828456423e-24
	-2.332854625461138e-01
72		6.527999999999993e+00
	5.000000000000000e+00
	0.000000000000000e+00
	2.628305822645506e+00
	-6.410649747285964e-24
	-2.332854625461138e-01
73		6.627999999999993e+00
	5.000000000000000e+00
	0.000000000000000e+00
	2.628305822645506e+00
	5.169878828456423e-24
	-2.332854625461138e-01
74		6.727999999999993e+00
	5.000000000000000e+00
	0.000000000000000e+00
	2.628305822645506e+00
	-6.410649747285964e-24
	-2.332854625461138e-01
75		6.827999999999992e+00
	5.000000000000000e+00
	0.000000000000000e+00
	2.628305822645506e+00
	5.169878828456423e-24
	-2.332854625461138e-01
76		6.927999999999992e+00
	5.000000000000000e+00
	0.000000000000000e+00
	2.628305822645506e+00
	-6.410649747285964e-24
	-2.332854625461138e-01
77		7.027999999999992e+00
	5.000000000000000e+00
	0.000000000000000e+00
	2.628305822645506e+00
	5.169878828456423e-24
	-2.332854625461138e-01
78		7.127999999999991e+00
	5.000000000000000e+00
	0.000000000000000e+00
	2.628305822645506e+00
	-6.410649747285964e-24
	-2.332854625461138e-01
79		7.227999999999991e+00
	5.000000000000000e+00
	0.000000000000000e+00
	2.628305822645506e+00
	5.169878828456423e-24
	-2.332854625461138e-01
80		7.327999999999991e+00
	5.000000000000000e+00
	0.000000000000000e+00
	2.628305822645506e+00
	-6.410649747285964e-24
	-2.332854625461138e-01
81		7.427999999999990e+00
	5.000000000000000e+00
	0.000000000000000e+00
	2.628305822645506e+00
	5.169878828456423e-24
	-2.332854625461138e-01
82		7.527999999999990e+00
	5.000000000000000e+00
	0.000000000000000e+00
	2.628305822645506e+00
	-6.410649747285964e-24
	-2.332854625461138e-01
83		7.627999999999989e+00
	5.000000000000000e+00
	0.000000000000000e+00
	2.628305822645506e+00
	5.169878828456423e-24
	-2.332854625461138e-01
84		7.727999999999989e+00
	5.000000000000000e+00
	0.000000000000000e+00
	2.628305822645506e+00
	-6.410649747285964e-24
	-2.332854625461138e-01
85		7.827999999999989e+00
	5.000000000000000e+00
	0.000000000000000e+00
	2.628305822645506e+00
	5.169878828456423e-24
	-2.332854625461138e-01
86		7.927999999999988e+00
	5.000000000000000e+00
	0.000000000000000e+00
	2.628305822645506e+00
	-6.410649747285964e-24
	-2.332854625461138e-01
87		8.027999999999988e+00
	5.000000000000000e+00
	0.000000000000000e+00
	2.628305822645506e+00
	5.169878828456423e-24
	-2.332854625461138e-01
88		8.127999999999988e+00
	5.000000000000000e+00
	0.000000000000000e+00
	2.628305822645506e+00
	-6.410649747285964e-24
	-2.332854625461138e-01
89		8.227999999999987e+00
	5.000000000000000e+00
	0.000000000000000e+00
	2.628305822645506e+00
	5.169878828456423e-24
	-2.332854625461138e-01
90		8.327999999999987e+00
	5.000000000000000e+00
	0.000000000000000e+00
	2.628305822645506e+00
	-6.410649747285964e-24
	-2.332854625461138e-01
91		8.427999999999987e+00
	5.000000000000000e+00
	0.000000000000000e+00
	2.628305822645506e+00
	5.169878828456423e-24
	-2.332854625461138e-01
92		8.527999999999986e+00
	5.000000000000000e+00
	0.000000000000000e+00
	2.628305822645506e+00
	-6.410649747285964e-24
	-2.332854625461138e-01
93		8.627999999999986e+00
	5.000000000000000e+00
	0.000000000000000e+00
	2.628305822645506e+00
	5.169878828456423e-24
	-2.332854625461138e-01
94		8.727999999999986e+00
	5.000000000000000e+00
	0.000000000000000e+00
	2.628305822645506e+00
	-6.410649747285964e-24
	-2.332854625461138e-01
95		8.827999999999985e+00
	5.000000000000000e+00
	0.000000000000000e+00
	2.628305822645506e+00
	5.169878828456423e-24
	-2.332854625461138e-01
96		8.927999999999985e+00
	5.000000000000000e+00
	0.000000000000000e+00
	2.628305822645506e+00
	-6.410649747285964e-24
	-2.332854625461138e-01
97		9.027999999999984e+00
	5.000000000000000e+00
	0.000000000000000e+00
	2.628305822645506e+00
	5.169878828456423e-24
	-2.332854625461138e-01
98		9.127999999999984e+00
	5.000000000000000e+00
	0.000000000000000e+00
	2.628305822645506e+00
	-6.410649747285964e-24
	-2.332854625461138e-01
99		9.227999999999984e+00
	5.000000000000000e+00
	0.000000000000000e+00
	2.628305822645506e+00
	5.169878828456423e-24
	-2.332854625461138e-01
100		9.327999999999983e+00
	5.000000000000000e+00
	0.000000000000000e+00
	2.628305822645506e+00
	-6.410649747285964e-24
	-2.332854625461138e-01
101		9.427999999999983e+00
	5.000000000000000e+00
	0.000000000000000e+00
	2.628305822645506e+00
	5.169878828456423e-24
	-2.332854625461138e-01
102		9.527999999999983e+00
	5.000000000000000e+00
	0.000000000000000e+00
	2.628305822645506e+00
	-6.410649747285964e-24
	-2.332854625461138e-01
103		9.627999999999982e+00
	5.000000000000000e+00
	0.000000000000000e+00
	2.628305822645506e+00
	5.169878828456423e-24
	-2.332854625461138e-01
104		9.727999999999982e+00
	5.000000000000000e+00
	0.000000000000000e+00
	2.628305822645506e+00
	-6.410649747285964e-24
	-2.332854625461138e-01
105		9.827999999999982e+00
	5.000000000000000e+00
	0.000000000000000e+00
	2.628305822645506e+00
	5.169878828456423e-24
	-2.332854625461138e-01
106		9.927999999999981e+00
	5.000000000000000e+00
	0.000000000000000e+00
	2.628305822645506e+00
	-6.410649747285964e-24
	-2.332854625461138e-01
107		1.000000000000000e+01
	5.000000000000000e+00
	0.000000000000000e+00
	2.628305822645506e+00
	3.308722450212111e-24
	-2.332854625461209e-01
108		1.001000000000000e+01
	5.000000000000000e+00
	4.999999999999893e-02
	2.628305992975592e+00
	-7.665348826357122e-10
	-2.332854376469982e-01
109		1.003000000000000e+01
	5.000000000000000e+00
	1.499999999999968e-01
	2.628306279035034e+00
	-7.670511497948279e-10
	-2.332853965384878e-01
110		1.007000000000000e+01
	5.000000000000000e+00
	3.499999999999925e-01
	2.628306714061739e+00
	-7.678658728391872e-10
	-2.332853340224439e-01
111		1.015000000000000e+01
	5.000000000000000e+00
	7.499999999999929e-01
	2.628306917573378e+00
	-6.177974825956485e-10
	-2.332853047765617e-01
112		1.025000000000000e+01
	5.000000000000000e+00
	1.249999999999991e+00
	2.628306917833742e+00
	-6.078676114868122e-10
	-2.332853047391446e-01
113		1.035000000000000e+01
	5.000000000000000e+00
	1.749999999999989e+00
	2.628306917842596e+00
	-9.548763791999386e-10
	-2.332853047378727e-01
114		1.045000000000000e+01
	5.000000000000000e+00
	2.249999999999988e+00
	2.628306917833745e+00
	-7.265240367590002e-10
	-2.332853047391446e-01
115		1.055000000000000e+01
	5.000000000000000e+00
	2.749999999999986e+00
	2.628306917842596e+00
	-9.595108823468656e-10
	-2.332853047379437e-01
116		1.065000000000000e+01
	5.000000000000000e+00
	3.249999999999984e+00
	2.628306917833745e+00
	-7.219652510596598e-10
	-2.332853047437773e-01
117		1.075000000000000e+01
	5.000000000000000e+00
	3.749999999999982e+00
	2.628306917842601e+00
	-8.412373593130030e-10
	-2.332853048562242e-01
118		1.085000000000000e+01
	5.000000000000000e+00
	4.249999999999980e+00
	2.628306918437656e+00
	-3.938526632097084e-10
	-2.332853051468220e-01
119		1.095000000000000e+01
	5.000000000000000e+00
	4.749999999999979e+00
	2.628308437459640e+00
	-1.027592554450317e-09
	-2.332854932397446e-01
120		1.100000000000000e+01
	5.000000000000000e+00
	5.000000000000000e+00
	2.628311625494486e+00
	-5.135022931343027e-10
	-2.332858891276857e-01
121		1.101000000000000e+01
	5.000000000000000e+00
	5.000000000000000e+00
	2.628311589266800e+00
	-4.511207935519557e-14
	-2.332858848395141e-01
122		1.103000000000000e+01
	5.000000000000000e+00
	5.000000000000000e+00
	2.628311625487040e+00
	8.925317827556663e-16
	-2.332858893341374e-01
123		1.107000000000000e+01
	5.000000000000000e+00
	5.000000000000000e+00
	2.628311625487040e+00
	-8.925311371411982e-16
	-2.332858893341339e-01
124		1.115000000000000e+01
	5.000000000000000e+00
	5.000000000000000e+00
	2.628311625487040e+00
	8.925314535377825e-16
	-2.332858893341445e-01
125		1.125000000000000e+01
	5.000000000000000e+00
	5.000000000000000e+00
	2.628311625487040e+00
	-8.925314527106019e-16
	-2.332858893341374e-01
126		1.135000000000000e+01
	5.000000000000000e+00
	5.000000000000000e+00
	2.628311625487040e+00
	8.925314518834213e-16
	-2.332858893341374e-01
127		1.145000000000000e+01
	5.000000000000000e+00
	5.000000000000000e+00
	2.628311625487040e+00
	-8.925314518834213e-16
	-2.332858893341374e-01
128		1.155000000000000e+01
	5.000000000000000e+00
	5.000000000000000e+00
	2.628311625487040e+00
	8.925314527106019e-16
	-2.332858893341374e-01
129		1.165000000000000e+01
	5.000000000000000e+00
	5.000000000000000e+00
	2.628311625487040e+00
	-8.925314518834213e-16
	-2.332858893341374e-01
130		1.175000000000000e+01
	5.000000000000000e+00
	5.000000000000000e+00
	2.628311625487040e+00
	8.925314527106019e-16
	-2.332858893341374e-01
131		1.185000000000000e+01
	5.000000000000000e+00
	5.000000000000000e+00
	2.628311625487040e+00
	-8.925314535377825e-16
	-2.332858893341374e-01
132		1.195000000000000e+01
	5.000000000000000e+00
	5.000000000000000e+00
	2.628311625487040e+00
	8.925314543649631e-16
	-2.332858893341374e-01
133		1.205000000000000e+01
	5.000000000000000e+00
	5.000000000000000e+00
	2.628311625487040e+00
	-8.925314535377825e-16
	-2.332858893341374e-01
134		1.215000000000000e+01
	5.000000000000000e+00
	5.000000000000000e+00
	2.628311625487040e+00
	8.925314543649631e-16
	-2.332858893341374e-01
135		1.224999999999999e+01
	5.000000000000000e+00
	5.000000000000000e+00
	2.628311625487040e+00
	-8.925314535377825e-16
	-2.332858893341374e-01
136		1.234999999999999e+01
	5.000000000000000e+00
	5.000000000000000e+00
	2.628311625487040e+00
	8.925314543649631e-16
	-2.332858893341374e-01
137		1.244999999999999e+01
	5.000000000000000e+00
	5.000000000000000e+00
	2.628311625487040e+00
	-8.925314535377825e-16
	-2.332858893341374e-01
138		1.254999999999999e+01
