                    * c:\users\hp\esim-workspace\as2\as2.cir
                    Transient Analysis  Thu Jun 27 09:35:05  2019
--------------------------------------------------------------------------------
Index   time            c               net-_c1-pad1_   net-_d1-pad1_   
--------------------------------------------------------------------------------
0	0.000000e+00	0.000000e+00	3.326405e+00	2.498706e-06	
1	1.000000e-05	1.037712e-02	3.326411e+00	2.498706e-06	
2	2.000000e-05	2.073167e-02	3.326422e+00	2.498706e-06	
3	4.000000e-05	4.139572e-02	3.326450e+00	2.498706e-06	
4	8.000000e-05	8.245474e-02	3.326532e+00	2.498706e-06	
5	1.600000e-04	1.635081e-01	3.326728e+00	2.498706e-06	
6	3.200000e-04	3.214473e-01	3.327126e+00	2.498706e-06	
7	6.400000e-04	6.213582e-01	3.327879e+00	2.498706e-06	
8	1.280000e-03	1.162515e+00	3.329239e+00	2.498706e-06	
9	2.560000e-03	2.046080e+00	3.331458e+00	2.498706e-06	
10	4.274835e-03	2.904283e+00	3.333614e+00	2.498706e-06	
11	6.274835e-03	3.572490e+00	3.335292e+00	2.498706e-06	
12	6.274836e-03	3.572490e+00	3.335292e+00	2.498706e-06	
13	6.274836e-03	3.572490e+00	3.335292e+00	2.498706e-06	
14	6.274836e-03	3.572490e+00	3.335292e+00	2.498706e-06	
15	6.274836e-03	3.572489e+00	3.335292e+00	2.498706e-06	
16	6.274837e-03	3.572489e+00	3.335292e+00	2.498706e-06	
17	6.274837e-03	3.572489e+00	3.335292e+00	2.498706e-06	
18	6.274837e-03	3.572489e+00	3.335292e+00	2.498706e-06	
19	6.274837e-03	3.572489e+00	3.335292e+00	2.498706e-06	
20	6.274838e-03	3.572488e+00	3.335292e+00	2.498706e-06	
21	6.274839e-03	3.572487e+00	3.335292e+00	2.498706e-06	
22	6.274842e-03	3.572486e+00	3.335292e+00	2.498706e-06	
23	6.274847e-03	3.572482e+00	3.335292e+00	2.498706e-06	
24	6.274857e-03	3.572474e+00	3.335292e+00	2.498706e-06	
25	6.274878e-03	3.572459e+00	3.335292e+00	2.498706e-06	
26	6.274918e-03	3.572430e+00	3.335292e+00	2.498706e-06	
27	6.275000e-03	3.572370e+00	3.335292e+00	2.498706e-06	
28	6.275164e-03	3.572250e+00	3.335292e+00	2.498706e-06	
29	6.275492e-03	3.572012e+00	3.335292e+00	2.498706e-06	
30	6.276147e-03	3.571534e+00	3.335293e+00	2.498706e-06	
31	6.277458e-03	3.570579e+00	3.335294e+00	2.498706e-06	
32	6.280079e-03	3.568670e+00	3.335295e+00	2.498706e-06	
33	6.285322e-03	3.564855e+00	3.335295e+00	2.498706e-06	
34	6.295808e-03	3.557239e+00	3.335293e+00	2.498706e-06	
35	6.316780e-03	3.542058e+00	3.335276e+00	2.498706e-06	
36	6.358723e-03	3.511906e+00	3.335218e+00	2.498706e-06	
37	6.442609e-03	3.452428e+00	3.335074e+00	2.498706e-06	
38	6.610381e-03	3.336706e+00	3.334782e+00	2.498706e-06	
39	6.945925e-03	3.117616e+00	3.334232e+00	2.498706e-06	
40	7.617014e-03	2.724609e+00	3.333245e+00	2.498706e-06	
41	8.959191e-03	2.090239e+00	3.331651e+00	2.498706e-06	
42	1.095919e-02	1.429751e+00	3.329992e+00	2.498706e-06	
43	1.095919e-02	1.429751e+00	3.329992e+00	2.498706e-06	
44	1.095919e-02	1.429751e+00	3.329992e+00	2.498706e-06	
45	1.095919e-02	1.429751e+00	3.329992e+00	2.498706e-06	
46	1.095919e-02	1.429751e+00	3.329992e+00	2.498706e-06	
47	1.095919e-02	1.429751e+00	3.329992e+00	2.498706e-06	
48	1.095919e-02	1.429751e+00	3.329992e+00	2.498706e-06	
49	1.095919e-02	1.429751e+00	3.329992e+00	2.498706e-06	
50	1.095919e-02	1.429751e+00	3.329992e+00	2.498706e-06	
51	1.095919e-02	1.429752e+00	3.329992e+00	2.498706e-06	
52	1.095920e-02	1.429753e+00	3.329992e+00	2.498706e-06	
53	1.095920e-02	1.429753e+00	3.329992e+00	2.498706e-06	
54	1.095920e-02	1.429753e+00	3.329992e+00	3.308483e-04	

Index   time            c               net-_c1-pad1_   net-_d1-pad1_   
--------------------------------------------------------------------------------
55	1.095920e-02	1.429753e+00	3.329992e+00	1.097394e-03	
56	1.095920e-02	1.429753e+00	3.329992e+00	1.780728e-03	
57	1.095920e-02	1.429753e+00	3.329992e+00	2.536225e-03	
58	1.095920e-02	1.429753e+00	3.329992e+00	3.476713e-03	
59	1.095920e-02	1.429753e+00	3.329992e+00	4.916283e-03	
60	1.095920e-02	1.429753e+00	3.329992e+00	7.513122e-03	
61	1.095920e-02	1.429753e+00	3.329992e+00	1.218567e-02	
62	1.095920e-02	1.429754e+00	3.329992e+00	1.976565e-02	
63	1.095920e-02	1.429754e+00	3.329992e+00	2.748852e-02	
64	1.095920e-02	1.429754e+00	3.329992e+00	3.179280e-02	
65	1.095920e-02	1.429754e+00	3.329992e+00	2.988199e-02	
66	1.095920e-02	1.429754e+00	3.329992e+00	1.234211e-02	
67	1.095920e-02	1.429754e+00	3.329992e+00	-1.16309e-03	
68	1.095920e-02	1.429754e+00	3.329992e+00	-1.19383e-03	
69	1.095920e-02	1.429754e+00	3.329992e+00	-1.23444e-03	
70	1.095920e-02	1.429754e+00	3.329992e+00	-1.25065e-03	
71	1.095920e-02	1.429754e+00	3.329992e+00	-1.25214e-03	
72	1.095920e-02	1.429754e+00	3.329992e+00	-1.25318e-03	
73	1.095920e-02	1.429754e+00	3.329992e+00	-1.25335e-03	
74	1.095920e-02	1.429754e+00	3.329992e+00	-1.25331e-03	
75	1.095920e-02	1.429754e+00	3.329992e+00	-1.25318e-03	
76	1.095920e-02	1.429754e+00	3.329992e+00	-1.25294e-03	
77	1.095920e-02	1.429754e+00	3.329992e+00	-1.25257e-03	
78	1.095920e-02	1.429754e+00	3.329992e+00	-1.25183e-03	
79	1.095920e-02	1.429754e+00	3.329992e+00	-1.25034e-03	
80	1.095920e-02	1.429754e+00	3.329992e+00	-1.24738e-03	
81	1.095920e-02	1.429754e+00	3.329992e+00	-1.24147e-03	
82	1.095920e-02	1.429754e+00	3.329992e+00	-1.22973e-03	
83	1.095920e-02	1.429755e+00	3.329992e+00	-1.20659e-03	
84	1.095920e-02	1.429755e+00	3.329992e+00	-1.16161e-03	
85	1.095920e-02	1.429756e+00	3.329992e+00	-1.07656e-03	
86	1.095920e-02	1.429758e+00	3.329992e+00	-9.24465e-04	
87	1.095921e-02	1.429761e+00	3.329992e+00	-6.80355e-04	
88	1.095922e-02	1.429769e+00	3.329992e+00	-3.62561e-04	
89	1.095923e-02	1.429781e+00	3.329992e+00	-1.21308e-04	
90	1.095925e-02	1.429793e+00	3.329992e+00	-3.83059e-05	
91	1.095927e-02	1.429809e+00	3.329992e+00	-4.83313e-06	
92	1.095930e-02	1.429830e+00	3.329992e+00	1.982313e-06	
93	1.095935e-02	1.429867e+00	3.329992e+00	2.607854e-06	
94	1.095944e-02	1.429927e+00	3.329992e+00	2.451703e-06	
95	1.095960e-02	1.430048e+00	3.329992e+00	2.530139e-06	
96	1.095993e-02	1.430289e+00	3.329991e+00	2.472939e-06	
97	1.096059e-02	1.430770e+00	3.329991e+00	2.522042e-06	
98	1.096192e-02	1.431733e+00	3.329990e+00	2.476495e-06	
99	1.096456e-02	1.433659e+00	3.329989e+00	2.520374e-06	
100	1.096985e-02	1.437506e+00	3.329989e+00	2.477304e-06	
101	1.098044e-02	1.445188e+00	3.329992e+00	2.519976e-06	
102	1.100160e-02	1.460498e+00	3.330009e+00	2.477501e-06	
103	1.104394e-02	1.490908e+00	3.330068e+00	2.519878e-06	
104	1.112861e-02	1.550893e+00	3.330213e+00	2.477550e-06	
105	1.129795e-02	1.667602e+00	3.330507e+00	2.519853e-06	
106	1.163662e-02	1.888557e+00	3.331062e+00	2.477562e-06	
107	1.231398e-02	2.284897e+00	3.332058e+00	2.519847e-06	
108	1.366869e-02	2.924612e+00	3.333665e+00	2.477565e-06	
109	1.566869e-02	3.585542e+00	3.335325e+00	2.519845e-06	
110	1.566869e-02	3.585542e+00	3.335325e+00	2.518239e-06	
111	1.566869e-02	3.585542e+00	3.335325e+00	2.518304e-06	
112	1.566869e-02	3.585542e+00	3.335325e+00	2.518070e-06	

Index   time            c               net-_c1-pad1_   net-_d1-pad1_   
--------------------------------------------------------------------------------
113	1.566869e-02	3.585542e+00	3.335325e+00	2.517604e-06	
114	1.566869e-02	3.585541e+00	3.335325e+00	2.517265e-06	
115	1.566869e-02	3.585541e+00	3.335325e+00	2.517174e-06	
116	1.566869e-02	3.585541e+00	3.335325e+00	2.516996e-06	
117	1.566869e-02	3.585541e+00	3.335325e+00	2.516645e-06	
118	1.566869e-02	3.585541e+00	3.335325e+00	2.515962e-06	
119	1.566869e-02	3.585540e+00	3.335325e+00	2.514672e-06	
120	1.566869e-02	3.585538e+00	3.335325e+00	2.512372e-06	
121	1.566870e-02	3.585534e+00	3.335325e+00	2.508699e-06	
122	1.566871e-02	3.585527e+00	3.335325e+00	2.503964e-06	
123	1.566873e-02	3.585512e+00	3.335325e+00	2.499935e-06	
124	1.566877e-02	3.585482e+00	3.335325e+00	2.498573e-06	
125	1.566885e-02	3.585422e+00	3.335325e+00	2.498762e-06	
126	1.566902e-02	3.585302e+00	3.335325e+00	2.498668e-06	
127	1.566934e-02	3.585062e+00	3.335325e+00	2.498736e-06	
128	1.567000e-02	3.584583e+00	3.335326e+00	2.498678e-06	
129	1.567131e-02	3.583624e+00	3.335327e+00	2.498732e-06	
130	1.567393e-02	3.581707e+00	3.335328e+00	2.498680e-06	
131	1.567917e-02	3.577877e+00	3.335328e+00	2.498731e-06	
132	1.568966e-02	3.570231e+00	3.335325e+00	2.498680e-06	
133	1.571063e-02	3.554990e+00	3.335308e+00	2.498731e-06	
134	1.575258e-02	3.524719e+00	3.335250e+00	2.498681e-06	
135	1.583646e-02	3.465008e+00	3.335106e+00	2.498731e-06	
136	1.600423e-02	3.348829e+00	3.334813e+00	2.498681e-06	
137	1.633978e-02	3.128876e+00	3.334261e+00	2.498731e-06	
138	1.701087e-02	2.734322e+00	3.333269e+00	2.498681e-06	
139	1.835304e-02	2.097453e+00	3.331670e+00	2.498731e-06	
140	2.035304e-02	1.434364e+00	3.330004e+00	2.498681e-06	
141	2.035304e-02	1.434364e+00	3.330004e+00	2.498682e-06	
142	2.035304e-02	1.434364e+00	3.330004e+00	2.498682e-06	
143	2.035305e-02	1.434364e+00	3.330004e+00	2.498682e-06	
144	2.035305e-02	1.434364e+00	3.330004e+00	2.498683e-06	
145	2.035305e-02	1.434364e+00	3.330004e+00	2.498683e-06	
146	2.035305e-02	1.434364e+00	3.330004e+00	2.498684e-06	
147	2.035305e-02	1.434364e+00	3.330004e+00	2.498684e-06	
148	2.035305e-02	1.434364e+00	3.330004e+00	2.498684e-06	
149	2.035305e-02	1.434365e+00	3.330004e+00	2.498685e-06	
150	2.035305e-02	1.434365e+00	3.330004e+00	2.498687e-06	
151	2.035305e-02	1.434366e+00	3.330004e+00	2.498688e-06	
152	2.035305e-02	1.434366e+00	3.330004e+00	3.308481e-04	
153	2.035305e-02	1.434366e+00	3.330004e+00	1.097394e-03	
154	2.035305e-02	1.434366e+00	3.330004e+00	1.780726e-03	
155	2.035305e-02	1.434366e+00	3.330004e+00	2.536221e-03	
156	2.035305e-02	1.434366e+00	3.330004e+00	3.476708e-03	
157	2.035305e-02	1.434366e+00	3.330004e+00	4.916264e-03	
158	2.035305e-02	1.434366e+00	3.330004e+00	7.513072e-03	
159	2.035305e-02	1.434366e+00	3.330004e+00	1.218557e-02	
160	2.035305e-02	1.434366e+00	3.330004e+00	1.976549e-02	
161	2.035305e-02	1.434367e+00	3.330004e+00	2.748843e-02	
162	2.035305e-02	1.434367e+00	3.330004e+00	3.179276e-02	
163	2.035305e-02	1.434367e+00	3.330004e+00	2.988210e-02	
164	2.035305e-02	1.434367e+00	3.330004e+00	1.234274e-02	
165	2.035305e-02	1.434367e+00	3.330004e+00	-1.16310e-03	
166	2.035305e-02	1.434367e+00	3.330004e+00	-1.19383e-03	
167	2.035305e-02	1.434367e+00	3.330004e+00	-1.23444e-03	
168	2.035305e-02	1.434367e+00	3.330004e+00	-1.25065e-03	
169	2.035305e-02	1.434367e+00	3.330004e+00	-1.25215e-03	
170	2.035305e-02	1.434367e+00	3.330004e+00	-1.25318e-03	

Index   time            c               net-_c1-pad1_   net-_d1-pad1_   
--------------------------------------------------------------------------------
171	2.035305e-02	1.434367e+00	3.330004e+00	-1.25335e-03	
172	2.035305e-02	1.434367e+00	3.330004e+00	-1.25331e-03	
173	2.035305e-02	1.434367e+00	3.330004e+00	-1.25318e-03	
174	2.035305e-02	1.434367e+00	3.330004e+00	-1.25294e-03	
175	2.035305e-02	1.434367e+00	3.330004e+00	-1.25257e-03	
176	2.035305e-02	1.434367e+00	3.330004e+00	-1.25183e-03	
177	2.035305e-02	1.434367e+00	3.330004e+00	-1.25034e-03	
178	2.035305e-02	1.434367e+00	3.330004e+00	-1.24738e-03	
179	2.035305e-02	1.434367e+00	3.330004e+00	-1.24147e-03	
180	2.035305e-02	1.434367e+00	3.330004e+00	-1.22973e-03	
181	2.035305e-02	1.434368e+00	3.330004e+00	-1.20659e-03	
182	2.035305e-02	1.434368e+00	3.330004e+00	-1.16161e-03	
183	2.035305e-02	1.434369e+00	3.330004e+00	-1.07656e-03	
184	2.035306e-02	1.434371e+00	3.330004e+00	-9.24462e-04	
185	2.035306e-02	1.434374e+00	3.330004e+00	-6.80350e-04	
186	2.035307e-02	1.434382e+00	3.330003e+00	-3.62556e-04	
187	2.035309e-02	1.434393e+00	3.330003e+00	-1.21307e-04	
188	2.035310e-02	1.434406e+00	3.330003e+00	-3.83050e-05	
189	2.035313e-02	1.434422e+00	3.330003e+00	-4.83297e-06	
190	2.035315e-02	1.434443e+00	3.330003e+00	1.982361e-06	
191	2.035321e-02	1.434480e+00	3.330003e+00	2.607844e-06	
192	2.035329e-02	1.434540e+00	3.330003e+00	2.451707e-06	
193	2.035345e-02	1.434660e+00	3.330003e+00	2.530137e-06	
194	2.035378e-02	1.434901e+00	3.330003e+00	2.472941e-06	
195	2.035445e-02	1.435382e+00	3.330003e+00	2.522041e-06	
196	2.035577e-02	1.436344e+00	3.330002e+00	2.476497e-06	
197	2.035841e-02	1.438266e+00	3.330001e+00	2.520373e-06	
198	2.036371e-02	1.442109e+00	3.330000e+00	2.477305e-06	
199	2.037429e-02	1.449780e+00	3.330003e+00	2.519975e-06	
200	2.039546e-02	1.465069e+00	3.330021e+00	2.477502e-06	
201	2.043779e-02	1.495437e+00	3.330080e+00	2.519876e-06	
202	2.052246e-02	1.555340e+00	3.330225e+00	2.477551e-06	
203	2.069180e-02	1.671890e+00	3.330518e+00	2.519852e-06	
204	2.103049e-02	1.892542e+00	3.331072e+00	2.477564e-06	
205	2.170785e-02	2.288340e+00	3.332067e+00	2.519846e-06	
206	2.306258e-02	2.927176e+00	3.333671e+00	2.477567e-06	
207	2.506258e-02	3.587188e+00	3.335329e+00	2.519844e-06	
208	2.506258e-02	3.587189e+00	3.335329e+00	2.518237e-06	
209	2.506258e-02	3.587189e+00	3.335329e+00	2.518303e-06	
210	2.506258e-02	3.587189e+00	3.335329e+00	2.518069e-06	
211	2.506258e-02	3.587188e+00	3.335329e+00	2.517602e-06	
212	2.506258e-02	3.587188e+00	3.335329e+00	2.517264e-06	
213	2.506258e-02	3.587188e+00	3.335329e+00	2.517173e-06	
214	2.506258e-02	3.587188e+00	3.335329e+00	2.516995e-06	
215	2.506258e-02	3.587188e+00	3.335329e+00	2.516643e-06	
216	2.506258e-02	3.587187e+00	3.335329e+00	2.515961e-06	
217	2.506258e-02	3.587186e+00	3.335329e+00	2.514671e-06	
218	2.506258e-02	3.587184e+00	3.335329e+00	2.512371e-06	
219	2.506259e-02	3.587181e+00	3.335329e+00	2.508699e-06	
220	2.506260e-02	3.587173e+00	3.335329e+00	2.503964e-06	
221	2.506262e-02	3.587158e+00	3.335329e+00	2.499935e-06	
222	2.506266e-02	3.587128e+00	3.335329e+00	2.498573e-06	
223	2.506274e-02	3.587068e+00	3.335329e+00	2.498762e-06	
224	2.506291e-02	3.586948e+00	3.335329e+00	2.498668e-06	
225	2.506323e-02	3.586708e+00	3.335330e+00	2.498736e-06	
226	2.506389e-02	3.586229e+00	3.335330e+00	2.498678e-06	
227	2.506520e-02	3.585269e+00	3.335331e+00	2.498732e-06	
228	2.506782e-02	3.583352e+00	3.335332e+00	2.498680e-06	

Index   time            c               net-_c1-pad1_   net-_d1-pad1_   
--------------------------------------------------------------------------------
229	2.507306e-02	3.579520e+00	3.335332e+00	2.498731e-06	
230	2.508355e-02	3.571870e+00	3.335330e+00	2.498680e-06	
231	2.510452e-02	3.556622e+00	3.335312e+00	2.498731e-06	
232	2.514647e-02	3.526336e+00	3.335254e+00	2.498681e-06	
233	2.523035e-02	3.466595e+00	3.335109e+00	2.498731e-06	
234	2.539812e-02	3.350359e+00	3.334817e+00	2.498681e-06	
235	2.573367e-02	3.130297e+00	3.334264e+00	2.498731e-06	
236	2.640476e-02	2.735547e+00	3.333272e+00	2.498681e-06	
237	2.774693e-02	2.098363e+00	3.331672e+00	2.498731e-06	
238	2.974693e-02	1.434946e+00	3.330005e+00	2.498681e-06	
239	2.974693e-02	1.434946e+00	3.330005e+00	2.498682e-06	
240	2.974693e-02	1.434946e+00	3.330005e+00	2.498682e-06	
241	2.974694e-02	1.434946e+00	3.330005e+00	2.498682e-06	
242	2.974694e-02	1.434946e+00	3.330005e+00	2.498683e-06	
243	2.974694e-02	1.434946e+00	3.330005e+00	2.498683e-06	
244	2.974694e-02	1.434946e+00	3.330005e+00	2.498684e-06	
245	2.974694e-02	1.434946e+00	3.330005e+00	2.498684e-06	
246	2.974694e-02	1.434946e+00	3.330005e+00	2.498684e-06	
247	2.974694e-02	1.434946e+00	3.330005e+00	2.498685e-06	
248	2.974694e-02	1.434947e+00	3.330005e+00	2.498687e-06	
249	2.974694e-02	1.434948e+00	3.330005e+00	2.498688e-06	
250	2.974694e-02	1.434948e+00	3.330005e+00	3.308481e-04	
251	2.974694e-02	1.434948e+00	3.330005e+00	1.097394e-03	
252	2.974694e-02	1.434948e+00	3.330005e+00	1.780726e-03	
253	2.974694e-02	1.434948e+00	3.330005e+00	2.536221e-03	
254	2.974694e-02	1.434948e+00	3.330005e+00	3.476708e-03	
255	2.974694e-02	1.434948e+00	3.330005e+00	4.916264e-03	
256	2.974694e-02	1.434948e+00	3.330005e+00	7.513072e-03	
257	2.974694e-02	1.434948e+00	3.330005e+00	1.218557e-02	
258	2.974694e-02	1.434948e+00	3.330005e+00	1.976549e-02	
259	2.974694e-02	1.434949e+00	3.330005e+00	2.748843e-02	
260	2.974694e-02	1.434949e+00	3.330005e+00	3.179276e-02	
261	2.974694e-02	1.434949e+00	3.330005e+00	2.988210e-02	
262	2.974694e-02	1.434949e+00	3.330005e+00	1.234274e-02	
263	2.974694e-02	1.434949e+00	3.330005e+00	-1.16310e-03	
264	2.974694e-02	1.434949e+00	3.330005e+00	-1.19383e-03	
265	2.974694e-02	1.434949e+00	3.330005e+00	-1.23444e-03	
266	2.974694e-02	1.434949e+00	3.330005e+00	-1.25065e-03	
267	2.974694e-02	1.434949e+00	3.330005e+00	-1.25215e-03	
268	2.974694e-02	1.434949e+00	3.330005e+00	-1.25318e-03	
269	2.974694e-02	1.434949e+00	3.330005e+00	-1.25335e-03	
270	2.974694e-02	1.434949e+00	3.330005e+00	-1.25331e-03	
271	2.974694e-02	1.434949e+00	3.330005e+00	-1.25318e-03	
272	2.974694e-02	1.434949e+00	3.330005e+00	-1.25294e-03	
273	2.974694e-02	1.434949e+00	3.330005e+00	-1.25257e-03	
274	2.974694e-02	1.434949e+00	3.330005e+00	-1.25183e-03	
275	2.974694e-02	1.434949e+00	3.330005e+00	-1.25034e-03	
276	2.974694e-02	1.434949e+00	3.330005e+00	-1.24738e-03	
277	2.974694e-02	1.434949e+00	3.330005e+00	-1.24147e-03	
278	2.974694e-02	1.434949e+00	3.330005e+00	-1.22973e-03	
279	2.974694e-02	1.434949e+00	3.330005e+00	-1.20659e-03	
280	2.974694e-02	1.434950e+00	3.330005e+00	-1.16161e-03	
281	2.974694e-02	1.434951e+00	3.330005e+00	-1.07656e-03	
282	2.974695e-02	1.434953e+00	3.330005e+00	-9.24462e-04	
283	2.974695e-02	1.434956e+00	3.330005e+00	-6.80350e-04	
284	2.974696e-02	1.434964e+00	3.330005e+00	-3.62556e-04	
285	2.974698e-02	1.434975e+00	3.330005e+00	-1.21307e-04	
286	2.974699e-02	1.434988e+00	3.330005e+00	-3.83050e-05	

Index   time            c               net-_c1-pad1_   net-_d1-pad1_   
--------------------------------------------------------------------------------
287	2.974702e-02	1.435004e+00	3.330005e+00	-4.83297e-06	
288	2.974704e-02	1.435025e+00	3.330005e+00	1.982361e-06	
289	2.974710e-02	1.435062e+00	3.330005e+00	2.607844e-06	
290	2.974718e-02	1.435122e+00	3.330005e+00	2.451707e-06	
291	2.974734e-02	1.435242e+00	3.330005e+00	2.530137e-06	
292	2.974767e-02	1.435483e+00	3.330005e+00	2.472941e-06	
293	2.974834e-02	1.435964e+00	3.330004e+00	2.522041e-06	
294	2.974966e-02	1.436925e+00	3.330003e+00	2.476497e-06	
295	2.975230e-02	1.438848e+00	3.330003e+00	2.520373e-06	
296	2.975760e-02	1.442689e+00	3.330002e+00	2.477305e-06	
297	2.976818e-02	1.450359e+00	3.330005e+00	2.519975e-06	
298	2.978935e-02	1.465646e+00	3.330022e+00	2.477502e-06	
299	2.983168e-02	1.496008e+00	3.330081e+00	2.519876e-06	
300	2.991635e-02	1.555901e+00	3.330226e+00	2.477551e-06	
301	3.008569e-02	1.672430e+00	3.330520e+00	2.519852e-06	
302	3.042438e-02	1.893044e+00	3.331073e+00	2.477564e-06	
303	3.110174e-02	2.288773e+00	3.332068e+00	2.519846e-06	
304	3.245647e-02	2.927498e+00	3.333672e+00	2.477567e-06	
305	3.445647e-02	3.587395e+00	3.335330e+00	2.519844e-06	
306	3.445647e-02	3.587395e+00	3.335330e+00	2.518237e-06	
307	3.445647e-02	3.587395e+00	3.335330e+00	2.518303e-06	
308	3.445647e-02	3.587395e+00	3.335330e+00	2.518069e-06	
309	3.445647e-02	3.587395e+00	3.335330e+00	2.517602e-06	
310	3.445647e-02	3.587395e+00	3.335330e+00	2.517264e-06	
311	3.445647e-02	3.587394e+00	3.335330e+00	2.517173e-06	
312	3.445647e-02	3.587394e+00	3.335330e+00	2.516995e-06	
313	3.445647e-02	3.587394e+00	3.335330e+00	2.516643e-06	
314	3.445647e-02	3.587394e+00	3.335330e+00	2.515961e-06	
315	3.445647e-02	3.587393e+00	3.335330e+00	2.514671e-06	
316	3.445647e-02	3.587391e+00	3.335330e+00	2.512371e-06	
317	3.445648e-02	3.587387e+00	3.335330e+00	2.508699e-06	
318	3.445649e-02	3.587380e+00	3.335330e+00	2.503964e-06	
319	3.445651e-02	3.587365e+00	3.335330e+00	2.499935e-06	
320	3.445655e-02	3.587335e+00	3.335330e+00	2.498573e-06	
321	3.445663e-02	3.587275e+00	3.335330e+00	2.498762e-06	
322	3.445680e-02	3.587155e+00	3.335330e+00	2.498668e-06	
323	3.445712e-02	3.586915e+00	3.335330e+00	2.498736e-06	
324	3.445778e-02	3.586435e+00	3.335331e+00	2.498678e-06	
325	3.445909e-02	3.585476e+00	3.335331e+00	2.498732e-06	
326	3.446171e-02	3.583558e+00	3.335332e+00	2.498680e-06	
327	3.446695e-02	3.579726e+00	3.335333e+00	2.498731e-06	
328	3.447744e-02	3.572075e+00	3.335330e+00	2.498680e-06	
329	3.449841e-02	3.556826e+00	3.335313e+00	2.498731e-06	
330	3.454036e-02	3.526539e+00	3.335254e+00	2.498681e-06	
331	3.462424e-02	3.466794e+00	3.335110e+00	2.498731e-06	
