         * /home/fossee/updatedexamples/bjt_cb_config/bjt_cb_config.cir
         DC transfer characteristic  Thu Mar  3 18:30:45  2016
--------------------------------------------------------------------------------
Index   i-sweep         v1#branch       v_u_ic1#branch  
--------------------------------------------------------------------------------
0	-1.00000e+00	3.881743e-04	-3.88174e-04	
1	-9.80000e-01	3.696154e-04	-3.69615e-04	
2	-9.60000e-01	3.511728e-04	-3.51173e-04	
3	-9.40000e-01	3.327683e-04	-3.32768e-04	
4	-9.20000e-01	3.144359e-04	-3.14436e-04	
5	-9.00000e-01	2.961838e-04	-2.96184e-04	
6	-8.80000e-01	2.780208e-04	-2.78021e-04	
7	-8.60000e-01	2.599575e-04	-2.59958e-04	
8	-8.40000e-01	2.420062e-04	-2.42006e-04	
9	-8.20000e-01	2.241816e-04	-2.24182e-04	
10	-8.00000e-01	2.065014e-04	-2.06501e-04	
11	-7.80000e-01	1.889869e-04	-1.88987e-04	
12	-7.60000e-01	1.716645e-04	-1.71664e-04	
13	-7.40000e-01	1.545667e-04	-1.54567e-04	
14	-7.20000e-01	1.377344e-04	-1.37734e-04	
15	-7.00000e-01	1.212199e-04	-1.21220e-04	
16	-6.80000e-01	1.050905e-04	-1.05090e-04	
17	-6.60000e-01	8.943467e-05	-8.94347e-05	
18	-6.40000e-01	7.437007e-05	-7.43701e-05	
19	-6.20000e-01	6.005465e-05	-6.00546e-05	
20	-6.00000e-01	4.670077e-05	-4.67008e-05	
21	-5.80000e-01	3.458881e-05	-3.45888e-05	
22	-5.60000e-01	2.409218e-05	-2.40922e-05	
23	-5.40000e-01	1.553639e-05	-1.55364e-05	
24	-5.20000e-01	9.190209e-06	-9.19021e-06	
25	-5.00000e-01	4.997513e-06	-4.99751e-06	
26	-4.80000e-01	2.539474e-06	-2.53947e-06	
27	-4.60000e-01	1.232389e-06	-1.23239e-06	
28	-4.40000e-01	5.838950e-07	-5.83895e-07	
29	-4.20000e-01	2.728953e-07	-2.72895e-07	
30	-4.00000e-01	1.267016e-07	-1.26702e-07	
31	-3.80000e-01	5.864369e-08	-5.86437e-08	
32	-3.60000e-01	2.710431e-08	-2.71043e-08	
33	-3.40000e-01	1.251909e-08	-1.25191e-08	
34	-3.20000e-01	5.780778e-09	-5.78078e-09	
35	-3.00000e-01	2.669092e-09	-2.66909e-09	
36	-2.80000e-01	1.232433e-09	-1.23243e-09	
37	-2.60000e-01	5.691825e-10	-5.69183e-10	
38	-2.40000e-01	2.629869e-10	-2.62987e-10	
39	-2.20000e-01	1.216203e-10	-1.21620e-10	
40	-2.00000e-01	5.634215e-11	-5.63422e-11	
41	-1.80000e-01	2.618753e-11	-2.61875e-11	
42	-1.60000e-01	1.224634e-11	-1.22463e-11	
43	-1.40000e-01	5.789426e-12	-5.78943e-12	
44	-1.20000e-01	2.787322e-12	-2.78732e-12	
45	-1.00000e-01	1.379979e-12	-1.37998e-12	
46	-8.00000e-02	7.088073e-13	-7.08807e-13	
47	-6.00000e-02	3.774516e-13	-3.77452e-13	
48	-4.00000e-02	2.029537e-13	-2.02954e-13	
49	-2.00000e-02	1.008725e-13	-1.00873e-13	
50	6.175616e-16	3.221699e-14	-3.22170e-14	
51	2.000000e-02	-2.10108e-14	2.101084e-14	
52	4.000000e-02	-6.71162e-14	6.711621e-14	
53	6.000000e-02	-1.09930e-13	1.099297e-13	
54	8.000000e-02	-1.51237e-13	1.512374e-13	

Index   i-sweep         v1#branch       v_u_ic1#branch  
--------------------------------------------------------------------------------
55	1.000000e-01	-1.91824e-13	1.918238e-13	
56	1.200000e-01	-2.32043e-13	2.320428e-13	
57	1.400000e-01	-2.72169e-13	2.721695e-13	
58	1.600000e-01	-3.12231e-13	3.122306e-13	
59	1.800000e-01	-3.52269e-13	3.522690e-13	
60	2.000000e-01	-3.92302e-13	3.923023e-13	
61	2.200000e-01	-4.32285e-13	4.322847e-13	
62	2.400000e-01	-4.72283e-13	4.722830e-13	
63	2.600000e-01	-5.12318e-13	5.123175e-13	
64	2.800000e-01	-5.52344e-13	5.523439e-13	
65	3.000000e-01	-5.92298e-13	5.922982e-13	
66	3.200000e-01	-6.32311e-13	6.323108e-13	
67	3.400000e-01	-6.72321e-13	6.723207e-13	
68	3.600000e-01	-7.12329e-13	7.123286e-13	
69	3.800000e-01	-7.52335e-13	7.523350e-13	
70	4.000000e-01	-7.92340e-13	7.923402e-13	
71	4.200000e-01	-8.32345e-13	8.323446e-13	
72	4.400000e-01	-8.72348e-13	8.723484e-13	
73	4.600000e-01	-9.12352e-13	9.123516e-13	
74	4.800000e-01	-9.52354e-13	9.523542e-13	
75	5.000000e-01	-9.92357e-13	9.923567e-13	
76	5.200000e-01	-1.03236e-12	1.032359e-12	
77	5.400000e-01	-1.07236e-12	1.072361e-12	
78	5.600000e-01	-1.11236e-12	1.112363e-12	
79	5.800000e-01	-1.15236e-12	1.152364e-12	
80	6.000000e-01	-1.19237e-12	1.192366e-12	
81	6.200000e-01	-1.23237e-12	1.232367e-12	
82	6.400000e-01	-1.27237e-12	1.272368e-12	
83	6.600000e-01	-1.31237e-12	1.312370e-12	
84	6.800000e-01	-1.35237e-12	1.352371e-12	
85	7.000000e-01	-1.39237e-12	1.392372e-12	
86	7.200000e-01	-1.43237e-12	1.432373e-12	
87	7.400000e-01	-1.47237e-12	1.472374e-12	
88	7.600000e-01	-1.51238e-12	1.512375e-12	
89	7.800000e-01	-1.55238e-12	1.552376e-12	
90	8.000000e-01	-1.59238e-12	1.592377e-12	
91	8.200000e-01	-1.63238e-12	1.632378e-12	
92	8.400000e-01	-1.67238e-12	1.672379e-12	
93	8.600000e-01	-1.71238e-12	1.712379e-12	
94	8.800000e-01	-1.75238e-12	1.752380e-12	
95	9.000000e-01	-1.79238e-12	1.792381e-12	
96	9.200000e-01	-1.83238e-12	1.832382e-12	
97	9.400000e-01	-1.87238e-12	1.872383e-12	
98	9.600000e-01	-1.91238e-12	1.912383e-12	
99	9.800000e-01	-1.95238e-12	1.952384e-12	
100	1.000000e+00	-1.99238e-12	1.992385e-12	
101	1.020000e+00	-2.03239e-12	2.032385e-12	
102	1.040000e+00	-2.07239e-12	2.072387e-12	
103	1.060000e+00	-2.11239e-12	2.112387e-12	
104	1.080000e+00	-2.15239e-12	2.152388e-12	
105	1.100000e+00	-2.19239e-12	2.192389e-12	
106	1.120000e+00	-2.23239e-12	2.232389e-12	
107	1.140000e+00	-2.27239e-12	2.272390e-12	
108	1.160000e+00	-2.31239e-12	2.312391e-12	
109	1.180000e+00	-2.35239e-12	2.352392e-12	
110	1.200000e+00	-2.39239e-12	2.392392e-12	
111	1.220000e+00	-2.43239e-12	2.432393e-12	
112	1.240000e+00	-2.47239e-12	2.472394e-12	

Index   i-sweep         v1#branch       v_u_ic1#branch  
--------------------------------------------------------------------------------
113	1.260000e+00	-2.51239e-12	2.512394e-12	
114	1.280000e+00	-2.55239e-12	2.552395e-12	
115	1.300000e+00	-2.59240e-12	2.592395e-12	
116	1.320000e+00	-2.63240e-12	2.632396e-12	
117	1.340000e+00	-2.67240e-12	2.672397e-12	
118	1.360000e+00	-2.71240e-12	2.712398e-12	
119	1.380000e+00	-2.75240e-12	2.752399e-12	
120	1.400000e+00	-2.79240e-12	2.792399e-12	
121	1.420000e+00	-2.83240e-12	2.832400e-12	
122	1.440000e+00	-2.87240e-12	2.872400e-12	
123	1.460000e+00	-2.91240e-12	2.912401e-12	
124	1.480000e+00	-2.95240e-12	2.952401e-12	
125	1.500000e+00	-2.99240e-12	2.992403e-12	
126	1.520000e+00	-3.03240e-12	3.032403e-12	
127	1.540000e+00	-3.07240e-12	3.072403e-12	
128	1.560000e+00	-3.11240e-12	3.112404e-12	
129	1.580000e+00	-3.15241e-12	3.152405e-12	
130	1.600000e+00	-3.19241e-12	3.192406e-12	
131	1.620000e+00	-3.23241e-12	3.232406e-12	
132	1.640000e+00	-3.27241e-12	3.272407e-12	
133	1.660000e+00	-3.31241e-12	3.312408e-12	
134	1.680000e+00	-3.35241e-12	3.352408e-12	
135	1.700000e+00	-3.39241e-12	3.392409e-12	
136	1.720000e+00	-3.43241e-12	3.432410e-12	
137	1.740000e+00	-3.47241e-12	3.472410e-12	
138	1.760000e+00	-3.51241e-12	3.512411e-12	
139	1.780000e+00	-3.55241e-12	3.552411e-12	
140	1.800000e+00	-3.59241e-12	3.592412e-12	
141	1.820000e+00	-3.63241e-12	3.632413e-12	
142	1.840000e+00	-3.67241e-12	3.672414e-12	
143	1.860000e+00	-3.71241e-12	3.712414e-12	
144	1.880000e+00	-3.75241e-12	3.752415e-12	
145	1.900000e+00	-3.79242e-12	3.792415e-12	
146	1.920000e+00	-3.83242e-12	3.832416e-12	
147	1.940000e+00	-3.87242e-12	3.872417e-12	
148	1.960000e+00	-3.91242e-12	3.912417e-12	
149	1.980000e+00	-3.95242e-12	3.952418e-12	
150	2.000000e+00	-3.99242e-12	3.992419e-12	
151	2.020000e+00	-4.03242e-12	4.032419e-12	
152	2.040000e+00	-4.07242e-12	4.072420e-12	
153	2.060000e+00	-4.11242e-12	4.112420e-12	
154	2.080000e+00	-4.15242e-12	4.152421e-12	
155	2.100000e+00	-4.19242e-12	4.192422e-12	
156	2.120000e+00	-4.23242e-12	4.232423e-12	
157	2.140000e+00	-4.27242e-12	4.272423e-12	
158	2.160000e+00	-4.31242e-12	4.312424e-12	
159	2.180000e+00	-4.35242e-12	4.352424e-12	
160	2.200000e+00	-4.39242e-12	4.392425e-12	
161	2.220000e+00	-4.43243e-12	4.432426e-12	
162	2.240000e+00	-4.47243e-12	4.472426e-12	
163	2.260000e+00	-4.51243e-12	4.512428e-12	
164	2.280000e+00	-4.55243e-12	4.552427e-12	
165	2.300000e+00	-4.59243e-12	4.592428e-12	
166	2.320000e+00	-4.63243e-12	4.632429e-12	
167	2.340000e+00	-4.67243e-12	4.672430e-12	
168	2.360000e+00	-4.71243e-12	4.712430e-12	
169	2.380000e+00	-4.75243e-12	4.752431e-12	
170	2.400000e+00	-4.79243e-12	4.792432e-12	

Index   i-sweep         v1#branch       v_u_ic1#branch  
--------------------------------------------------------------------------------
171	2.420000e+00	-4.83243e-12	4.832432e-12	
172	2.440000e+00	-4.87243e-12	4.872433e-12	
173	2.460000e+00	-4.91243e-12	4.912433e-12	
174	2.480000e+00	-4.95243e-12	4.952434e-12	
175	2.500000e+00	-4.99244e-12	4.992435e-12	
176	2.520000e+00	-5.03244e-12	5.032436e-12	
177	2.540000e+00	-5.07244e-12	5.072437e-12	
178	2.560000e+00	-5.11244e-12	5.112437e-12	
179	2.580000e+00	-5.15244e-12	5.152438e-12	
180	2.600000e+00	-5.19244e-12	5.192438e-12	
181	2.620000e+00	-5.23244e-12	5.232439e-12	
182	2.640000e+00	-5.27244e-12	5.272440e-12	
183	2.660000e+00	-5.31244e-12	5.312441e-12	
184	2.680000e+00	-5.35244e-12	5.352441e-12	
185	2.700000e+00	-5.39244e-12	5.392442e-12	
186	2.720000e+00	-5.43244e-12	5.432443e-12	
187	2.740000e+00	-5.47244e-12	5.472443e-12	
188	2.760000e+00	-5.51244e-12	5.512443e-12	
189	2.780000e+00	-5.55244e-12	5.552444e-12	
190	2.800000e+00	-5.59245e-12	5.592445e-12	
191	2.820000e+00	-5.63245e-12	5.632445e-12	
192	2.840000e+00	-5.67245e-12	5.672446e-12	
193	2.860000e+00	-5.71245e-12	5.712447e-12	
194	2.880000e+00	-5.75245e-12	5.752448e-12	
195	2.900000e+00	-5.79245e-12	5.792449e-12	
196	2.920000e+00	-5.83245e-12	5.832449e-12	
197	2.940000e+00	-5.87245e-12	5.872450e-12	
198	2.960000e+00	-5.91245e-12	5.912450e-12	
199	2.980000e+00	-5.95245e-12	5.952451e-12	
200	3.000000e+00	-5.99245e-12	5.992452e-12	
201	3.020000e+00	-6.03245e-12	6.032452e-12	
202	3.040000e+00	-6.07245e-12	6.072453e-12	
203	3.060000e+00	-6.11245e-12	6.112453e-12	
204	3.080000e+00	-6.15245e-12	6.152454e-12	
205	3.100000e+00	-6.19245e-12	6.192454e-12	
206	3.120000e+00	-6.23246e-12	6.232456e-12	
207	3.140000e+00	-6.27246e-12	6.272456e-12	
208	3.160000e+00	-6.31246e-12	6.312457e-12	
209	3.180000e+00	-6.35246e-12	6.352458e-12	
210	3.200000e+00	-6.39246e-12	6.392458e-12	
211	3.220000e+00	-6.43246e-12	6.432459e-12	
212	3.240000e+00	-6.47246e-12	6.472459e-12	
213	3.260000e+00	-6.51246e-12	6.512460e-12	
214	3.280000e+00	-6.55246e-12	6.552461e-12	
215	3.300000e+00	-6.59246e-12	6.592461e-12	
216	3.320000e+00	-6.63246e-12	6.632462e-12	
217	3.340000e+00	-6.67246e-12	6.672462e-12	
218	3.360000e+00	-6.71246e-12	6.712463e-12	
219	3.380000e+00	-6.75246e-12	6.752464e-12	
220	3.400000e+00	-6.79246e-12	6.792465e-12	
221	3.420000e+00	-6.83247e-12	6.832465e-12	
222	3.440000e+00	-6.87247e-12	6.872466e-12	
223	3.460000e+00	-6.91247e-12	6.912466e-12	
224	3.480000e+00	-6.95247e-12	6.952467e-12	
225	3.500000e+00	-6.99247e-12	6.992468e-12	
226	3.520000e+00	-7.03247e-12	7.032469e-12	
227	3.540000e+00	-7.07247e-12	7.072469e-12	
228	3.560000e+00	-7.11247e-12	7.112470e-12	

Index   i-sweep         v1#branch       v_u_ic1#branch  
--------------------------------------------------------------------------------
229	3.580000e+00	-7.15247e-12	7.152471e-12	
230	3.600000e+00	-7.19247e-12	7.192471e-12	
231	3.620000e+00	-7.23247e-12	7.232472e-12	
232	3.640000e+00	-7.27247e-12	7.272473e-12	
233	3.660000e+00	-7.31247e-12	7.312473e-12	
234	3.680000e+00	-7.35247e-12	7.352474e-12	
235	3.700000e+00	-7.39247e-12	7.392474e-12	
236	3.720000e+00	-7.43248e-12	7.432475e-12	
237	3.740000e+00	-7.47248e-12	7.472475e-12	
238	3.760000e+00	-7.51248e-12	7.512476e-12	
239	3.780000e+00	-7.55248e-12	7.552477e-12	
240	3.800000e+00	-7.59248e-12	7.592478e-12	
241	3.820000e+00	-7.63248e-12	7.632479e-12	
242	3.840000e+00	-7.67248e-12	7.672479e-12	
243	3.860000e+00	-7.71248e-12	7.712480e-12	
244	3.880000e+00	-7.75248e-12	7.752480e-12	
245	3.900000e+00	-7.79248e-12	7.792481e-12	
246	3.920000e+00	-7.83248e-12	7.832481e-12	
247	3.940000e+00	-7.87248e-12	7.872482e-12	
248	3.960000e+00	-7.91248e-12	7.912483e-12	
249	3.980000e+00	-7.95248e-12	7.952483e-12	
250	4.000000e+00	-7.99248e-12	7.992484e-12	
251	4.020000e+00	-8.03249e-12	8.032485e-12	
252	4.040000e+00	-8.07249e-12	8.072486e-12	
253	4.060000e+00	-8.11249e-12	8.112487e-12	
254	4.080000e+00	-8.15249e-12	8.152486e-12	
255	4.100000e+00	-8.19249e-12	8.192487e-12	
256	4.120000e+00	-8.23249e-12	8.232488e-12	
257	4.140000e+00	-8.27249e-12	8.272489e-12	
258	4.160000e+00	-8.31249e-12	8.312490e-12	
259	4.180000e+00	-8.35249e-12	8.352490e-12	
260	4.200000e+00	-8.39249e-12	8.392492e-12	
261	4.220000e+00	-8.43249e-12	8.432492e-12	
262	4.240000e+00	-8.47249e-12	8.472492e-12	
263	4.260000e+00	-8.51249e-12	8.512494e-12	
264	4.280000e+00	-8.55249e-12	8.552494e-12	
265	4.300000e+00	-8.59249e-12	8.592495e-12	
266	4.320000e+00	-8.63249e-12	8.632495e-12	
267	4.340000e+00	-8.67250e-12	8.672496e-12	
268	4.360000e+00	-8.71250e-12	8.712495e-12	
269	4.380000e+00	-8.75250e-12	8.752498e-12	
270	4.400000e+00	-8.79250e-12	8.792498e-12	
271	4.420000e+00	-8.83250e-12	8.832498e-12	
272	4.440000e+00	-8.87250e-12	8.872499e-12	
273	4.460000e+00	-8.91250e-12	8.912499e-12	
274	4.480000e+00	-8.95250e-12	8.952501e-12	
275	4.500000e+00	-8.99250e-12	8.992501e-12	
276	4.520000e+00	-9.03250e-12	9.032502e-12	
277	4.540000e+00	-9.07250e-12	9.072501e-12	
278	4.560000e+00	-9.11250e-12	9.112502e-12	
279	4.580000e+00	-9.15250e-12	9.152503e-12	
280	4.600000e+00	-9.19250e-12	9.192504e-12	
281	4.620000e+00	-9.23251e-12	9.232505e-12	
282	4.640000e+00	-9.27250e-12	9.272505e-12	
283	4.660000e+00	-9.31251e-12	9.312506e-12	
284	4.680000e+00	-9.35251e-12	9.352507e-12	
285	4.700000e+00	-9.39251e-12	9.392507e-12	
286	4.720000e+00	-9.43251e-12	9.432509e-12	

Index   i-sweep         v1#branch       v_u_ic1#branch  
--------------------------------------------------------------------------------
287	4.740000e+00	-9.47251e-12	9.472509e-12	
288	4.760000e+00	-9.51251e-12	9.512510e-12	
289	4.780000e+00	-9.55251e-12	9.552509e-12	
290	4.800000e+00	-9.59251e-12	9.592511e-12	
291	4.820000e+00	-9.63251e-12	9.632511e-12	
292	4.840000e+00	-9.67251e-12	9.672513e-12	
293	4.860000e+00	-9.71251e-12	9.712513e-12	
294	4.880000e+00	-9.75251e-12	9.752513e-12	
295	4.900000e+00	-9.79251e-12	9.792514e-12	
296	4.920000e+00	-9.83251e-12	9.832513e-12	
297	4.940000e+00	-9.87252e-12	9.872516e-12	
298	4.960000e+00	-9.91252e-12	9.912516e-12	
299	4.980000e+00	-9.95252e-12	9.952517e-12	
300	5.000000e+00	-9.99252e-12	9.992516e-12	
301	-1.00000e+00	3.330238e-04	-3.33024e-04	
302	-9.80000e-01	3.146571e-04	-3.14657e-04	
303	-9.60000e-01	2.964453e-04	-2.96445e-04	
304	-9.40000e-01	2.782861e-04	-2.78286e-04	
305	-9.20000e-01	2.602261e-04	-2.60226e-04	
306	-9.00000e-01	2.422785e-04	-2.42278e-04	
307	-8.80000e-01	2.244576e-04	-2.24458e-04	
308	-8.60000e-01	2.067813e-04	-2.06781e-04	
309	-8.40000e-01	1.892710e-04	-1.89271e-04	
310	-8.20000e-01	1.719528e-04	-1.71953e-04	
311	-8.00000e-01	1.548593e-04	-1.54859e-04	
312	-7.80000e-01	1.380314e-04	-1.38031e-04	
313	-7.60000e-01	1.215211e-04	-1.21521e-04	
314	-7.40000e-01	1.053955e-04	-1.05396e-04	
315	-7.20000e-01	8.974293e-05	-8.97429e-05	
316	-7.00000e-01	7.468025e-05	-7.46802e-05	
317	-6.80000e-01	6.036447e-05	-6.03645e-05	
318	-6.60000e-01	4.700631e-05	-4.70063e-05	
319	-6.40000e-01	3.488359e-05	-3.48836e-05	
320	-6.20000e-01	2.436584e-05	-2.43658e-05	
321	-6.00000e-01	1.577589e-05	-1.57759e-05	
322	-5.80000e-01	9.382586e-06	-9.38259e-06	
323	-5.60000e-01	5.136982e-06	-5.13698e-06	
324	-5.40000e-01	2.631263e-06	-2.63126e-06	
325	-5.20000e-01	1.288548e-06	-1.28855e-06	
326	-5.00000e-01	6.168081e-07	-6.16808e-07	
327	-4.80000e-01	2.917090e-07	-2.91709e-07	
328	-4.60000e-01	1.373130e-07	-1.37313e-07	
329	-4.40000e-01	6.458563e-08	-6.45856e-08	
330	-4.20000e-01	3.041752e-08	-3.04175e-08	
331	-4.00000e-01	1.436141e-08	-1.43614e-08	
332	-3.80000e-01	6.803100e-09	-6.80310e-09	
333	-3.60000e-01	3.235417e-09	-3.23542e-09	
334	-3.40000e-01	1.545679e-09	-1.54568e-09	
335	-3.20000e-01	7.422087e-10	-7.42209e-10	
336	-3.00000e-01	3.584486e-10	-3.58449e-10	
337	-2.80000e-01	1.742437e-10	-1.74244e-10	
338	-2.60000e-01	8.534379e-11	-8.53438e-11	
339	-2.40000e-01	4.218431e-11	-4.21843e-11	
340	-2.20000e-01	2.109402e-11	-2.10940e-11	
341	-2.00000e-01	1.071204e-11	-1.07120e-11	
342	-1.80000e-01	5.556403e-12	-5.55640e-12	
343	-1.60000e-01	2.966792e-12	-2.96679e-12	
344	-1.40000e-01	1.644619e-12	-1.64462e-12	

Index   i-sweep         v1#branch       v_u_ic1#branch  
--------------------------------------------------------------------------------
345	-1.20000e-01	9.521030e-13	-9.52103e-13	
346	-1.00000e-01	5.743024e-13	-5.74302e-13	
347	-8.00000e-02	3.549636e-13	-3.54964e-13	
348	-6.00000e-02	2.170127e-13	-2.17013e-13	
349	-4.00000e-02	1.230393e-13	-1.23039e-13	
350	-2.00000e-02	5.437944e-14	-5.43794e-14	
351	6.175616e-16	4.593906e-19	-4.59391e-19	
352	2.000000e-02	-4.69200e-14	4.692002e-14	
353	4.000000e-02	-9.01806e-14	9.018058e-14	
354	6.000000e-02	-1.31692e-13	1.316924e-13	
355	8.000000e-02	-1.72389e-13	1.723887e-13	
356	1.000000e-01	-2.12698e-13	2.126983e-13	
357	1.200000e-01	-2.52836e-13	2.528360e-13	
358	1.400000e-01	-2.92895e-13	2.928946e-13	
359	1.600000e-01	-3.32921e-13	3.329210e-13	
360	1.800000e-01	-3.72944e-13	3.729439e-13	
361	2.000000e-01	-4.12990e-13	4.129903e-13	
362	2.200000e-01	-4.52956e-13	4.529562e-13	
363	2.400000e-01	-4.92997e-13	4.929969e-13	
364	2.600000e-01	-5.32971e-13	5.329709e-13	
365	2.800000e-01	-5.72992e-13	5.729920e-13	
366	3.000000e-01	-6.13009e-13	6.130090e-13	
367	3.200000e-01	-6.53023e-13	6.530231e-13	
368	3.400000e-01	-6.93035e-13	6.930351e-13	
369	3.600000e-01	-7.33045e-13	7.330454e-13	
370	3.800000e-01	-7.72970e-13	7.729702e-13	
371	4.000000e-01	-8.12974e-13	8.129739e-13	
372	4.200000e-01	-8.52977e-13	8.529771e-13	
373	4.400000e-01	-8.92980e-13	8.929798e-13	
374	4.600000e-01	-9.32982e-13	9.329818e-13	
375	4.800000e-01	-9.72984e-13	9.729836e-13	
376	5.000000e-01	-1.01299e-12	1.012985e-12	
377	5.200000e-01	-1.05299e-12	1.052986e-12	
378	5.400000e-01	-1.09299e-12	1.092988e-12	
379	5.600000e-01	-1.13299e-12	1.132988e-12	
380	5.800000e-01	-1.17299e-12	1.172989e-12	
381	6.000000e-01	-1.21299e-12	1.212990e-12	
382	6.200000e-01	-1.25299e-12	1.252991e-12	
383	6.400000e-01	-1.29299e-12	1.292991e-12	
384	6.600000e-01	-1.33299e-12	1.332992e-12	
385	6.800000e-01	-1.37299e-12	1.372992e-12	
386	7.000000e-01	-1.41299e-12	1.412992e-12	
387	7.200000e-01	-1.45299e-12	1.452993e-12	
388	7.400000e-01	-1.49299e-12	1.492993e-12	
389	7.600000e-01	-1.53299e-12	1.532993e-12	
390	7.800000e-01	-1.57299e-12	1.572994e-12	
391	8.000000e-01	-1.61299e-12	1.612994e-12	
392	8.200000e-01	-1.65299e-12	1.652994e-12	
393	8.400000e-01	-1.69299e-12	1.692994e-12	
394	8.600000e-01	-1.73299e-12	1.732994e-12	
395	8.800000e-01	-1.77299e-12	1.772995e-12	
396	9.000000e-01	-1.81299e-12	1.812995e-12	
397	9.200000e-01	-1.85299e-12	1.852995e-12	
398	9.400000e-01	-1.89299e-12	1.892995e-12	
399	9.600000e-01	-1.93299e-12	1.932995e-12	
400	9.800000e-01	-1.97299e-12	1.972994e-12	
401	1.000000e+00	-2.01299e-12	2.012995e-12	
402	1.020000e+00	-2.05299e-12	2.052995e-12	

Index   i-sweep         v1#branch       v_u_ic1#branch  
--------------------------------------------------------------------------------
403	1.040000e+00	-2.09300e-12	2.092995e-12	
404	1.060000e+00	-2.13299e-12	2.132995e-12	
405	1.080000e+00	-2.17300e-12	2.172995e-12	
406	1.100000e+00	-2.21300e-12	2.212995e-12	
407	1.120000e+00	-2.25300e-12	2.252996e-12	
408	1.140000e+00	-2.29300e-12	2.292995e-12	
409	1.160000e+00	-2.33300e-12	2.332995e-12	
410	1.180000e+00	-2.37300e-12	2.372995e-12	
411	1.200000e+00	-2.41300e-12	2.412996e-12	
412	1.220000e+00	-2.45300e-12	2.452995e-12	
413	1.240000e+00	-2.49300e-12	2.492995e-12	
414	1.260000e+00	-2.53300e-12	2.532996e-12	
415	1.280000e+00	-2.57300e-12	2.572996e-12	
416	1.300000e+00	-2.61300e-12	2.612995e-12	
417	1.320000e+00	-2.65300e-12	2.652995e-12	
418	1.340000e+00	-2.69300e-12	2.692996e-12	
419	1.360000e+00	-2.73300e-12	2.732996e-12	
420	1.380000e+00	-2.77300e-12	2.772996e-12	
421	1.400000e+00	-2.81300e-12	2.812996e-12	
422	1.420000e+00	-2.85300e-12	2.852995e-12	
423	1.440000e+00	-2.89300e-12	2.892996e-12	
424	1.460000e+00	-2.93300e-12	2.932996e-12	
425	1.480000e+00	-2.97300e-12	2.972996e-12	
