         * /home/fossee/updatedexamples/bjt_cb_config/bjt_cb_config.cir
         DC transfer characteristic  Thu Mar  3 18:30:45  2016
--------------------------------------------------------------------------------
Index   i-sweep         ie              net-_q1-pad1_   net-_q1-pad3_   
--------------------------------------------------------------------------------
0	-1.00000e+00	6.669546e+08	-6.11826e-01	6.669546e+08	
1	-9.80000e-01	6.828769e+08	-6.10385e-01	6.828769e+08	
2	-9.60000e-01	6.986995e+08	-6.08827e-01	6.986995e+08	
3	-9.40000e-01	7.144895e+08	-6.07232e-01	7.144895e+08	
4	-9.20000e-01	7.302176e+08	-6.05564e-01	7.302176e+08	
5	-9.00000e-01	7.458770e+08	-6.03816e-01	7.458770e+08	
6	-8.80000e-01	7.614598e+08	-6.01979e-01	7.614598e+08	
7	-8.60000e-01	7.769573e+08	-6.00042e-01	7.769573e+08	
8	-8.40000e-01	7.923587e+08	-5.97994e-01	7.923587e+08	
9	-8.20000e-01	8.076514e+08	-5.95818e-01	8.076514e+08	
10	-8.00000e-01	8.228204e+08	-5.93499e-01	8.228204e+08	
11	-7.80000e-01	8.378471e+08	-5.91013e-01	8.378471e+08	
12	-7.60000e-01	8.527092e+08	-5.88336e-01	8.527092e+08	
13	-7.40000e-01	8.673786e+08	-5.85433e-01	8.673786e+08	
14	-7.20000e-01	8.818203e+08	-5.82266e-01	8.818203e+08	
15	-7.00000e-01	8.959895e+08	-5.78780e-01	8.959895e+08	
16	-6.80000e-01	9.098287e+08	-5.74910e-01	9.098287e+08	
17	-6.60000e-01	9.232614e+08	-5.70565e-01	9.232614e+08	
18	-6.40000e-01	9.361868e+08	-5.65630e-01	9.361868e+08	
19	-6.20000e-01	9.484696e+08	-5.59945e-01	9.484696e+08	
20	-6.00000e-01	9.599275e+08	-5.53299e-01	9.599275e+08	
21	-5.80000e-01	9.703200e+08	-5.45411e-01	9.703200e+08	
22	-5.60000e-01	9.793266e+08	-5.35908e-01	9.793266e+08	
23	-5.40000e-01	9.866680e+08	-5.24464e-01	9.866680e+08	
24	-5.20000e-01	9.921135e+08	-5.10810e-01	9.921135e+08	
25	-5.00000e-01	9.957113e+08	-4.95002e-01	9.957113e+08	
26	-4.80000e-01	9.978206e+08	-4.77461e-01	9.978206e+08	
27	-4.60000e-01	9.989423e+08	-4.58768e-01	9.989423e+08	
28	-4.40000e-01	9.994989e+08	-4.39416e-01	9.994989e+08	
29	-4.20000e-01	9.997658e+08	-4.19727e-01	9.997658e+08	
30	-4.00000e-01	9.998913e+08	-3.99873e-01	9.998913e+08	
31	-3.80000e-01	9.999497e+08	-3.79941e-01	9.999497e+08	
32	-3.60000e-01	9.999767e+08	-3.59973e-01	9.999767e+08	
33	-3.40000e-01	9.999893e+08	-3.39987e-01	9.999893e+08	
34	-3.20000e-01	9.999950e+08	-3.19994e-01	9.999950e+08	
35	-3.00000e-01	9.999977e+08	-2.99997e-01	9.999977e+08	
36	-2.80000e-01	9.999989e+08	-2.79999e-01	9.999989e+08	
37	-2.60000e-01	9.999995e+08	-2.59999e-01	9.999995e+08	
38	-2.40000e-01	9.999998e+08	-2.40000e-01	9.999998e+08	
39	-2.20000e-01	9.999999e+08	-2.20000e-01	9.999999e+08	
40	-2.00000e-01	1.000000e+09	-2.00000e-01	1.000000e+09	
41	-1.80000e-01	1.000000e+09	-1.80000e-01	1.000000e+09	
42	-1.60000e-01	1.000000e+09	-1.60000e-01	1.000000e+09	
43	-1.40000e-01	1.000000e+09	-1.40000e-01	1.000000e+09	
44	-1.20000e-01	1.000000e+09	-1.20000e-01	1.000000e+09	
45	-1.00000e-01	1.000000e+09	-1.00000e-01	1.000000e+09	
46	-8.00000e-02	1.000000e+09	-8.00000e-02	1.000000e+09	
47	-6.00000e-02	1.000000e+09	-6.00000e-02	1.000000e+09	
48	-4.00000e-02	1.000000e+09	-4.00000e-02	1.000000e+09	
49	-2.00000e-02	1.000000e+09	-2.00000e-02	1.000000e+09	
50	6.175616e-16	1.000000e+09	3.221761e-11	1.000000e+09	
51	2.000000e-02	1.000000e+09	2.000000e-02	1.000000e+09	
52	4.000000e-02	1.000000e+09	4.000000e-02	1.000000e+09	
53	6.000000e-02	1.000000e+09	6.000000e-02	1.000000e+09	
54	8.000000e-02	1.000000e+09	8.000000e-02	1.000000e+09	

Index   i-sweep         ie              net-_q1-pad1_   net-_q1-pad3_   
--------------------------------------------------------------------------------
55	1.000000e-01	1.000000e+09	1.000000e-01	1.000000e+09	
56	1.200000e-01	1.000000e+09	1.200000e-01	1.000000e+09	
57	1.400000e-01	1.000000e+09	1.400000e-01	1.000000e+09	
58	1.600000e-01	1.000000e+09	1.600000e-01	1.000000e+09	
59	1.800000e-01	1.000000e+09	1.800000e-01	1.000000e+09	
60	2.000000e-01	1.000000e+09	2.000000e-01	1.000000e+09	
61	2.200000e-01	1.000000e+09	2.200000e-01	1.000000e+09	
62	2.400000e-01	1.000000e+09	2.400000e-01	1.000000e+09	
63	2.600000e-01	1.000000e+09	2.600000e-01	1.000000e+09	
64	2.800000e-01	1.000000e+09	2.800000e-01	1.000000e+09	
65	3.000000e-01	1.000000e+09	3.000000e-01	1.000000e+09	
66	3.200000e-01	1.000000e+09	3.200000e-01	1.000000e+09	
67	3.400000e-01	1.000000e+09	3.400000e-01	1.000000e+09	
68	3.600000e-01	1.000000e+09	3.600000e-01	1.000000e+09	
69	3.800000e-01	1.000000e+09	3.800000e-01	1.000000e+09	
70	4.000000e-01	1.000000e+09	4.000000e-01	1.000000e+09	
71	4.200000e-01	1.000000e+09	4.200000e-01	1.000000e+09	
72	4.400000e-01	1.000000e+09	4.400000e-01	1.000000e+09	
73	4.600000e-01	1.000000e+09	4.600000e-01	1.000000e+09	
74	4.800000e-01	1.000000e+09	4.800000e-01	1.000000e+09	
75	5.000000e-01	1.000000e+09	5.000000e-01	1.000000e+09	
76	5.200000e-01	1.000000e+09	5.200000e-01	1.000000e+09	
77	5.400000e-01	1.000000e+09	5.400000e-01	1.000000e+09	
78	5.600000e-01	1.000000e+09	5.600000e-01	1.000000e+09	
79	5.800000e-01	1.000000e+09	5.800000e-01	1.000000e+09	
80	6.000000e-01	1.000000e+09	6.000000e-01	1.000000e+09	
81	6.200000e-01	1.000000e+09	6.200000e-01	1.000000e+09	
82	6.400000e-01	1.000000e+09	6.400000e-01	1.000000e+09	
83	6.600000e-01	1.000000e+09	6.600000e-01	1.000000e+09	
84	6.800000e-01	1.000000e+09	6.800000e-01	1.000000e+09	
85	7.000000e-01	1.000000e+09	7.000000e-01	1.000000e+09	
86	7.200000e-01	1.000000e+09	7.200000e-01	1.000000e+09	
87	7.400000e-01	1.000000e+09	7.400000e-01	1.000000e+09	
88	7.600000e-01	1.000000e+09	7.600000e-01	1.000000e+09	
89	7.800000e-01	1.000000e+09	7.800000e-01	1.000000e+09	
90	8.000000e-01	1.000000e+09	8.000000e-01	1.000000e+09	
91	8.200000e-01	1.000000e+09	8.200000e-01	1.000000e+09	
92	8.400000e-01	1.000000e+09	8.400000e-01	1.000000e+09	
93	8.600000e-01	1.000000e+09	8.600000e-01	1.000000e+09	
94	8.800000e-01	1.000000e+09	8.800000e-01	1.000000e+09	
95	9.000000e-01	1.000000e+09	9.000000e-01	1.000000e+09	
96	9.200000e-01	1.000000e+09	9.200000e-01	1.000000e+09	
97	9.400000e-01	1.000000e+09	9.400000e-01	1.000000e+09	
98	9.600000e-01	1.000000e+09	9.600000e-01	1.000000e+09	
99	9.800000e-01	1.000000e+09	9.800000e-01	1.000000e+09	
100	1.000000e+00	1.000000e+09	1.000000e+00	1.000000e+09	
101	1.020000e+00	1.000000e+09	1.020000e+00	1.000000e+09	
102	1.040000e+00	1.000000e+09	1.040000e+00	1.000000e+09	
103	1.060000e+00	1.000000e+09	1.060000e+00	1.000000e+09	
104	1.080000e+00	1.000000e+09	1.080000e+00	1.000000e+09	
105	1.100000e+00	1.000000e+09	1.100000e+00	1.000000e+09	
106	1.120000e+00	1.000000e+09	1.120000e+00	1.000000e+09	
107	1.140000e+00	1.000000e+09	1.140000e+00	1.000000e+09	
108	1.160000e+00	1.000000e+09	1.160000e+00	1.000000e+09	
109	1.180000e+00	1.000000e+09	1.180000e+00	1.000000e+09	
110	1.200000e+00	1.000000e+09	1.200000e+00	1.000000e+09	
111	1.220000e+00	1.000000e+09	1.220000e+00	1.000000e+09	
112	1.240000e+00	1.000000e+09	1.240000e+00	1.000000e+09	

Index   i-sweep         ie              net-_q1-pad1_   net-_q1-pad3_   
--------------------------------------------------------------------------------
113	1.260000e+00	1.000000e+09	1.260000e+00	1.000000e+09	
114	1.280000e+00	1.000000e+09	1.280000e+00	1.000000e+09	
115	1.300000e+00	1.000000e+09	1.300000e+00	1.000000e+09	
116	1.320000e+00	1.000000e+09	1.320000e+00	1.000000e+09	
117	1.340000e+00	1.000000e+09	1.340000e+00	1.000000e+09	
118	1.360000e+00	1.000000e+09	1.360000e+00	1.000000e+09	
119	1.380000e+00	1.000000e+09	1.380000e+00	1.000000e+09	
120	1.400000e+00	1.000000e+09	1.400000e+00	1.000000e+09	
121	1.420000e+00	1.000000e+09	1.420000e+00	1.000000e+09	
122	1.440000e+00	1.000000e+09	1.440000e+00	1.000000e+09	
123	1.460000e+00	1.000000e+09	1.460000e+00	1.000000e+09	
124	1.480000e+00	1.000000e+09	1.480000e+00	1.000000e+09	
125	1.500000e+00	1.000000e+09	1.500000e+00	1.000000e+09	
126	1.520000e+00	1.000000e+09	1.520000e+00	1.000000e+09	
127	1.540000e+00	1.000000e+09	1.540000e+00	1.000000e+09	
128	1.560000e+00	1.000000e+09	1.560000e+00	1.000000e+09	
129	1.580000e+00	1.000000e+09	1.580000e+00	1.000000e+09	
130	1.600000e+00	1.000000e+09	1.600000e+00	1.000000e+09	
131	1.620000e+00	1.000000e+09	1.620000e+00	1.000000e+09	
132	1.640000e+00	1.000000e+09	1.640000e+00	1.000000e+09	
133	1.660000e+00	1.000000e+09	1.660000e+00	1.000000e+09	
134	1.680000e+00	1.000000e+09	1.680000e+00	1.000000e+09	
135	1.700000e+00	1.000000e+09	1.700000e+00	1.000000e+09	
136	1.720000e+00	1.000000e+09	1.720000e+00	1.000000e+09	
137	1.740000e+00	1.000000e+09	1.740000e+00	1.000000e+09	
138	1.760000e+00	1.000000e+09	1.760000e+00	1.000000e+09	
139	1.780000e+00	1.000000e+09	1.780000e+00	1.000000e+09	
140	1.800000e+00	1.000000e+09	1.800000e+00	1.000000e+09	
141	1.820000e+00	1.000000e+09	1.820000e+00	1.000000e+09	
142	1.840000e+00	1.000000e+09	1.840000e+00	1.000000e+09	
143	1.860000e+00	1.000000e+09	1.860000e+00	1.000000e+09	
144	1.880000e+00	1.000000e+09	1.880000e+00	1.000000e+09	
145	1.900000e+00	1.000000e+09	1.900000e+00	1.000000e+09	
146	1.920000e+00	1.000000e+09	1.920000e+00	1.000000e+09	
147	1.940000e+00	1.000000e+09	1.940000e+00	1.000000e+09	
148	1.960000e+00	1.000000e+09	1.960000e+00	1.000000e+09	
149	1.980000e+00	1.000000e+09	1.980000e+00	1.000000e+09	
150	2.000000e+00	1.000000e+09	2.000000e+00	1.000000e+09	
151	2.020000e+00	1.000000e+09	2.020000e+00	1.000000e+09	
152	2.040000e+00	1.000000e+09	2.040000e+00	1.000000e+09	
153	2.060000e+00	1.000000e+09	2.060000e+00	1.000000e+09	
154	2.080000e+00	1.000000e+09	2.080000e+00	1.000000e+09	
155	2.100000e+00	1.000000e+09	2.100000e+00	1.000000e+09	
156	2.120000e+00	1.000000e+09	2.120000e+00	1.000000e+09	
157	2.140000e+00	1.000000e+09	2.140000e+00	1.000000e+09	
158	2.160000e+00	1.000000e+09	2.160000e+00	1.000000e+09	
159	2.180000e+00	1.000000e+09	2.180000e+00	1.000000e+09	
160	2.200000e+00	1.000000e+09	2.200000e+00	1.000000e+09	
161	2.220000e+00	1.000000e+09	2.220000e+00	1.000000e+09	
162	2.240000e+00	1.000000e+09	2.240000e+00	1.000000e+09	
163	2.260000e+00	1.000000e+09	2.260000e+00	1.000000e+09	
164	2.280000e+00	1.000000e+09	2.280000e+00	1.000000e+09	
165	2.300000e+00	1.000000e+09	2.300000e+00	1.000000e+09	
166	2.320000e+00	1.000000e+09	2.320000e+00	1.000000e+09	
167	2.340000e+00	1.000000e+09	2.340000e+00	1.000000e+09	
168	2.360000e+00	1.000000e+09	2.360000e+00	1.000000e+09	
169	2.380000e+00	1.000000e+09	2.380000e+00	1.000000e+09	
170	2.400000e+00	1.000000e+09	2.400000e+00	1.000000e+09	

Index   i-sweep         ie              net-_q1-pad1_   net-_q1-pad3_   
--------------------------------------------------------------------------------
171	2.420000e+00	1.000000e+09	2.420000e+00	1.000000e+09	
172	2.440000e+00	1.000000e+09	2.440000e+00	1.000000e+09	
173	2.460000e+00	1.000000e+09	2.460000e+00	1.000000e+09	
174	2.480000e+00	1.000000e+09	2.480000e+00	1.000000e+09	
175	2.500000e+00	1.000000e+09	2.500000e+00	1.000000e+09	
176	2.520000e+00	1.000000e+09	2.520000e+00	1.000000e+09	
177	2.540000e+00	1.000000e+09	2.540000e+00	1.000000e+09	
178	2.560000e+00	1.000000e+09	2.560000e+00	1.000000e+09	
179	2.580000e+00	1.000000e+09	2.580000e+00	1.000000e+09	
180	2.600000e+00	1.000000e+09	2.600000e+00	1.000000e+09	
181	2.620000e+00	1.000000e+09	2.620000e+00	1.000000e+09	
182	2.640000e+00	1.000000e+09	2.640000e+00	1.000000e+09	
183	2.660000e+00	1.000000e+09	2.660000e+00	1.000000e+09	
184	2.680000e+00	1.000000e+09	2.680000e+00	1.000000e+09	
185	2.700000e+00	1.000000e+09	2.700000e+00	1.000000e+09	
186	2.720000e+00	1.000000e+09	2.720000e+00	1.000000e+09	
187	2.740000e+00	1.000000e+09	2.740000e+00	1.000000e+09	
188	2.760000e+00	1.000000e+09	2.760000e+00	1.000000e+09	
189	2.780000e+00	1.000000e+09	2.780000e+00	1.000000e+09	
190	2.800000e+00	1.000000e+09	2.800000e+00	1.000000e+09	
191	2.820000e+00	1.000000e+09	2.820000e+00	1.000000e+09	
192	2.840000e+00	1.000000e+09	2.840000e+00	1.000000e+09	
193	2.860000e+00	1.000000e+09	2.860000e+00	1.000000e+09	
194	2.880000e+00	1.000000e+09	2.880000e+00	1.000000e+09	
195	2.900000e+00	1.000000e+09	2.900000e+00	1.000000e+09	
196	2.920000e+00	1.000000e+09	2.920000e+00	1.000000e+09	
197	2.940000e+00	1.000000e+09	2.940000e+00	1.000000e+09	
198	2.960000e+00	1.000000e+09	2.960000e+00	1.000000e+09	
199	2.980000e+00	1.000000e+09	2.980000e+00	1.000000e+09	
200	3.000000e+00	1.000000e+09	3.000000e+00	1.000000e+09	
201	3.020000e+00	1.000000e+09	3.020000e+00	1.000000e+09	
202	3.040000e+00	1.000000e+09	3.040000e+00	1.000000e+09	
203	3.060000e+00	1.000000e+09	3.060000e+00	1.000000e+09	
204	3.080000e+00	1.000000e+09	3.080000e+00	1.000000e+09	
205	3.100000e+00	1.000000e+09	3.100000e+00	1.000000e+09	
206	3.120000e+00	1.000000e+09	3.120000e+00	1.000000e+09	
207	3.140000e+00	1.000000e+09	3.140000e+00	1.000000e+09	
208	3.160000e+00	1.000000e+09	3.160000e+00	1.000000e+09	
209	3.180000e+00	1.000000e+09	3.180000e+00	1.000000e+09	
210	3.200000e+00	1.000000e+09	3.200000e+00	1.000000e+09	
211	3.220000e+00	1.000000e+09	3.220000e+00	1.000000e+09	
212	3.240000e+00	1.000000e+09	3.240000e+00	1.000000e+09	
213	3.260000e+00	1.000000e+09	3.260000e+00	1.000000e+09	
214	3.280000e+00	1.000000e+09	3.280000e+00	1.000000e+09	
215	3.300000e+00	1.000000e+09	3.300000e+00	1.000000e+09	
216	3.320000e+00	1.000000e+09	3.320000e+00	1.000000e+09	
217	3.340000e+00	1.000000e+09	3.340000e+00	1.000000e+09	
218	3.360000e+00	1.000000e+09	3.360000e+00	1.000000e+09	
219	3.380000e+00	1.000000e+09	3.380000e+00	1.000000e+09	
220	3.400000e+00	1.000000e+09	3.400000e+00	1.000000e+09	
221	3.420000e+00	1.000000e+09	3.420000e+00	1.000000e+09	
222	3.440000e+00	1.000000e+09	3.440000e+00	1.000000e+09	
223	3.460000e+00	1.000000e+09	3.460000e+00	1.000000e+09	
224	3.480000e+00	1.000000e+09	3.480000e+00	1.000000e+09	
225	3.500000e+00	1.000000e+09	3.500000e+00	1.000000e+09	
226	3.520000e+00	1.000000e+09	3.520000e+00	1.000000e+09	
227	3.540000e+00	1.000000e+09	3.540000e+00	1.000000e+09	
228	3.560000e+00	1.000000e+09	3.560000e+00	1.000000e+09	

Index   i-sweep         ie              net-_q1-pad1_   net-_q1-pad3_   
--------------------------------------------------------------------------------
229	3.580000e+00	1.000000e+09	3.580000e+00	1.000000e+09	
230	3.600000e+00	1.000000e+09	3.600000e+00	1.000000e+09	
231	3.620000e+00	1.000000e+09	3.620000e+00	1.000000e+09	
232	3.640000e+00	1.000000e+09	3.640000e+00	1.000000e+09	
233	3.660000e+00	1.000000e+09	3.660000e+00	1.000000e+09	
234	3.680000e+00	1.000000e+09	3.680000e+00	1.000000e+09	
235	3.700000e+00	1.000000e+09	3.700000e+00	1.000000e+09	
236	3.720000e+00	1.000000e+09	3.720000e+00	1.000000e+09	
237	3.740000e+00	1.000000e+09	3.740000e+00	1.000000e+09	
238	3.760000e+00	1.000000e+09	3.760000e+00	1.000000e+09	
239	3.780000e+00	1.000000e+09	3.780000e+00	1.000000e+09	
240	3.800000e+00	1.000000e+09	3.800000e+00	1.000000e+09	
241	3.820000e+00	1.000000e+09	3.820000e+00	1.000000e+09	
242	3.840000e+00	1.000000e+09	3.840000e+00	1.000000e+09	
243	3.860000e+00	1.000000e+09	3.860000e+00	1.000000e+09	
244	3.880000e+00	1.000000e+09	3.880000e+00	1.000000e+09	
245	3.900000e+00	1.000000e+09	3.900000e+00	1.000000e+09	
246	3.920000e+00	1.000000e+09	3.920000e+00	1.000000e+09	
247	3.940000e+00	1.000000e+09	3.940000e+00	1.000000e+09	
248	3.960000e+00	1.000000e+09	3.960000e+00	1.000000e+09	
249	3.980000e+00	1.000000e+09	3.980000e+00	1.000000e+09	
250	4.000000e+00	1.000000e+09	4.000000e+00	1.000000e+09	
251	4.020000e+00	1.000000e+09	4.020000e+00	1.000000e+09	
252	4.040000e+00	1.000000e+09	4.040000e+00	1.000000e+09	
253	4.060000e+00	1.000000e+09	4.060000e+00	1.000000e+09	
254	4.080000e+00	1.000000e+09	4.080000e+00	1.000000e+09	
255	4.100000e+00	1.000000e+09	4.100000e+00	1.000000e+09	
256	4.120000e+00	1.000000e+09	4.120000e+00	1.000000e+09	
257	4.140000e+00	1.000000e+09	4.140000e+00	1.000000e+09	
258	4.160000e+00	1.000000e+09	4.160000e+00	1.000000e+09	
259	4.180000e+00	1.000000e+09	4.180000e+00	1.000000e+09	
260	4.200000e+00	1.000000e+09	4.200000e+00	1.000000e+09	
261	4.220000e+00	1.000000e+09	4.220000e+00	1.000000e+09	
262	4.240000e+00	1.000000e+09	4.240000e+00	1.000000e+09	
263	4.260000e+00	1.000000e+09	4.260000e+00	1.000000e+09	
264	4.280000e+00	1.000000e+09	4.280000e+00	1.000000e+09	
265	4.300000e+00	1.000000e+09	4.300000e+00	1.000000e+09	
266	4.320000e+00	1.000000e+09	4.320000e+00	1.000000e+09	
267	4.340000e+00	1.000000e+09	4.340000e+00	1.000000e+09	
268	4.360000e+00	1.000000e+09	4.360000e+00	1.000000e+09	
269	4.380000e+00	1.000000e+09	4.380000e+00	1.000000e+09	
270	4.400000e+00	1.000000e+09	4.400000e+00	1.000000e+09	
271	4.420000e+00	1.000000e+09	4.420000e+00	1.000000e+09	
272	4.440000e+00	1.000000e+09	4.440000e+00	1.000000e+09	
273	4.460000e+00	1.000000e+09	4.460000e+00	1.000000e+09	
274	4.480000e+00	1.000000e+09	4.480000e+00	1.000000e+09	
275	4.500000e+00	1.000000e+09	4.500000e+00	1.000000e+09	
276	4.520000e+00	1.000000e+09	4.520000e+00	1.000000e+09	
277	4.540000e+00	1.000000e+09	4.540000e+00	1.000000e+09	
278	4.560000e+00	1.000000e+09	4.560000e+00	1.000000e+09	
279	4.580000e+00	1.000000e+09	4.580000e+00	1.000000e+09	
280	4.600000e+00	1.000000e+09	4.600000e+00	1.000000e+09	
281	4.620000e+00	1.000000e+09	4.620000e+00	1.000000e+09	
282	4.640000e+00	1.000000e+09	4.640000e+00	1.000000e+09	
283	4.660000e+00	1.000000e+09	4.660000e+00	1.000000e+09	
284	4.680000e+00	1.000000e+09	4.680000e+00	1.000000e+09	
285	4.700000e+00	1.000000e+09	4.700000e+00	1.000000e+09	
286	4.720000e+00	1.000000e+09	4.720000e+00	1.000000e+09	

Index   i-sweep         ie              net-_q1-pad1_   net-_q1-pad3_   
--------------------------------------------------------------------------------
287	4.740000e+00	1.000000e+09	4.740000e+00	1.000000e+09	
288	4.760000e+00	1.000000e+09	4.760000e+00	1.000000e+09	
289	4.780000e+00	1.000000e+09	4.780000e+00	1.000000e+09	
290	4.800000e+00	1.000000e+09	4.800000e+00	1.000000e+09	
291	4.820000e+00	1.000000e+09	4.820000e+00	1.000000e+09	
292	4.840000e+00	1.000000e+09	4.840000e+00	1.000000e+09	
293	4.860000e+00	1.000000e+09	4.860000e+00	1.000000e+09	
294	4.880000e+00	1.000000e+09	4.880000e+00	1.000000e+09	
295	4.900000e+00	1.000000e+09	4.900000e+00	1.000000e+09	
296	4.920000e+00	1.000000e+09	4.920000e+00	1.000000e+09	
297	4.940000e+00	1.000000e+09	4.940000e+00	1.000000e+09	
298	4.960000e+00	1.000000e+09	4.960000e+00	1.000000e+09	
299	4.980000e+00	1.000000e+09	4.980000e+00	1.000000e+09	
300	5.000000e+00	1.000000e+09	5.000000e+00	1.000000e+09	
301	-1.00000e+00	-6.66523e-01	-6.66976e-01	-6.66523e-01	
302	-9.80000e-01	-6.64899e-01	-6.65343e-01	-6.64899e-01	
303	-9.60000e-01	-6.63128e-01	-6.63555e-01	-6.63128e-01	
304	-9.40000e-01	-6.61304e-01	-6.61714e-01	-6.61304e-01	
305	-9.20000e-01	-6.59381e-01	-6.59774e-01	-6.59381e-01	
306	-9.00000e-01	-6.57346e-01	-6.57722e-01	-6.57346e-01	
307	-8.80000e-01	-6.55183e-01	-6.55542e-01	-6.55183e-01	
308	-8.60000e-01	-6.52876e-01	-6.53219e-01	-6.52876e-01	
309	-8.40000e-01	-6.50402e-01	-6.50729e-01	-6.50402e-01	
310	-8.20000e-01	-6.47736e-01	-6.48047e-01	-6.47736e-01	
311	-8.00000e-01	-6.44845e-01	-6.45141e-01	-6.44845e-01	
312	-7.80000e-01	-6.41688e-01	-6.41969e-01	-6.41688e-01	
313	-7.60000e-01	-6.38212e-01	-6.38479e-01	-6.38212e-01	
314	-7.40000e-01	-6.34351e-01	-6.34604e-01	-6.34351e-01	
315	-7.20000e-01	-6.30016e-01	-6.30257e-01	-6.30016e-01	
316	-7.00000e-01	-6.25090e-01	-6.25320e-01	-6.25090e-01	
317	-6.80000e-01	-6.19416e-01	-6.19636e-01	-6.19416e-01	
318	-6.60000e-01	-6.12782e-01	-6.12994e-01	-6.12782e-01	
319	-6.40000e-01	-6.04909e-01	-6.05116e-01	-6.04909e-01	
320	-6.20000e-01	-5.95428e-01	-5.95634e-01	-5.95428e-01	
321	-6.00000e-01	-5.84014e-01	-5.84224e-01	-5.84014e-01	
322	-5.80000e-01	-5.70397e-01	-5.70617e-01	-5.70397e-01	
323	-5.60000e-01	-5.54624e-01	-5.54863e-01	-5.54624e-01	
324	-5.40000e-01	-5.37104e-01	-5.37369e-01	-5.37104e-01	
325	-5.20000e-01	-5.18412e-01	-5.18711e-01	-5.18412e-01	
326	-5.00000e-01	-4.99040e-01	-4.99383e-01	-4.99040e-01	
327	-4.80000e-01	-4.79311e-01	-4.79708e-01	-4.79311e-01	
328	-4.60000e-01	-4.59400e-01	-4.59863e-01	-4.59400e-01	
329	-4.40000e-01	-4.39395e-01	-4.39935e-01	-4.39395e-01	
330	-4.20000e-01	-4.19335e-01	-4.19970e-01	-4.19335e-01	
331	-4.00000e-01	-3.99239e-01	-3.99986e-01	-3.99239e-01	
