                * c:\users\pt710\esim-workspace\lm318\lm318.cir
                Transient Analysis  Sat Mar 22 21:28:06  2025
--------------------------------------------------------------------------------
Index   time            +15v            ?               net-_c1-pad1_   
--------------------------------------------------------------------------------
0	1.600000e-06	-1.42471e-05	2.270349e-18	-1.07276e-05	
1	3.200000e-06	-1.54537e-05	2.270341e-18	-1.44427e-05	
2	6.400000e-06	-1.57945e-05	2.270322e-18	-1.59016e-05	
3	1.157174e-05	-1.56845e-05	2.270288e-18	-1.56148e-05	
4	1.999238e-05	-1.54700e-05	2.270228e-18	-1.55131e-05	
5	2.999238e-05	-1.52872e-05	2.270151e-18	-1.52362e-05	
6	3.999238e-05	-1.50349e-05	2.270068e-18	-1.50682e-05	
7	4.999238e-05	-1.48600e-05	2.269980e-18	-1.48161e-05	
8	5.999238e-05	-1.46116e-05	2.269886e-18	-1.46402e-05	
9	6.999238e-05	-1.44411e-05	2.269786e-18	-1.44013e-05	
10	7.999238e-05	-1.41981e-05	2.269680e-18	-1.42240e-05	
11	8.999238e-05	-1.40310e-05	2.269569e-18	-1.39941e-05	
12	9.999238e-05	-1.37939e-05	2.269452e-18	-1.38177e-05	
13	1.099924e-04	-1.36299e-05	2.269329e-18	-1.35954e-05	
14	1.199924e-04	-1.33984e-05	2.269201e-18	-1.34206e-05	
15	1.299924e-04	-1.32374e-05	2.269067e-18	-1.32051e-05	
16	1.399924e-04	-1.30115e-05	2.268927e-18	-1.30322e-05	
17	1.499924e-04	-1.28535e-05	2.268781e-18	-1.28231e-05	
18	1.599924e-04	-1.26328e-05	2.268630e-18	-1.26523e-05	
19	1.699924e-04	-1.24778e-05	2.268473e-18	-1.24492e-05	
20	1.799924e-04	-1.22622e-05	2.268310e-18	-1.22805e-05	
21	1.899924e-04	-1.21102e-05	2.268142e-18	-1.20832e-05	
22	1.999924e-04	-1.18995e-05	2.267968e-18	-1.19168e-05	
23	2.099924e-04	-1.17504e-05	2.267788e-18	-1.17249e-05	
24	2.199924e-04	-1.15443e-05	2.267603e-18	-1.15608e-05	
25	2.299924e-04	-1.13982e-05	2.267411e-18	-1.13741e-05	
26	2.399924e-04	-1.11967e-05	2.267214e-18	-1.12123e-05	
27	2.499924e-04	-1.10534e-05	2.267012e-18	-1.10306e-05	
28	2.599924e-04	-1.08562e-05	2.266804e-18	-1.08711e-05	
29	2.699924e-04	-1.07158e-05	2.266590e-18	-1.06942e-05	
30	2.799924e-04	-1.05228e-05	2.266370e-18	-1.05371e-05	
31	2.899924e-04	-1.03853e-05	2.266144e-18	-1.03648e-05	
32	2.999924e-04	-1.01963e-05	2.265913e-18	-1.02100e-05	
33	3.099924e-04	-1.00615e-05	2.265676e-18	-1.00421e-05	
34	3.199924e-04	-9.87646e-06	2.265434e-18	-9.88964e-06	
35	3.299924e-04	-9.74438e-06	2.265186e-18	-9.72597e-06	
36	3.399924e-04	-9.56314e-06	2.264932e-18	-9.57587e-06	
37	3.499924e-04	-9.43372e-06	2.264672e-18	-9.41624e-06	
38	3.599924e-04	-9.25617e-06	2.264407e-18	-9.26849e-06	
39	3.699924e-04	-9.12935e-06	2.264136e-18	-9.11275e-06	
40	3.799924e-04	-8.95538e-06	2.263859e-18	-8.96734e-06	
41	3.899924e-04	-8.83112e-06	2.263577e-18	-8.81534e-06	
42	3.999924e-04	-8.66062e-06	2.263288e-18	-8.67226e-06	
43	4.099924e-04	-8.53886e-06	2.262995e-18	-8.52386e-06	
44	4.199924e-04	-8.37174e-06	2.262695e-18	-8.38310e-06	
45	4.299924e-04	-8.25242e-06	2.262390e-18	-8.23818e-06	
46	4.399924e-04	-8.08861e-06	2.262079e-18	-8.09971e-06	
47	4.499924e-04	-7.97168e-06	2.261762e-18	-7.95814e-06	
48	4.599924e-04	-7.81108e-06	2.261440e-18	-7.82195e-06	
49	4.699924e-04	-7.69649e-06	2.261112e-18	-7.68362e-06	
50	4.799924e-04	-7.53902e-06	2.260779e-18	-7.54969e-06	
51	4.899924e-04	-7.42672e-06	2.260439e-18	-7.41449e-06	
52	4.999924e-04	-7.27232e-06	2.260094e-18	-7.28282e-06	
53	5.099924e-04	-7.16227e-06	2.259743e-18	-7.15065e-06	
54	5.199924e-04	-7.01087e-06	2.259387e-18	-7.02121e-06	

Index   time            +15v            ?               net-_c1-pad1_   
--------------------------------------------------------------------------------
55	5.299924e-04	-6.90302e-06	2.259025e-18	-6.89198e-06	
56	5.399924e-04	-6.75457e-06	2.258657e-18	-6.76476e-06	
57	5.499924e-04	-6.64887e-06	2.258284e-18	-6.63840e-06	
58	5.599924e-04	-6.50331e-06	2.257905e-18	-6.51338e-06	
59	5.699924e-04	-6.39975e-06	2.257520e-18	-6.38980e-06	
60	5.799924e-04	-6.25703e-06	2.257129e-18	-6.26698e-06	
61	5.899924e-04	-6.15557e-06	2.256733e-18	-6.14614e-06	
62	5.999924e-04	-6.01567e-06	2.256331e-18	-6.02551e-06	
63	6.099924e-04	-5.91628e-06	2.255924e-18	-5.90734e-06	
64	6.199924e-04	-5.77915e-06	2.255511e-18	-5.78890e-06	
65	6.299924e-04	-5.68183e-06	2.255092e-18	-5.67336e-06	
66	6.399924e-04	-5.54747e-06	2.254667e-18	-5.55713e-06	
67	6.499924e-04	-5.45220e-06	2.254237e-18	-5.44418e-06	
68	6.599924e-04	-5.32059e-06	2.253801e-18	-5.33016e-06	
69	6.699924e-04	-5.22739e-06	2.253359e-18	-5.21979e-06	
70	6.799924e-04	-5.09853e-06	2.252912e-18	-5.10802e-06	
71	6.899924e-04	-5.00741e-06	2.252459e-18	-5.00022e-06	
72	6.999924e-04	-4.88132e-06	2.252001e-18	-4.89072e-06	
73	7.099924e-04	-4.79231e-06	2.251536e-18	-4.78550e-06	
74	7.199924e-04	-4.66901e-06	2.251067e-18	-4.67833e-06	
75	7.299924e-04	-4.58216e-06	2.250591e-18	-4.57571e-06	
76	7.399924e-04	-4.46170e-06	2.250110e-18	-4.47094e-06	
77	7.499924e-04	-4.37707e-06	2.249623e-18	-4.37096e-06	
78	7.599924e-04	-4.25952e-06	2.249130e-18	-4.26866e-06	
79	7.699924e-04	-4.17719e-06	2.248632e-18	-4.17140e-06	
80	7.799924e-04	-4.06263e-06	2.248128e-18	-4.07168e-06	
81	7.899924e-04	-3.98271e-06	2.247619e-18	-3.97721e-06	
82	7.999924e-04	-3.87125e-06	2.247104e-18	-3.88018e-06	
83	8.099924e-04	-3.79386e-06	2.246583e-18	-3.78862e-06	
84	8.199924e-04	-3.68563e-06	2.246056e-18	-3.69443e-06	
85	8.299924e-04	-3.61092e-06	2.245524e-18	-3.60591e-06	
86	8.399924e-04	-3.50607e-06	2.244986e-18	-3.51472e-06	
87	8.499924e-04	-3.43423e-06	2.244443e-18	-3.42941e-06	
88	8.599924e-04	-3.33295e-06	2.243894e-18	-3.34143e-06	
89	8.699924e-04	-3.26418e-06	2.243339e-18	-3.25952e-06	
90	8.799924e-04	-3.16669e-06	2.242779e-18	-3.17497e-06	
91	8.899924e-04	-3.10122e-06	2.242213e-18	-3.09667e-06	
92	8.999924e-04	-3.00774e-06	2.241641e-18	-3.01579e-06	
93	9.099924e-04	-2.94583e-06	2.241064e-18	-2.94136e-06	
94	9.199924e-04	-2.85663e-06	2.240481e-18	-2.86442e-06	
95	9.299924e-04	-2.79856e-06	2.239892e-18	-2.79413e-06	
96	9.399924e-04	-2.71392e-06	2.239298e-18	-2.72142e-06	
97	9.499924e-04	-2.65998e-06	2.238698e-18	-2.65553e-06	
98	9.599924e-04	-2.58018e-06	2.238093e-18	-2.58735e-06	
99	9.699924e-04	-2.53067e-06	2.237482e-18	-2.52617e-06	
100	9.799924e-04	-2.45601e-06	2.236865e-18	-2.46281e-06	
101	9.899924e-04	-2.41122e-06	2.236243e-18	-2.40661e-06	
102	9.999924e-04	-2.34195e-06	2.235615e-18	-2.34835e-06	
103	1.009992e-03	-2.30213e-06	2.234981e-18	-2.29737e-06	
104	1.019992e-03	-2.23849e-06	2.234342e-18	-2.24444e-06	
105	1.029992e-03	-2.20383e-06	2.233697e-18	-2.19888e-06	
106	1.039992e-03	-2.14594e-06	2.233047e-18	-2.15143e-06	
107	1.049992e-03	-2.11655e-06	2.232391e-18	-2.11139e-06	
108	1.059992e-03	-2.06447e-06	2.231729e-18	-2.06947e-06	
109	1.069992e-03	-2.04032e-06	2.231062e-18	-2.03492e-06	
110	1.079992e-03	-1.99392e-06	2.230389e-18	-1.99844e-06	
111	1.089992e-03	-1.97481e-06	2.229710e-18	-1.96917e-06	
112	1.099992e-03	-1.93376e-06	2.229026e-18	-1.93782e-06	

Index   time            +15v            ?               net-_c1-pad1_   
--------------------------------------------------------------------------------
113	1.109992e-03	-1.91927e-06	2.228336e-18	-1.91341e-06	
114	1.119992e-03	-1.88301e-06	2.227641e-18	-1.88665e-06	
115	1.129992e-03	-1.87243e-06	2.226940e-18	-1.86641e-06	
116	1.139992e-03	-1.84011e-06	2.226234e-18	-1.84339e-06	
117	1.149992e-03	-1.83243e-06	2.225521e-18	-1.82633e-06	
118	1.159992e-03	-1.80289e-06	2.224804e-18	-1.80592e-06	
119	1.169992e-03	-1.79680e-06	2.224080e-18	-1.79074e-06	
120	1.179992e-03	-1.76853e-06	2.223351e-18	-1.77145e-06	
121	1.189992e-03	-1.76239e-06	2.222617e-18	-1.75651e-06	
122	1.199992e-03	-1.73361e-06	2.221877e-18	-1.73659e-06	
123	1.209992e-03	-1.72551e-06	2.221131e-18	-1.71999e-06	
124	1.219992e-03	-1.69420e-06	2.220380e-18	-1.69743e-06	
125	1.229992e-03	-1.68207e-06	2.219623e-18	-1.67710e-06	
126	1.239992e-03	-1.64610e-06	2.218860e-18	-1.64980e-06	
127	1.249992e-03	-1.62782e-06	2.218092e-18	-1.62361e-06	
128	1.259992e-03	-1.58512e-06	2.217319e-18	-1.58948e-06	
129	1.269992e-03	-1.55874e-06	2.216539e-18	-1.55548e-06	
130	1.279992e-03	-1.50753e-06	2.215755e-18	-1.51275e-06	
131	1.289992e-03	-1.47148e-06	2.214964e-18	-1.46934e-06	
132	1.299992e-03	-1.41047e-06	2.214168e-18	-1.41668e-06	
133	1.309992e-03	-1.36381e-06	2.213367e-18	-1.36289e-06	
134	1.319992e-03	-1.29243e-06	2.212560e-18	-1.29971e-06	
135	1.329992e-03	-1.23505e-06	2.211747e-18	-1.23538e-06	
136	1.339992e-03	-1.15364e-06	2.210929e-18	-1.16198e-06	
137	1.349992e-03	-1.08637e-06	2.210105e-18	-1.08789e-06	
138	1.359992e-03	-9.96248e-07	2.209276e-18	-1.00554e-06	
139	1.369992e-03	-9.20886e-07	2.208441e-18	-9.23443e-07	
140	1.379992e-03	-8.24304e-07	2.207601e-18	-8.34365e-07	
141	1.389992e-03	-7.43514e-07	2.206755e-18	-7.46875e-07	
142	1.399992e-03	-6.43457e-07	2.205903e-18	-6.54022e-07	
143	1.409992e-03	-5.60496e-07	2.205046e-18	-5.64368e-07	
144	1.419992e-03	-4.60380e-07	2.204183e-18	-4.71143e-07	
145	1.429992e-03	-3.78726e-07	2.203315e-18	-3.82793e-07	
146	1.439992e-03	-2.81979e-07	2.202442e-18	-2.92629e-07	
147	1.449992e-03	-2.04923e-07	2.201562e-18	-2.08880e-07	
148	1.459992e-03	-1.14569e-07	2.200677e-18	-1.24828e-07	
149	1.469992e-03	-4.47858e-08	2.199787e-18	-4.83816e-08	
150	1.479992e-03	3.693588e-08	2.198891e-18	2.727967e-08	
151	1.489992e-03	9.766752e-08	2.197990e-18	9.460693e-08	
152	1.499992e-03	1.694925e-07	2.197083e-18	1.605642e-07	
153	1.509992e-03	2.204424e-07	2.196170e-18	2.179989e-07	
154	1.519992e-03	2.821768e-07	2.195253e-18	2.740087e-07	
155	1.529992e-03	3.236322e-07	2.194329e-18	3.217978e-07	
156	1.539992e-03	3.760203e-07	2.193400e-18	3.685612e-07	
157	1.549992e-03	4.091134e-07	2.192465e-18	4.078056e-07	
158	1.559992e-03	4.536094e-07	2.191525e-18	4.467446e-07	
159	1.569992e-03	4.800313e-07	2.190580e-18	4.791159e-07	
160	1.579992e-03	5.185174e-07	2.189629e-18	5.120934e-07	
161	1.589992e-03	5.402539e-07	2.188672e-18	5.395707e-07	
162	1.599992e-03	5.747471e-07	2.187710e-18	5.685962e-07	
163	1.609992e-03	5.937786e-07	2.186743e-18	5.931635e-07	
164	1.619992e-03	6.262040e-07	2.185770e-18	6.201637e-07	
165	1.629992e-03	6.443442e-07	2.184791e-18	6.436451e-07	
166	1.639992e-03	6.763842e-07	2.183807e-18	6.703091e-07	
167	1.649992e-03	6.951588e-07	2.182817e-18	6.942446e-07	
168	1.659992e-03	7.281917e-07	2.181822e-18	7.219601e-07	
169	1.669992e-03	7.488145e-07	2.180822e-18	7.475784e-07	
170	1.679992e-03	7.838962e-07	2.179816e-18	7.774107e-07	

Index   time            +15v            ?               net-_c1-pad1_   
--------------------------------------------------------------------------------
171	1.689992e-03	8.072672e-07	2.178804e-18	8.056263e-07	
172	1.699992e-03	8.451706e-07	2.177787e-18	8.383564e-07	
173	1.709992e-03	8.719246e-07	2.176765e-18	8.698166e-07	
174	1.719992e-03	9.131695e-07	2.175737e-18	9.059710e-07	
175	1.729992e-03	9.437200e-07	2.174703e-18	9.411002e-07	
176	1.739992e-03	9.886307e-07	2.173664e-18	9.810081e-07	
177	1.749992e-03	1.023208e-06	2.172620e-18	1.020047e-06	
178	1.759992e-03	1.071950e-06	2.171570e-18	1.063877e-06	
179	1.769992e-03	1.110649e-06	2.170515e-18	1.106926e-06	
180	1.779992e-03	1.163262e-06	2.169454e-18	1.154721e-06	
181	1.789992e-03	1.206068e-06	2.168388e-18	1.201774e-06	
182	1.799992e-03	1.262496e-06	2.167316e-18	1.253481e-06	
183	1.809992e-03	1.309300e-06	2.166239e-18	1.304434e-06	
184	1.819992e-03	1.369399e-06	2.165157e-18	1.359908e-06	
185	1.829992e-03	1.420024e-06	2.164069e-18	1.414591e-06	
186	1.839992e-03	1.483596e-06	2.162975e-18	1.473636e-06	
187	1.849992e-03	1.537814e-06	2.161876e-18	1.531824e-06	
188	1.859992e-03	1.604621e-06	2.160772e-18	1.594201e-06	
189	1.869992e-03	1.662167e-06	2.159662e-18	1.655634e-06	
190	1.879992e-03	1.731921e-06	2.158547e-18	1.721054e-06	
191	1.889992e-03	1.792489e-06	2.157427e-18	1.785430e-06	
192	1.899992e-03	1.864894e-06	2.156300e-18	1.853598e-06	
193	1.909992e-03	1.928178e-06	2.155169e-18	1.920613e-06	
194	1.919992e-03	2.002918e-06	2.154032e-18	1.991212e-06	
195	1.929992e-03	2.068594e-06	2.152890e-18	2.060546e-06	
196	1.939992e-03	2.145350e-06	2.151742e-18	2.133254e-06	
197	1.949992e-03	2.213093e-06	2.150589e-18	2.204584e-06	
198	1.959992e-03	2.291538e-06	2.149430e-18	2.279074e-06	
199	1.969992e-03	2.361018e-06	2.148267e-18	2.352072e-06	
200	1.979992e-03	2.440841e-06	2.147097e-18	2.428031e-06	
201	1.989992e-03	2.511744e-06	2.145922e-18	2.502385e-06	
202	1.999992e-03	2.592634e-06	2.144742e-18	2.579500e-06	
203	2.009992e-03	2.664658e-06	2.143557e-18	2.654910e-06	
204	2.019992e-03	2.746326e-06	2.142366e-18	2.732890e-06	
205	2.029992e-03	2.819176e-06	2.141170e-18	2.809063e-06	
206	2.039992e-03	2.901345e-06	2.139968e-18	2.887629e-06	
207	2.049992e-03	2.974753e-06	2.138761e-18	2.964298e-06	
208	2.059992e-03	3.057160e-06	2.137548e-18	3.043186e-06	
209	2.069992e-03	3.130869e-06	2.136330e-18	3.120095e-06	
210	2.079992e-03	3.213277e-06	2.135107e-18	3.199063e-06	
211	2.089992e-03	3.287053e-06	2.133879e-18	3.275979e-06	
212	2.099992e-03	3.369237e-06	2.132645e-18	3.354803e-06	
213	2.109992e-03	3.442863e-06	2.131405e-18	3.431512e-06	
214	2.119992e-03	3.524620e-06	2.130161e-18	3.509985e-06	
215	2.129992e-03	3.597897e-06	2.128911e-18	3.586287e-06	
216	2.139992e-03	3.679042e-06	2.127655e-18	3.664224e-06	
217	2.149992e-03	3.751782e-06	2.126395e-18	3.739932e-06	
218	2.159992e-03	3.832139e-06	2.125129e-18	3.817153e-06	
219	2.169992e-03	3.904186e-06	2.123857e-18	3.892114e-06	
220	2.179992e-03	3.983612e-06	2.122580e-18	3.968475e-06	
221	2.189992e-03	4.054818e-06	2.121298e-18	4.042540e-06	
222	2.199992e-03	4.133174e-06	2.120011e-18	4.117899e-06	
223	2.209992e-03	4.203401e-06	2.118718e-18	4.190933e-06	
224	2.219992e-03	4.280562e-06	2.117420e-18	4.265164e-06	
225	2.229992e-03	4.349697e-06	2.116117e-18	4.337054e-06	
226	2.239992e-03	4.425558e-06	2.114808e-18	4.410051e-06	
227	2.249992e-03	4.493491e-06	2.113494e-18	4.480687e-06	
228	2.259992e-03	4.567954e-06	2.112174e-18	4.552349e-06	

Index   time            +15v            ?               net-_c1-pad1_   
--------------------------------------------------------------------------------
229	2.269992e-03	4.634592e-06	2.110850e-18	4.621640e-06	
230	2.279992e-03	4.707573e-06	2.109520e-18	4.691883e-06	
231	2.289992e-03	4.772840e-06	2.108184e-18	4.759753e-06	
232	2.299992e-03	4.844271e-06	2.106844e-18	4.828505e-06	
233	2.309992e-03	4.908095e-06	2.105498e-18	4.894885e-06	
234	2.319992e-03	4.977908e-06	2.104147e-18	4.962078e-06	
235	2.329992e-03	5.040223e-06	2.102790e-18	5.026900e-06	
236	2.339992e-03	5.108364e-06	2.101429e-18	5.092479e-06	
237	2.349992e-03	5.169116e-06	2.100061e-18	5.155692e-06	
238	2.359992e-03	5.235538e-06	2.098689e-18	5.219608e-06	
239	2.369992e-03	5.294682e-06	2.097312e-18	5.281167e-06	
240	2.379992e-03	5.359344e-06	2.095929e-18	5.343377e-06	
241	2.389992e-03	5.416843e-06	2.094540e-18	5.403246e-06	
242	2.399992e-03	5.479717e-06	2.093147e-18	5.463721e-06	
243	2.409992e-03	5.535537e-06	2.091748e-18	5.521868e-06	
244	2.419992e-03	5.596592e-06	2.090344e-18	5.580576e-06	
245	2.429992e-03	5.650703e-06	2.088935e-18	5.636971e-06	
246	2.439992e-03	5.709916e-06	2.087521e-18	5.693887e-06	
247	2.449992e-03	5.762297e-06	2.086101e-18	5.748511e-06	
248	2.459992e-03	5.819650e-06	2.084676e-18	5.803616e-06	
249	2.469992e-03	5.870282e-06	2.083246e-18	5.856449e-06	
250	2.479992e-03	5.925759e-06	2.081810e-18	5.909727e-06	
251	2.489992e-03	5.974623e-06	2.080370e-18	5.960752e-06	
252	2.499992e-03	6.028218e-06	2.078924e-18	6.012194e-06	
253	2.509992e-03	6.075312e-06	2.077473e-18	6.061409e-06	
254	2.519992e-03	6.127018e-06	2.076016e-18	6.111010e-06	
255	2.529992e-03	6.172331e-06	2.074555e-18	6.158405e-06	
256	2.539992e-03	6.222144e-06	2.073088e-18	6.206157e-06	
257	2.549992e-03	6.265664e-06	2.071616e-18	6.251722e-06	
258	2.559992e-03	6.313576e-06	2.070139e-18	6.297617e-06	
259	2.569992e-03	6.355307e-06	2.068656e-18	6.341355e-06	
260	2.579992e-03	6.401324e-06	2.067169e-18	6.385398e-06	
261	2.589992e-03	6.441262e-06	2.065676e-18	6.427308e-06	
262	2.599992e-03	6.485388e-06	2.064178e-18	6.469501e-06	
263	2.609992e-03	6.523536e-06	2.062675e-18	6.509586e-06	
264	2.619992e-03	6.565770e-06	2.061166e-18	6.549929e-06	
265	2.629992e-03	6.602132e-06	2.059653e-18	6.588193e-06	
266	2.639992e-03	6.642486e-06	2.058134e-18	6.626695e-06	
267	2.649992e-03	6.677064e-06	2.056610e-18	6.663141e-06	
268	2.659992e-03	6.715537e-06	2.055081e-18	6.699802e-06	
269	2.669992e-03	6.748337e-06	2.053547e-18	6.734436e-06	
270	2.679992e-03	6.784946e-06	2.052007e-18	6.769272e-06	
271	2.689992e-03	6.815979e-06	2.050463e-18	6.802106e-06	
272	2.699992e-03	6.850733e-06	2.048913e-18	6.835124e-06	
273	2.709992e-03	6.880009e-06	2.047358e-18	6.866170e-06	
274	2.719992e-03	6.912920e-06	2.045798e-18	6.897383e-06	
275	2.729992e-03	6.940443e-06	2.044233e-18	6.926644e-06	
276	2.739992e-03	6.971519e-06	2.042662e-18	6.956057e-06	
277	2.749992e-03	6.997303e-06	2.041087e-18	6.983549e-06	
278	2.759992e-03	7.026565e-06	2.039506e-18	7.011183e-06	
279	2.769992e-03	7.050626e-06	2.037921e-18	7.036923e-06	
280	2.779992e-03	7.078084e-06	2.036330e-18	7.062787e-06	
281	2.789992e-03	7.100434e-06	2.034734e-18	7.086786e-06	
282	2.799992e-03	7.126098e-06	2.033133e-18	7.110890e-06	
283	2.809992e-03	7.146744e-06	2.031527e-18	7.133156e-06	
284	2.819992e-03	7.170641e-06	2.029915e-18	7.155526e-06	
285	2.829992e-03	7.189607e-06	2.028299e-18	7.176085e-06	
286	2.839992e-03	7.211751e-06	2.026677e-18	7.196734e-06	

Index   time            +15v            ?               net-_c1-pad1_   
--------------------------------------------------------------------------------
287	2.849992e-03	7.229052e-06	2.025051e-18	7.215599e-06	
288	2.859992e-03	7.249467e-06	2.023419e-18	7.234551e-06	
289	2.869992e-03	7.265126e-06	2.021782e-18	7.251748e-06	
290	2.879992e-03	7.283825e-06	2.020140e-18	7.269014e-06	
291	2.889992e-03	7.297852e-06	2.018493e-18	7.284552e-06	
292	2.899992e-03	7.314858e-06	2.016841e-18	7.300156e-06	
293	2.909992e-03	7.327276e-06	2.015184e-18	7.314059e-06	
294	2.919992e-03	7.342615e-06	2.013522e-18	7.328024e-06	
295	2.929992e-03	7.353454e-06	2.011855e-18	7.340323e-06	
296	2.939992e-03	7.367148e-06	2.010183e-18	7.352673e-06	
297	2.949992e-03	7.376416e-06	2.008505e-18	7.363375e-06	
298	2.959992e-03	7.388482e-06	2.006823e-18	7.374125e-06	
299	2.969992e-03	7.396216e-06	2.005136e-18	7.383268e-06	
300	2.979992e-03	7.406696e-06	2.003443e-18	7.392460e-06	
301	2.989992e-03	7.412915e-06	2.001746e-18	7.400064e-06	
302	2.999992e-03	7.421825e-06	2.000043e-18	7.407713e-06	
303	3.009992e-03	7.426559e-06	1.998335e-18	7.413808e-06	
304	3.019992e-03	7.433930e-06	1.996623e-18	7.419944e-06	
305	3.029992e-03	7.437203e-06	1.994905e-18	7.424556e-06	
306	3.039992e-03	7.443066e-06	1.993183e-18	7.429209e-06	
307	3.049992e-03	7.444910e-06	1.991455e-18	7.432367e-06	
308	3.059992e-03	7.449298e-06	1.989722e-18	7.435570e-06	
309	3.069992e-03	7.449747e-06	1.987985e-18	7.437312e-06	
310	3.079992e-03	7.452694e-06	1.986242e-18	7.439099e-06	
311	3.089992e-03	7.451778e-06	1.984494e-18	7.439453e-06	
312	3.099992e-03	7.453317e-06	1.982742e-18	7.439855e-06	
313	3.109992e-03	7.451070e-06	1.980984e-18	7.438857e-06	
314	3.119992e-03	7.451239e-06	1.979222e-18	7.437912e-06	
315	3.129992e-03	7.447702e-06	1.977454e-18	7.435601e-06	
316	3.139992e-03	7.446542e-06	1.975681e-18	7.433350e-06	
317	3.149992e-03	7.441751e-06	1.973904e-18	7.429765e-06	
318	3.159992e-03	7.439295e-06	1.972121e-18	7.426239e-06	
319	3.169992e-03	7.433287e-06	1.970334e-18	7.421416e-06	
320	3.179992e-03	7.429579e-06	1.968542e-18	7.416660e-06	
321	3.189992e-03	7.422387e-06	1.966744e-18	7.410632e-06	
322	3.199992e-03	7.417462e-06	1.964942e-18	7.404680e-06	
323	3.209992e-03	7.409133e-06	1.963135e-18	7.397494e-06	
324	3.219992e-03	7.403038e-06	1.961323e-18	7.390393e-06	
325	3.229992e-03	7.393613e-06	1.959506e-18	7.382091e-06	
