                 * c:\users\aditya\esim-workspace\9348\9348.cir
                 Transient Analysis  Thu Aug 22 14:18:21  2024
--------------------------------------------------------------------------------
Index   time            i0              i1              i2              
--------------------------------------------------------------------------------
0	0.000000e+00	0.000000e+00	0.000000e+00	0.000000e+00	
1	1.000000e-05	5.000000e-02	5.000000e-02	5.000000e-02	
2	2.000000e-05	1.000000e-01	1.000000e-01	1.000000e-01	
3	4.000000e-05	2.000000e-01	2.000000e-01	2.000000e-01	
4	6.278409e-05	3.139205e-01	3.139205e-01	3.139205e-01	
5	8.518935e-05	4.259467e-01	4.259467e-01	4.259467e-01	
6	1.090930e-04	5.454652e-01	5.454652e-01	5.454652e-01	
7	1.459467e-04	7.297335e-01	7.297335e-01	7.297335e-01	
8	1.828959e-04	9.144797e-01	9.144797e-01	9.144797e-01	
9	2.279131e-04	1.139566e+00	1.139566e+00	1.139566e+00	
10	2.686563e-04	1.343282e+00	1.343282e+00	1.343282e+00	
11	3.192065e-04	1.596032e+00	1.596032e+00	1.596032e+00	
12	3.258506e-04	1.629253e+00	1.629253e+00	1.629253e+00	
13	3.391389e-04	1.695695e+00	1.695695e+00	1.695695e+00	
14	3.516158e-04	1.758079e+00	1.758079e+00	1.758079e+00	
15	3.635768e-04	1.817884e+00	1.817884e+00	1.817884e+00	
16	3.720073e-04	1.860037e+00	1.860037e+00	1.860037e+00	
17	3.786325e-04	1.893162e+00	1.893162e+00	1.893162e+00	
18	3.815848e-04	1.907924e+00	1.907924e+00	1.907924e+00	
19	3.845855e-04	1.922927e+00	1.922927e+00	1.922927e+00	
20	3.866982e-04	1.933491e+00	1.933491e+00	1.933491e+00	
21	3.889924e-04	1.944962e+00	1.944962e+00	1.944962e+00	
22	3.911631e-04	1.955816e+00	1.955816e+00	1.955816e+00	
23	3.934094e-04	1.967047e+00	1.967047e+00	1.967047e+00	
24	3.963722e-04	1.981861e+00	1.981861e+00	1.981861e+00	
25	4.000880e-04	2.000440e+00	2.000440e+00	2.000440e+00	
26	4.058534e-04	2.029267e+00	2.029267e+00	2.029267e+00	
27	4.150826e-04	2.075413e+00	2.075413e+00	2.075413e+00	
28	4.319601e-04	2.159801e+00	2.159801e+00	2.159801e+00	
29	4.657152e-04	2.328576e+00	2.328576e+00	2.328576e+00	
30	5.212228e-04	2.606114e+00	2.606114e+00	2.606114e+00	
31	5.788246e-04	2.894123e+00	2.894123e+00	2.894123e+00	
32	6.940281e-04	3.470141e+00	3.470141e+00	3.470141e+00	
33	9.244352e-04	4.622176e+00	4.622176e+00	4.622176e+00	
34	1.000000e-03	5.000000e+00	5.000000e+00	5.000000e+00	
35	1.009269e-03	5.000000e+00	5.000000e+00	5.000000e+00	
36	1.019327e-03	5.000000e+00	5.000000e+00	5.000000e+00	
37	1.028963e-03	5.000000e+00	5.000000e+00	5.000000e+00	
38	1.048235e-03	5.000000e+00	5.000000e+00	5.000000e+00	
39	1.086780e-03	5.000000e+00	5.000000e+00	5.000000e+00	
40	1.163869e-03	5.000000e+00	5.000000e+00	5.000000e+00	
41	1.318047e-03	5.000000e+00	5.000000e+00	5.000000e+00	
42	1.626404e-03	5.000000e+00	5.000000e+00	5.000000e+00	
43	2.243118e-03	5.000000e+00	5.000000e+00	5.000000e+00	
44	3.476545e-03	5.000000e+00	5.000000e+00	5.000000e+00	
45	5.943398e-03	5.000000e+00	5.000000e+00	5.000000e+00	
46	1.087711e-02	5.000000e+00	5.000000e+00	5.000000e+00	
47	2.074452e-02	5.000000e+00	5.000000e+00	5.000000e+00	
48	4.047935e-02	5.000000e+00	5.000000e+00	5.000000e+00	
49	7.994902e-02	5.000000e+00	5.000000e+00	5.000000e+00	
50	1.588883e-01	5.000000e+00	5.000000e+00	5.000000e+00	
51	2.588883e-01	5.000000e+00	5.000000e+00	5.000000e+00	
52	3.588883e-01	5.000000e+00	5.000000e+00	5.000000e+00	
53	4.588883e-01	5.000000e+00	5.000000e+00	5.000000e+00	
54	5.588883e-01	5.000000e+00	5.000000e+00	5.000000e+00	

Index   time            i0              i1              i2              
--------------------------------------------------------------------------------
55	6.588883e-01	5.000000e+00	5.000000e+00	5.000000e+00	
56	7.588883e-01	5.000000e+00	5.000000e+00	5.000000e+00	
57	8.588883e-01	5.000000e+00	5.000000e+00	5.000000e+00	
58	9.588883e-01	5.000000e+00	5.000000e+00	5.000000e+00	
59	1.001000e+00	5.000000e+00	5.000000e+00	5.000000e+00	
60	1.001100e+00	4.500000e+00	5.000000e+00	5.000000e+00	
61	1.001300e+00	3.500000e+00	5.000000e+00	5.000000e+00	
62	1.001484e+00	2.579471e+00	5.000000e+00	5.000000e+00	
63	1.001670e+00	1.650779e+00	5.000000e+00	5.000000e+00	
64	1.001802e+00	9.904759e-01	5.000000e+00	5.000000e+00	
65	1.001901e+00	4.971564e-01	5.000000e+00	5.000000e+00	
66	1.001974e+00	1.322939e-01	5.000000e+00	5.000000e+00	
67	1.002000e+00	0.000000e+00	5.000000e+00	5.000000e+00	
68	1.002001e+00	0.000000e+00	5.000000e+00	5.000000e+00	
69	1.002004e+00	0.000000e+00	5.000000e+00	5.000000e+00	
70	1.002008e+00	0.000000e+00	5.000000e+00	5.000000e+00	
71	1.002011e+00	0.000000e+00	5.000000e+00	5.000000e+00	
72	1.002015e+00	0.000000e+00	5.000000e+00	5.000000e+00	
73	1.002023e+00	0.000000e+00	5.000000e+00	5.000000e+00	
74	1.002036e+00	0.000000e+00	5.000000e+00	5.000000e+00	
75	1.002061e+00	0.000000e+00	5.000000e+00	5.000000e+00	
76	1.002110e+00	0.000000e+00	5.000000e+00	5.000000e+00	
77	1.002209e+00	0.000000e+00	5.000000e+00	5.000000e+00	
78	1.002408e+00	0.000000e+00	5.000000e+00	5.000000e+00	
79	1.002805e+00	0.000000e+00	5.000000e+00	5.000000e+00	
80	1.003599e+00	0.000000e+00	5.000000e+00	5.000000e+00	
81	1.005188e+00	0.000000e+00	5.000000e+00	5.000000e+00	
82	1.008364e+00	0.000000e+00	5.000000e+00	5.000000e+00	
83	1.014718e+00	0.000000e+00	5.000000e+00	5.000000e+00	
84	1.027425e+00	0.000000e+00	5.000000e+00	5.000000e+00	
85	1.052839e+00	0.000000e+00	5.000000e+00	5.000000e+00	
86	1.103668e+00	0.000000e+00	5.000000e+00	5.000000e+00	
87	1.203668e+00	0.000000e+00	5.000000e+00	5.000000e+00	
88	1.303668e+00	0.000000e+00	5.000000e+00	5.000000e+00	
89	1.403668e+00	0.000000e+00	5.000000e+00	5.000000e+00	
90	1.503668e+00	0.000000e+00	5.000000e+00	5.000000e+00	
91	1.603668e+00	0.000000e+00	5.000000e+00	5.000000e+00	
92	1.703668e+00	0.000000e+00	5.000000e+00	5.000000e+00	
93	1.803668e+00	0.000000e+00	5.000000e+00	5.000000e+00	
94	1.903668e+00	0.000000e+00	5.000000e+00	5.000000e+00	
95	2.001000e+00	0.000000e+00	5.000000e+00	5.000000e+00	
96	2.001100e+00	0.000000e+00	4.500000e+00	5.000000e+00	
97	2.001300e+00	0.000000e+00	3.500000e+00	5.000000e+00	
98	2.001484e+00	0.000000e+00	2.579476e+00	5.000000e+00	
99	2.001670e+00	0.000000e+00	1.650783e+00	5.000000e+00	
100	2.001802e+00	0.000000e+00	9.905028e-01	5.000000e+00	
101	2.001828e+00	0.000000e+00	8.621336e-01	5.000000e+00	
102	2.001852e+00	0.000000e+00	7.408374e-01	5.000000e+00	
103	2.001864e+00	0.000000e+00	6.822612e-01	5.000000e+00	
104	2.001878e+00	0.000000e+00	6.082372e-01	5.000000e+00	
105	2.001897e+00	0.000000e+00	5.141692e-01	5.000000e+00	
106	2.001917e+00	0.000000e+00	4.144860e-01	5.000000e+00	
107	2.001936e+00	0.000000e+00	3.218411e-01	5.000000e+00	
108	2.001953e+00	0.000000e+00	2.342452e-01	5.000000e+00	
109	2.001971e+00	0.000000e+00	1.448659e-01	5.000000e+00	
110	2.001990e+00	0.000000e+00	4.803867e-02	5.000000e+00	
111	2.002000e+00	0.000000e+00	0.000000e+00	5.000000e+00	
112	2.002001e+00	0.000000e+00	0.000000e+00	5.000000e+00	

Index   time            i0              i1              i2              
--------------------------------------------------------------------------------
113	2.002003e+00	0.000000e+00	0.000000e+00	5.000000e+00	
114	2.002006e+00	0.000000e+00	0.000000e+00	5.000000e+00	
115	2.002010e+00	0.000000e+00	0.000000e+00	5.000000e+00	
116	2.002015e+00	0.000000e+00	0.000000e+00	5.000000e+00	
117	2.002024e+00	0.000000e+00	0.000000e+00	5.000000e+00	
118	2.002039e+00	0.000000e+00	0.000000e+00	5.000000e+00	
119	2.002067e+00	0.000000e+00	0.000000e+00	5.000000e+00	
120	2.002123e+00	0.000000e+00	0.000000e+00	5.000000e+00	
121	2.002235e+00	0.000000e+00	0.000000e+00	5.000000e+00	
122	2.002460e+00	0.000000e+00	0.000000e+00	5.000000e+00	
123	2.002910e+00	0.000000e+00	0.000000e+00	5.000000e+00	
124	2.003809e+00	0.000000e+00	0.000000e+00	5.000000e+00	
125	2.005608e+00	0.000000e+00	0.000000e+00	5.000000e+00	
126	2.009206e+00	0.000000e+00	0.000000e+00	5.000000e+00	
127	2.016401e+00	0.000000e+00	0.000000e+00	5.000000e+00	
128	2.030792e+00	0.000000e+00	0.000000e+00	5.000000e+00	
129	2.059573e+00	0.000000e+00	0.000000e+00	5.000000e+00	
130	2.117136e+00	0.000000e+00	0.000000e+00	5.000000e+00	
131	2.217136e+00	0.000000e+00	0.000000e+00	5.000000e+00	
132	2.317136e+00	0.000000e+00	0.000000e+00	5.000000e+00	
133	2.417136e+00	0.000000e+00	0.000000e+00	5.000000e+00	
134	2.517136e+00	0.000000e+00	0.000000e+00	5.000000e+00	
135	2.617136e+00	0.000000e+00	0.000000e+00	5.000000e+00	
136	2.717136e+00	0.000000e+00	0.000000e+00	5.000000e+00	
137	2.817136e+00	0.000000e+00	0.000000e+00	5.000000e+00	
138	2.917136e+00	0.000000e+00	0.000000e+00	5.000000e+00	
139	3.001000e+00	0.000000e+00	0.000000e+00	5.000000e+00	
140	3.001100e+00	0.000000e+00	0.000000e+00	4.500000e+00	
141	3.001300e+00	0.000000e+00	0.000000e+00	3.500000e+00	
142	3.001484e+00	0.000000e+00	0.000000e+00	2.579472e+00	
143	3.001670e+00	0.000000e+00	0.000000e+00	1.650779e+00	
144	3.001802e+00	0.000000e+00	0.000000e+00	9.904845e-01	
145	3.001901e+00	0.000000e+00	0.000000e+00	4.956114e-01	
146	3.001974e+00	0.000000e+00	0.000000e+00	1.290115e-01	
147	3.002000e+00	0.000000e+00	0.000000e+00	0.000000e+00	
148	3.002001e+00	0.000000e+00	0.000000e+00	0.000000e+00	
149	3.002004e+00	0.000000e+00	0.000000e+00	0.000000e+00	
150	3.002006e+00	0.000000e+00	0.000000e+00	0.000000e+00	
151	3.002008e+00	0.000000e+00	0.000000e+00	0.000000e+00	
152	3.002010e+00	0.000000e+00	0.000000e+00	0.000000e+00	
153	3.002014e+00	0.000000e+00	0.000000e+00	0.000000e+00	
154	3.002022e+00	0.000000e+00	0.000000e+00	0.000000e+00	
155	3.002037e+00	0.000000e+00	0.000000e+00	0.000000e+00	
156	3.002066e+00	0.000000e+00	0.000000e+00	0.000000e+00	
157	3.002122e+00	0.000000e+00	0.000000e+00	0.000000e+00	
158	3.002221e+00	0.000000e+00	0.000000e+00	0.000000e+00	
159	3.002418e+00	0.000000e+00	0.000000e+00	0.000000e+00	
160	3.002814e+00	0.000000e+00	0.000000e+00	0.000000e+00	
161	3.003604e+00	0.000000e+00	0.000000e+00	0.000000e+00	
162	3.005186e+00	0.000000e+00	0.000000e+00	0.000000e+00	
163	3.008348e+00	0.000000e+00	0.000000e+00	0.000000e+00	
164	3.014673e+00	0.000000e+00	0.000000e+00	0.000000e+00	
165	3.027323e+00	0.000000e+00	0.000000e+00	0.000000e+00	
166	3.052624e+00	0.000000e+00	0.000000e+00	0.000000e+00	
167	3.103225e+00	0.000000e+00	0.000000e+00	0.000000e+00	
168	3.203225e+00	0.000000e+00	0.000000e+00	0.000000e+00	
169	3.303225e+00	0.000000e+00	0.000000e+00	0.000000e+00	
170	3.403225e+00	0.000000e+00	0.000000e+00	0.000000e+00	

Index   time            i0              i1              i2              
--------------------------------------------------------------------------------
171	3.503225e+00	0.000000e+00	0.000000e+00	0.000000e+00	
172	3.603225e+00	0.000000e+00	0.000000e+00	0.000000e+00	
173	3.703225e+00	0.000000e+00	0.000000e+00	0.000000e+00	
174	3.803225e+00	0.000000e+00	0.000000e+00	0.000000e+00	
175	3.903225e+00	0.000000e+00	0.000000e+00	0.000000e+00	
176	4.001000e+00	0.000000e+00	0.000000e+00	0.000000e+00	
177	4.001100e+00	0.000000e+00	0.000000e+00	0.000000e+00	
178	4.001300e+00	0.000000e+00	0.000000e+00	0.000000e+00	
179	4.001484e+00	0.000000e+00	0.000000e+00	0.000000e+00	
180	4.001670e+00	0.000000e+00	0.000000e+00	0.000000e+00	
181	4.001802e+00	0.000000e+00	0.000000e+00	0.000000e+00	
182	4.001830e+00	0.000000e+00	0.000000e+00	0.000000e+00	
183	4.001854e+00	0.000000e+00	0.000000e+00	0.000000e+00	
184	4.001865e+00	0.000000e+00	0.000000e+00	0.000000e+00	
185	4.001880e+00	0.000000e+00	0.000000e+00	0.000000e+00	
186	4.001898e+00	0.000000e+00	0.000000e+00	0.000000e+00	
187	4.001915e+00	0.000000e+00	0.000000e+00	0.000000e+00	
188	4.001930e+00	0.000000e+00	0.000000e+00	0.000000e+00	
189	4.001943e+00	0.000000e+00	0.000000e+00	0.000000e+00	
190	4.001958e+00	0.000000e+00	0.000000e+00	0.000000e+00	
191	4.001973e+00	0.000000e+00	0.000000e+00	0.000000e+00	
192	4.001990e+00	0.000000e+00	0.000000e+00	0.000000e+00	
193	4.002000e+00	0.000000e+00	0.000000e+00	0.000000e+00	
194	4.002001e+00	0.000000e+00	0.000000e+00	0.000000e+00	
195	4.002004e+00	0.000000e+00	0.000000e+00	0.000000e+00	
196	4.002008e+00	0.000000e+00	0.000000e+00	0.000000e+00	
197	4.002013e+00	0.000000e+00	0.000000e+00	0.000000e+00	
198	4.002021e+00	0.000000e+00	0.000000e+00	0.000000e+00	
199	4.002033e+00	0.000000e+00	0.000000e+00	0.000000e+00	
200	4.002058e+00	0.000000e+00	0.000000e+00	0.000000e+00	
201	4.002108e+00	0.000000e+00	0.000000e+00	0.000000e+00	
202	4.002209e+00	0.000000e+00	0.000000e+00	0.000000e+00	
203	4.002410e+00	0.000000e+00	0.000000e+00	0.000000e+00	
204	4.002811e+00	0.000000e+00	0.000000e+00	0.000000e+00	
205	4.003614e+00	0.000000e+00	0.000000e+00	0.000000e+00	
206	4.005219e+00	0.000000e+00	0.000000e+00	0.000000e+00	
207	4.008430e+00	0.000000e+00	0.000000e+00	0.000000e+00	
208	4.014852e+00	0.000000e+00	0.000000e+00	0.000000e+00	
209	4.027696e+00	0.000000e+00	0.000000e+00	0.000000e+00	
210	4.053383e+00	0.000000e+00	0.000000e+00	0.000000e+00	
211	4.104759e+00	0.000000e+00	0.000000e+00	0.000000e+00	
212	4.204759e+00	0.000000e+00	0.000000e+00	0.000000e+00	
213	4.304759e+00	0.000000e+00	0.000000e+00	0.000000e+00	
214	4.404759e+00	0.000000e+00	0.000000e+00	0.000000e+00	
215	4.504759e+00	0.000000e+00	0.000000e+00	0.000000e+00	
216	4.604759e+00	0.000000e+00	0.000000e+00	0.000000e+00	
217	4.704759e+00	0.000000e+00	0.000000e+00	0.000000e+00	
218	4.804759e+00	0.000000e+00	0.000000e+00	0.000000e+00	
219	4.904759e+00	0.000000e+00	0.000000e+00	0.000000e+00	
220	5.001000e+00	0.000000e+00	0.000000e+00	0.000000e+00	
221	5.001100e+00	0.000000e+00	0.000000e+00	0.000000e+00	
222	5.001300e+00	0.000000e+00	0.000000e+00	0.000000e+00	
223	5.001484e+00	0.000000e+00	0.000000e+00	0.000000e+00	
224	5.001670e+00	0.000000e+00	0.000000e+00	0.000000e+00	
225	5.001802e+00	0.000000e+00	0.000000e+00	0.000000e+00	
226	5.001901e+00	0.000000e+00	0.000000e+00	0.000000e+00	
227	5.001954e+00	0.000000e+00	0.000000e+00	0.000000e+00	
228	5.001994e+00	0.000000e+00	0.000000e+00	0.000000e+00	

Index   time            i0              i1              i2              
--------------------------------------------------------------------------------
229	5.002000e+00	0.000000e+00	0.000000e+00	0.000000e+00	
230	5.002000e+00	0.000000e+00	0.000000e+00	0.000000e+00	
231	5.002001e+00	0.000000e+00	0.000000e+00	0.000000e+00	
232	5.002002e+00	0.000000e+00	0.000000e+00	0.000000e+00	
233	5.002004e+00	0.000000e+00	0.000000e+00	0.000000e+00	
234	5.002006e+00	0.000000e+00	0.000000e+00	0.000000e+00	
235	5.002010e+00	0.000000e+00	0.000000e+00	0.000000e+00	
236	5.002016e+00	0.000000e+00	0.000000e+00	0.000000e+00	
237	5.002028e+00	0.000000e+00	0.000000e+00	0.000000e+00	
238	5.002050e+00	0.000000e+00	0.000000e+00	0.000000e+00	
239	5.002071e+00	0.000000e+00	0.000000e+00	0.000000e+00	
240	5.002103e+00	0.000000e+00	0.000000e+00	0.000000e+00	
241	5.002149e+00	0.000000e+00	0.000000e+00	0.000000e+00	
242	5.002231e+00	0.000000e+00	0.000000e+00	0.000000e+00	
243	5.002379e+00	0.000000e+00	0.000000e+00	0.000000e+00	
244	5.002674e+00	0.000000e+00	0.000000e+00	0.000000e+00	
245	5.003266e+00	0.000000e+00	0.000000e+00	0.000000e+00	
246	5.004448e+00	0.000000e+00	0.000000e+00	0.000000e+00	
247	5.006813e+00	0.000000e+00	0.000000e+00	0.000000e+00	
248	5.011543e+00	0.000000e+00	0.000000e+00	0.000000e+00	
249	5.021003e+00	0.000000e+00	0.000000e+00	0.000000e+00	
250	5.039923e+00	0.000000e+00	0.000000e+00	0.000000e+00	
251	5.077762e+00	0.000000e+00	0.000000e+00	0.000000e+00	
252	5.153441e+00	0.000000e+00	0.000000e+00	0.000000e+00	
253	5.253441e+00	0.000000e+00	0.000000e+00	0.000000e+00	
254	5.353441e+00	0.000000e+00	0.000000e+00	0.000000e+00	
255	5.453441e+00	0.000000e+00	0.000000e+00	0.000000e+00	
256	5.553441e+00	0.000000e+00	0.000000e+00	0.000000e+00	
257	5.653441e+00	0.000000e+00	0.000000e+00	0.000000e+00	
258	5.753441e+00	0.000000e+00	0.000000e+00	0.000000e+00	
259	5.853441e+00	0.000000e+00	0.000000e+00	0.000000e+00	
260	5.953441e+00	0.000000e+00	0.000000e+00	0.000000e+00	
261	6.001000e+00	0.000000e+00	0.000000e+00	0.000000e+00	
262	6.001100e+00	0.000000e+00	0.000000e+00	0.000000e+00	
263	6.001300e+00	0.000000e+00	0.000000e+00	0.000000e+00	
264	6.001484e+00	0.000000e+00	0.000000e+00	0.000000e+00	
265	6.001670e+00	0.000000e+00	0.000000e+00	0.000000e+00	
266	6.001802e+00	0.000000e+00	0.000000e+00	0.000000e+00	
267	6.001828e+00	0.000000e+00	0.000000e+00	0.000000e+00	
268	6.001852e+00	0.000000e+00	0.000000e+00	0.000000e+00	
269	6.001864e+00	0.000000e+00	0.000000e+00	0.000000e+00	
270	6.001879e+00	0.000000e+00	0.000000e+00	0.000000e+00	
271	6.001897e+00	0.000000e+00	0.000000e+00	0.000000e+00	
272	6.001917e+00	0.000000e+00	0.000000e+00	0.000000e+00	
273	6.001935e+00	0.000000e+00	0.000000e+00	0.000000e+00	
274	6.001951e+00	0.000000e+00	0.000000e+00	0.000000e+00	
275	6.001969e+00	0.000000e+00	0.000000e+00	0.000000e+00	
276	6.001987e+00	0.000000e+00	0.000000e+00	0.000000e+00	
277	6.002000e+00	0.000000e+00	0.000000e+00	0.000000e+00	
278	6.002001e+00	0.000000e+00	0.000000e+00	0.000000e+00	
279	6.002004e+00	0.000000e+00	0.000000e+00	0.000000e+00	
280	6.002008e+00	0.000000e+00	0.000000e+00	0.000000e+00	
281	6.002013e+00	0.000000e+00	0.000000e+00	0.000000e+00	
282	6.002020e+00	0.000000e+00	0.000000e+00	0.000000e+00	
283	6.002031e+00	0.000000e+00	0.000000e+00	0.000000e+00	
284	6.002049e+00	0.000000e+00	0.000000e+00	0.000000e+00	
285	6.002085e+00	0.000000e+00	0.000000e+00	0.000000e+00	
286	6.002158e+00	0.000000e+00	0.000000e+00	0.000000e+00	

Index   time            i0              i1              i2              
--------------------------------------------------------------------------------
287	6.002303e+00	0.000000e+00	0.000000e+00	0.000000e+00	
288	6.002593e+00	0.000000e+00	0.000000e+00	0.000000e+00	
289	6.003173e+00	0.000000e+00	0.000000e+00	0.000000e+00	
290	6.004333e+00	0.000000e+00	0.000000e+00	0.000000e+00	
291	6.006654e+00	0.000000e+00	0.000000e+00	0.000000e+00	
292	6.011295e+00	0.000000e+00	0.000000e+00	0.000000e+00	
293	6.020578e+00	0.000000e+00	0.000000e+00	0.000000e+00	
294	6.039142e+00	0.000000e+00	0.000000e+00	0.000000e+00	
295	6.076272e+00	0.000000e+00	0.000000e+00	0.000000e+00	
296	6.150531e+00	0.000000e+00	0.000000e+00	0.000000e+00	
297	6.250531e+00	0.000000e+00	0.000000e+00	0.000000e+00	
298	6.350531e+00	0.000000e+00	0.000000e+00	0.000000e+00	
299	6.450531e+00	0.000000e+00	0.000000e+00	0.000000e+00	
300	6.550531e+00	0.000000e+00	0.000000e+00	0.000000e+00	
301	6.650531e+00	0.000000e+00	0.000000e+00	0.000000e+00	
302	6.750531e+00	0.000000e+00	0.000000e+00	0.000000e+00	
303	6.850531e+00	0.000000e+00	0.000000e+00	0.000000e+00	
304	6.950531e+00	0.000000e+00	0.000000e+00	0.000000e+00	
305	7.001000e+00	0.000000e+00	0.000000e+00	0.000000e+00	
306	7.001100e+00	0.000000e+00	0.000000e+00	0.000000e+00	
307	7.001300e+00	0.000000e+00	0.000000e+00	0.000000e+00	
308	7.001484e+00	0.000000e+00	0.000000e+00	0.000000e+00	
309	7.001670e+00	0.000000e+00	0.000000e+00	0.000000e+00	
310	7.001802e+00	0.000000e+00	0.000000e+00	0.000000e+00	
311	7.001901e+00	0.000000e+00	0.000000e+00	0.000000e+00	
312	7.001974e+00	0.000000e+00	0.000000e+00	0.000000e+00	
313	7.002000e+00	0.000000e+00	0.000000e+00	0.000000e+00	
314	7.002002e+00	0.000000e+00	0.000000e+00	0.000000e+00	
315	7.002005e+00	0.000000e+00	0.000000e+00	0.000000e+00	
316	7.002007e+00	0.000000e+00	0.000000e+00	0.000000e+00	
317	7.002009e+00	0.000000e+00	0.000000e+00	0.000000e+00	
318	7.002012e+00	0.000000e+00	0.000000e+00	0.000000e+00	
319	7.002017e+00	0.000000e+00	0.000000e+00	0.000000e+00	
320	7.002027e+00	0.000000e+00	0.000000e+00	0.000000e+00	
321	7.002047e+00	0.000000e+00	0.000000e+00	0.000000e+00	
322	7.002077e+00	0.000000e+00	0.000000e+00	0.000000e+00	
323	7.002127e+00	0.000000e+00	0.000000e+00	0.000000e+00	
324	7.002224e+00	0.000000e+00	0.000000e+00	0.000000e+00	
325	7.002416e+00	0.000000e+00	0.000000e+00	0.000000e+00	
