       * /home/fossee/esim-workspace/bjt_biascircuit/bjt_biascircuit.cir
       DC transfer characteristic  Thu Mar  3 18:29:19  2016
--------------------------------------------------------------------------------
Index   i-sweep         ib              net-_q1-pad1_   net-_q1-pad2_   
--------------------------------------------------------------------------------
0	0.000000e+00	2.558284e-13	1.385830e-22	2.558284e-13	
1	5.000000e-02	2.001317e-02	5.000000e-02	2.001317e-02	
2	1.000000e-01	3.685629e-02	1.000000e-01	3.685629e-02	
3	1.500000e-01	5.089521e-02	1.500000e-01	5.089521e-02	
4	2.000000e-01	6.259375e-02	2.000000e-01	6.259375e-02	
5	2.500000e-01	7.230384e-02	2.500000e-01	7.230384e-02	
6	3.000000e-01	8.048985e-02	3.000000e-01	8.048985e-02	
7	3.500000e-01	8.749293e-02	3.500000e-01	8.749293e-02	
8	4.000000e-01	9.356512e-02	4.000000e-01	9.356512e-02	
9	4.500000e-01	9.889664e-02	4.500000e-01	9.889664e-02	
10	5.000000e-01	1.036302e-01	5.000000e-01	1.036302e-01	
11	5.500000e-01	1.078749e-01	5.500000e-01	1.078749e-01	
12	6.000000e-01	1.117144e-01	6.000000e-01	1.117144e-01	
13	6.500000e-01	1.152138e-01	6.500000e-01	1.152138e-01	
14	7.000000e-01	1.184245e-01	7.000000e-01	1.184245e-01	
15	7.500000e-01	1.213877e-01	7.500000e-01	1.213877e-01	
16	8.000000e-01	1.241369e-01	8.000000e-01	1.241369e-01	
17	8.500000e-01	1.266991e-01	8.500000e-01	1.266991e-01	
18	9.000000e-01	1.290971e-01	9.000000e-01	1.290971e-01	
19	9.500000e-01	1.313497e-01	9.500000e-01	1.313497e-01	
20	1.000000e+00	1.334727e-01	1.000000e+00	1.334727e-01	
21	1.050000e+00	1.354797e-01	1.050000e+00	1.354797e-01	
22	1.100000e+00	1.373822e-01	1.100000e+00	1.373822e-01	
23	1.150000e+00	1.391901e-01	1.150000e+00	1.391901e-01	
24	1.200000e+00	1.409122e-01	1.200000e+00	1.409122e-01	
25	1.250000e+00	1.425559e-01	1.250000e+00	1.425559e-01	
26	1.300000e+00	1.441278e-01	1.300000e+00	1.441278e-01	
27	1.350000e+00	1.456336e-01	1.350000e+00	1.456336e-01	
28	1.400000e+00	1.470788e-01	1.400000e+00	1.470788e-01	
29	1.450000e+00	1.484676e-01	1.450000e+00	1.484676e-01	
30	1.500000e+00	1.498044e-01	1.500000e+00	1.498044e-01	
31	1.550000e+00	1.510927e-01	1.550000e+00	1.510927e-01	
32	1.600000e+00	1.523358e-01	1.600000e+00	1.523358e-01	
33	1.650000e+00	1.535367e-01	1.650000e+00	1.535367e-01	
34	1.700000e+00	1.546982e-01	1.700000e+00	1.546982e-01	
35	1.750000e+00	1.558227e-01	1.750000e+00	1.558227e-01	
36	1.800000e+00	1.569124e-01	1.800000e+00	1.569124e-01	
37	1.850000e+00	1.579693e-01	1.850000e+00	1.579693e-01	
38	1.900000e+00	1.589954e-01	1.900000e+00	1.589954e-01	
39	1.950000e+00	1.599923e-01	1.950000e+00	1.599923e-01	
40	2.000000e+00	1.609616e-01	2.000000e+00	1.609616e-01	
41	2.050000e+00	1.619048e-01	2.050000e+00	1.619048e-01	
42	2.100000e+00	1.628232e-01	2.100000e+00	1.628232e-01	
43	2.150000e+00	1.637181e-01	2.150000e+00	1.637181e-01	
44	2.200000e+00	1.645906e-01	2.200000e+00	1.645906e-01	
45	2.250000e+00	1.654418e-01	2.250000e+00	1.654418e-01	
46	2.300000e+00	1.662727e-01	2.300000e+00	1.662727e-01	
47	2.350000e+00	1.670842e-01	2.350000e+00	1.670842e-01	
48	2.400000e+00	1.678772e-01	2.400000e+00	1.678772e-01	
49	2.450000e+00	1.686525e-01	2.450000e+00	1.686525e-01	
50	2.500000e+00	1.694109e-01	2.500000e+00	1.694109e-01	
51	2.550000e+00	1.701530e-01	2.550000e+00	1.701530e-01	
52	2.600000e+00	1.708796e-01	2.600000e+00	1.708796e-01	
53	2.650000e+00	1.715913e-01	2.650000e+00	1.715913e-01	
54	2.700000e+00	1.722886e-01	2.700000e+00	1.722886e-01	

Index   i-sweep         ib              net-_q1-pad1_   net-_q1-pad2_   
--------------------------------------------------------------------------------
55	2.750000e+00	1.729721e-01	2.750000e+00	1.729721e-01	
56	2.800000e+00	1.736424e-01	2.800000e+00	1.736424e-01	
57	2.850000e+00	1.743000e-01	2.850000e+00	1.743000e-01	
58	2.900000e+00	1.749453e-01	2.900000e+00	1.749453e-01	
59	2.950000e+00	1.755787e-01	2.950000e+00	1.755787e-01	
60	3.000000e+00	1.762007e-01	3.000000e+00	1.762007e-01	
61	3.050000e+00	1.768117e-01	3.050000e+00	1.768117e-01	
62	3.100000e+00	1.774120e-01	3.100000e+00	1.774120e-01	
63	3.150000e+00	1.780021e-01	3.150000e+00	1.780021e-01	
64	3.200000e+00	1.785822e-01	3.200000e+00	1.785822e-01	
65	3.250000e+00	1.791527e-01	3.250000e+00	1.791527e-01	
66	3.300000e+00	1.797139e-01	3.300000e+00	1.797139e-01	
67	3.350000e+00	1.802661e-01	3.350000e+00	1.802661e-01	
68	3.400000e+00	1.808096e-01	3.400000e+00	1.808096e-01	
69	3.450000e+00	1.813446e-01	3.450000e+00	1.813446e-01	
70	3.500000e+00	1.818714e-01	3.500000e+00	1.818714e-01	
71	3.550000e+00	1.823903e-01	3.550000e+00	1.823903e-01	
72	3.600000e+00	1.829014e-01	3.600000e+00	1.829014e-01	
73	3.650000e+00	1.834051e-01	3.650000e+00	1.834051e-01	
74	3.700000e+00	1.839014e-01	3.700000e+00	1.839014e-01	
75	3.750000e+00	1.843907e-01	3.750000e+00	1.843907e-01	
76	3.800000e+00	1.848731e-01	3.800000e+00	1.848731e-01	
77	3.850000e+00	1.853488e-01	3.850000e+00	1.853488e-01	
78	3.900000e+00	1.858179e-01	3.900000e+00	1.858179e-01	
79	3.950000e+00	1.862808e-01	3.950000e+00	1.862808e-01	
80	4.000000e+00	1.867375e-01	4.000000e+00	1.867375e-01	
81	4.050000e+00	1.871881e-01	4.050000e+00	1.871881e-01	
82	4.100000e+00	1.876329e-01	4.100000e+00	1.876329e-01	
83	4.150000e+00	1.880720e-01	4.150000e+00	1.880720e-01	
84	4.200000e+00	1.885056e-01	4.200000e+00	1.885056e-01	
85	4.250000e+00	1.889337e-01	4.250000e+00	1.889337e-01	
86	4.300000e+00	1.893565e-01	4.300000e+00	1.893565e-01	
87	4.350000e+00	1.897742e-01	4.350000e+00	1.897742e-01	
88	4.400000e+00	1.901868e-01	4.400000e+00	1.901868e-01	
89	4.450000e+00	1.905945e-01	4.450000e+00	1.905945e-01	
90	4.500000e+00	1.909974e-01	4.500000e+00	1.909974e-01	
91	4.550000e+00	1.913955e-01	4.550000e+00	1.913955e-01	
92	4.600000e+00	1.917892e-01	4.600000e+00	1.917892e-01	
93	4.650000e+00	1.921783e-01	4.650000e+00	1.921783e-01	
94	4.700000e+00	1.925630e-01	4.700000e+00	1.925630e-01	
95	4.750000e+00	1.929434e-01	4.750000e+00	1.929434e-01	
96	4.800000e+00	1.933197e-01	4.800000e+00	1.933197e-01	
97	4.850000e+00	1.936918e-01	4.850000e+00	1.936918e-01	
98	4.900000e+00	1.940600e-01	4.900000e+00	1.940600e-01	
99	4.950000e+00	1.944242e-01	4.950000e+00	1.944242e-01	
100	5.000000e+00	1.947845e-01	5.000000e+00	1.947845e-01	
101	5.050000e+00	1.951411e-01	5.050000e+00	1.951411e-01	
102	5.100000e+00	1.954940e-01	5.100000e+00	1.954940e-01	
103	5.150000e+00	1.958433e-01	5.150000e+00	1.958433e-01	
104	5.200000e+00	1.961890e-01	5.200000e+00	1.961890e-01	
105	5.250000e+00	1.965313e-01	5.250000e+00	1.965313e-01	
106	5.300000e+00	1.968701e-01	5.300000e+00	1.968701e-01	
107	5.350000e+00	1.972057e-01	5.350000e+00	1.972057e-01	
108	5.400000e+00	1.975379e-01	5.400000e+00	1.975379e-01	
109	5.450000e+00	1.978670e-01	5.450000e+00	1.978670e-01	
110	5.500000e+00	1.981928e-01	5.500000e+00	1.981928e-01	
111	5.550000e+00	1.985156e-01	5.550000e+00	1.985156e-01	
112	5.600000e+00	1.988354e-01	5.600000e+00	1.988354e-01	

Index   i-sweep         ib              net-_q1-pad1_   net-_q1-pad2_   
--------------------------------------------------------------------------------
113	5.650000e+00	1.991522e-01	5.650000e+00	1.991522e-01	
114	5.700000e+00	1.994661e-01	5.700000e+00	1.994661e-01	
115	5.750000e+00	1.997771e-01	5.750000e+00	1.997771e-01	
116	5.800000e+00	2.000852e-01	5.800000e+00	2.000852e-01	
117	5.850000e+00	2.003907e-01	5.850000e+00	2.003907e-01	
118	5.900000e+00	2.006934e-01	5.900000e+00	2.006934e-01	
119	5.950000e+00	2.009934e-01	5.950000e+00	2.009934e-01	
120	6.000000e+00	2.012908e-01	6.000000e+00	2.012908e-01	
121	6.050000e+00	2.015856e-01	6.050000e+00	2.015856e-01	
122	6.100000e+00	2.018779e-01	6.100000e+00	2.018779e-01	
123	6.150000e+00	2.021677e-01	6.150000e+00	2.021677e-01	
124	6.200000e+00	2.024550e-01	6.200000e+00	2.024550e-01	
125	6.250000e+00	2.027400e-01	6.250000e+00	2.027400e-01	
126	6.300000e+00	2.030226e-01	6.300000e+00	2.030226e-01	
127	6.350000e+00	2.033028e-01	6.350000e+00	2.033028e-01	
128	6.400000e+00	2.035808e-01	6.400000e+00	2.035808e-01	
129	6.450000e+00	2.038564e-01	6.450000e+00	2.038564e-01	
130	6.500000e+00	2.041299e-01	6.500000e+00	2.041299e-01	
131	6.550000e+00	2.044012e-01	6.550000e+00	2.044012e-01	
132	6.600000e+00	2.046703e-01	6.600000e+00	2.046703e-01	
133	6.650000e+00	2.049374e-01	6.650000e+00	2.049374e-01	
134	6.700000e+00	2.052023e-01	6.700000e+00	2.052023e-01	
135	6.750000e+00	2.054652e-01	6.750000e+00	2.054652e-01	
136	6.800000e+00	2.057260e-01	6.800000e+00	2.057260e-01	
137	6.850000e+00	2.059849e-01	6.850000e+00	2.059849e-01	
138	6.900000e+00	2.062418e-01	6.900000e+00	2.062418e-01	
139	6.950000e+00	2.064968e-01	6.950000e+00	2.064968e-01	
140	7.000000e+00	2.067499e-01	7.000000e+00	2.067499e-01	
141	7.050000e+00	2.070011e-01	7.050000e+00	2.070011e-01	
142	7.100000e+00	2.072505e-01	7.100000e+00	2.072505e-01	
143	7.150000e+00	2.074980e-01	7.150000e+00	2.074980e-01	
144	7.200000e+00	2.077438e-01	7.200000e+00	2.077438e-01	
145	7.250000e+00	2.079878e-01	7.250000e+00	2.079878e-01	
146	7.300000e+00	2.082300e-01	7.300000e+00	2.082300e-01	
147	7.350000e+00	2.084705e-01	7.350000e+00	2.084705e-01	
148	7.400000e+00	2.087094e-01	7.400000e+00	2.087094e-01	
149	7.450000e+00	2.089465e-01	7.450000e+00	2.089465e-01	
150	7.500000e+00	2.091820e-01	7.500000e+00	2.091820e-01	
151	7.550000e+00	2.094159e-01	7.550000e+00	2.094159e-01	
152	7.600000e+00	2.096482e-01	7.600000e+00	2.096482e-01	
153	7.650000e+00	2.098789e-01	7.650000e+00	2.098789e-01	
154	7.700000e+00	2.101080e-01	7.700000e+00	2.101080e-01	
155	7.750000e+00	2.103356e-01	7.750000e+00	2.103356e-01	
156	7.800000e+00	2.105617e-01	7.800000e+00	2.105617e-01	
157	7.850000e+00	2.107863e-01	7.850000e+00	2.107863e-01	
158	7.900000e+00	2.110094e-01	7.900000e+00	2.110094e-01	
159	7.950000e+00	2.112311e-01	7.950000e+00	2.112311e-01	
160	8.000000e+00	2.114513e-01	8.000000e+00	2.114513e-01	
161	8.050000e+00	2.116701e-01	8.050000e+00	2.116701e-01	
162	8.100000e+00	2.118875e-01	8.100000e+00	2.118875e-01	
163	8.150000e+00	2.121035e-01	8.150000e+00	2.121035e-01	
164	8.200000e+00	2.123181e-01	8.200000e+00	2.123181e-01	
165	8.250000e+00	2.125314e-01	8.250000e+00	2.125314e-01	
166	8.300000e+00	2.127433e-01	8.300000e+00	2.127433e-01	
167	8.350000e+00	2.129539e-01	8.350000e+00	2.129539e-01	
168	8.400000e+00	2.131632e-01	8.400000e+00	2.131632e-01	
169	8.450000e+00	2.133713e-01	8.450000e+00	2.133713e-01	
170	8.500000e+00	2.135780e-01	8.500000e+00	2.135780e-01	

Index   i-sweep         ib              net-_q1-pad1_   net-_q1-pad2_   
--------------------------------------------------------------------------------
171	8.550000e+00	2.137835e-01	8.550000e+00	2.137835e-01	
172	8.600000e+00	2.139878e-01	8.600000e+00	2.139878e-01	
173	8.650000e+00	2.141909e-01	8.650000e+00	2.141909e-01	
174	8.700000e+00	2.143927e-01	8.700000e+00	2.143927e-01	
175	8.750000e+00	2.145933e-01	8.750000e+00	2.145933e-01	
176	8.800000e+00	2.147928e-01	8.800000e+00	2.147928e-01	
177	8.850000e+00	2.149911e-01	8.850000e+00	2.149911e-01	
178	8.900000e+00	2.151882e-01	8.900000e+00	2.151882e-01	
179	8.950000e+00	2.153842e-01	8.950000e+00	2.153842e-01	
180	9.000000e+00	2.155790e-01	9.000000e+00	2.155790e-01	
181	9.050000e+00	2.157728e-01	9.050000e+00	2.157728e-01	
182	9.100000e+00	2.159654e-01	9.100000e+00	2.159654e-01	
183	9.150000e+00	2.161570e-01	9.150000e+00	2.161570e-01	
184	9.200000e+00	2.163475e-01	9.200000e+00	2.163475e-01	
185	9.250000e+00	2.165369e-01	9.250000e+00	2.165369e-01	
186	9.300000e+00	2.167252e-01	9.300000e+00	2.167252e-01	
187	9.350000e+00	2.169125e-01	9.350000e+00	2.169125e-01	
188	9.400000e+00	2.170988e-01	9.400000e+00	2.170988e-01	
189	9.450000e+00	2.172841e-01	9.450000e+00	2.172841e-01	
190	9.500000e+00	2.174683e-01	9.500000e+00	2.174683e-01	
191	9.550000e+00	2.176515e-01	9.550000e+00	2.176515e-01	
192	9.600000e+00	2.178338e-01	9.600000e+00	2.178338e-01	
193	9.650000e+00	2.180151e-01	9.650000e+00	2.180151e-01	
194	9.700000e+00	2.181954e-01	9.700000e+00	2.181954e-01	
195	9.750000e+00	2.183748e-01	9.750000e+00	2.183748e-01	
196	9.800000e+00	2.185532e-01	9.800000e+00	2.185532e-01	
197	9.850000e+00	2.187306e-01	9.850000e+00	2.187306e-01	
198	9.900000e+00	2.189072e-01	9.900000e+00	2.189072e-01	
199	9.950000e+00	2.190828e-01	9.950000e+00	2.190828e-01	
200	1.000000e+01	2.192576e-01	1.000000e+01	2.192576e-01	
201	0.000000e+00	-4.99997e+08	-4.99997e-01	-4.99997e+08	
202	5.000000e-02	-4.99997e+08	-4.49997e-01	-4.99997e+08	
203	1.000000e-01	-4.99997e+08	-3.99997e-01	-4.99997e+08	
204	1.500000e-01	-4.99997e+08	-3.49997e-01	-4.99997e+08	
205	2.000000e-01	-4.99997e+08	-2.99997e-01	-4.99997e+08	
206	2.500000e-01	-4.99997e+08	-2.49997e-01	-4.99997e+08	
207	3.000000e-01	-4.99997e+08	-1.99997e-01	-4.99997e+08	
208	3.500000e-01	-4.99997e+08	-1.49997e-01	-4.99997e+08	
209	4.000000e-01	-4.99997e+08	-9.99972e-02	-4.99997e+08	
210	4.500000e-01	-4.99997e+08	-4.99972e-02	-4.99997e+08	
211	5.000000e-01	-4.99997e+08	2.816919e-06	-4.99997e+08	
212	5.500000e-01	-4.99997e+08	5.000282e-02	-4.99997e+08	
213	6.000000e-01	-4.99997e+08	1.000028e-01	-4.99997e+08	
214	6.500000e-01	-4.99997e+08	1.500028e-01	-4.99997e+08	
215	7.000000e-01	-4.99997e+08	2.000028e-01	-4.99997e+08	
216	7.500000e-01	-4.99997e+08	2.500028e-01	-4.99997e+08	
217	8.000000e-01	-4.99997e+08	3.000028e-01	-4.99997e+08	
218	8.500000e-01	-4.99997e+08	3.500028e-01	-4.99997e+08	
219	9.000000e-01	-4.99997e+08	4.000028e-01	-4.99997e+08	
220	9.500000e-01	-4.99997e+08	4.500028e-01	-4.99997e+08	
221	1.000000e+00	-4.99997e+08	5.000028e-01	-4.99997e+08	
222	1.050000e+00	-4.99997e+08	5.500028e-01	-4.99997e+08	
223	1.100000e+00	-4.99997e+08	6.000028e-01	-4.99997e+08	
224	1.150000e+00	-4.99997e+08	6.500028e-01	-4.99997e+08	
225	1.200000e+00	-4.99997e+08	7.000028e-01	-4.99997e+08	
226	1.250000e+00	-4.99997e+08	7.500028e-01	-4.99997e+08	
227	1.300000e+00	-4.99997e+08	8.000028e-01	-4.99997e+08	
228	1.350000e+00	-4.99997e+08	8.500028e-01	-4.99997e+08	

Index   i-sweep         ib              net-_q1-pad1_   net-_q1-pad2_   
--------------------------------------------------------------------------------
229	1.400000e+00	-4.99997e+08	9.000028e-01	-4.99997e+08	
230	1.450000e+00	-4.99997e+08	9.500028e-01	-4.99997e+08	
231	1.500000e+00	-4.99997e+08	1.000003e+00	-4.99997e+08	
232	1.550000e+00	-4.99997e+08	1.050003e+00	-4.99997e+08	
233	1.600000e+00	-4.99997e+08	1.100003e+00	-4.99997e+08	
234	1.650000e+00	-4.99997e+08	1.150003e+00	-4.99997e+08	
235	1.700000e+00	-4.99997e+08	1.200003e+00	-4.99997e+08	
236	1.750000e+00	-4.99997e+08	1.250003e+00	-4.99997e+08	
237	1.800000e+00	-4.99997e+08	1.300003e+00	-4.99997e+08	
238	1.850000e+00	-4.99997e+08	1.350003e+00	-4.99997e+08	
239	1.900000e+00	-4.99997e+08	1.400003e+00	-4.99997e+08	
240	1.950000e+00	-4.99997e+08	1.450003e+00	-4.99997e+08	
241	2.000000e+00	-4.99997e+08	1.500003e+00	-4.99997e+08	
242	2.050000e+00	-4.99997e+08	1.550003e+00	-4.99997e+08	
243	2.100000e+00	-4.99997e+08	1.600003e+00	-4.99997e+08	
244	2.150000e+00	-4.99997e+08	1.650003e+00	-4.99997e+08	
245	2.200000e+00	-4.99997e+08	1.700003e+00	-4.99997e+08	
246	2.250000e+00	-4.99997e+08	1.750003e+00	-4.99997e+08	
247	2.300000e+00	-4.99997e+08	1.800003e+00	-4.99997e+08	
248	2.350000e+00	-4.99997e+08	1.850003e+00	-4.99997e+08	
249	2.400000e+00	-4.99997e+08	1.900003e+00	-4.99997e+08	
250	2.450000e+00	-4.99997e+08	1.950003e+00	-4.99997e+08	
251	2.500000e+00	-4.99997e+08	2.000003e+00	-4.99997e+08	
252	2.550000e+00	-4.99997e+08	2.050003e+00	-4.99997e+08	
253	2.600000e+00	-4.99997e+08	2.100003e+00	-4.99997e+08	
254	2.650000e+00	-4.99997e+08	2.150003e+00	-4.99997e+08	
255	2.700000e+00	-4.99997e+08	2.200003e+00	-4.99997e+08	
256	2.750000e+00	-4.99997e+08	2.250003e+00	-4.99997e+08	
257	2.800000e+00	-4.99997e+08	2.300003e+00	-4.99997e+08	
258	2.850000e+00	-4.99997e+08	2.350003e+00	-4.99997e+08	
259	2.900000e+00	-4.99997e+08	2.400003e+00	-4.99997e+08	
260	2.950000e+00	-4.99997e+08	2.450003e+00	-4.99997e+08	
261	3.000000e+00	-4.99997e+08	2.500003e+00	-4.99997e+08	
262	3.050000e+00	-4.99997e+08	2.550003e+00	-4.99997e+08	
263	3.100000e+00	-4.99997e+08	2.600003e+00	-4.99997e+08	
264	3.150000e+00	-4.99997e+08	2.650003e+00	-4.99997e+08	
265	3.200000e+00	-4.99997e+08	2.700003e+00	-4.99997e+08	
266	3.250000e+00	-4.99997e+08	2.750003e+00	-4.99997e+08	
267	3.300000e+00	-4.99997e+08	2.800003e+00	-4.99997e+08	
268	3.350000e+00	-4.99997e+08	2.850003e+00	-4.99997e+08	
269	3.400000e+00	-4.99997e+08	2.900003e+00	-4.99997e+08	
270	3.450000e+00	-4.99997e+08	2.950003e+00	-4.99997e+08	
271	3.500000e+00	-4.99997e+08	3.000003e+00	-4.99997e+08	
272	3.550000e+00	-4.99997e+08	3.050003e+00	-4.99997e+08	
273	3.600000e+00	-4.99997e+08	3.100003e+00	-4.99997e+08	
274	3.650000e+00	-4.99997e+08	3.150003e+00	-4.99997e+08	
275	3.700000e+00	-4.99997e+08	3.200003e+00	-4.99997e+08	
276	3.750000e+00	-4.99997e+08	3.250003e+00	-4.99997e+08	
277	3.800000e+00	-4.99997e+08	3.300003e+00	-4.99997e+08	
278	3.850000e+00	-4.99997e+08	3.350003e+00	-4.99997e+08	
279	3.900000e+00	-4.99997e+08	3.400003e+00	-4.99997e+08	
280	3.950000e+00	-4.99997e+08	3.450003e+00	-4.99997e+08	
281	4.000000e+00	-4.99997e+08	3.500003e+00	-4.99997e+08	
282	4.050000e+00	-4.99997e+08	3.550003e+00	-4.99997e+08	
283	4.100000e+00	-4.99997e+08	3.600003e+00	-4.99997e+08	
284	4.150000e+00	-4.99997e+08	3.650003e+00	-4.99997e+08	
285	4.200000e+00	-4.99997e+08	3.700003e+00	-4.99997e+08	
286	4.250000e+00	-4.99997e+08	3.750003e+00	-4.99997e+08	

Index   i-sweep         ib              net-_q1-pad1_   net-_q1-pad2_   
--------------------------------------------------------------------------------
287	4.300000e+00	-4.99997e+08	3.800003e+00	-4.99997e+08	
288	4.350000e+00	-4.99997e+08	3.850003e+00	-4.99997e+08	
289	4.400000e+00	-4.99997e+08	3.900003e+00	-4.99997e+08	
290	4.450000e+00	-4.99997e+08	3.950003e+00	-4.99997e+08	
291	4.500000e+00	-4.99997e+08	4.000003e+00	-4.99997e+08	
292	4.550000e+00	-4.99997e+08	4.050003e+00	-4.99997e+08	
293	4.600000e+00	-4.99997e+08	4.100003e+00	-4.99997e+08	
294	4.650000e+00	-4.99997e+08	4.150003e+00	-4.99997e+08	
295	4.700000e+00	-4.99997e+08	4.200003e+00	-4.99997e+08	
296	4.750000e+00	-4.99997e+08	4.250003e+00	-4.99997e+08	
297	4.800000e+00	-4.99997e+08	4.300003e+00	-4.99997e+08	
298	4.850000e+00	-4.99997e+08	4.350003e+00	-4.99997e+08	
299	4.900000e+00	-4.99997e+08	4.400003e+00	-4.99997e+08	
300	4.950000e+00	-4.99997e+08	4.450003e+00	-4.99997e+08	
301	5.000000e+00	-4.99997e+08	4.500003e+00	-4.99997e+08	
302	5.050000e+00	-4.99997e+08	4.550003e+00	-4.99997e+08	
303	5.100000e+00	-4.99997e+08	4.600003e+00	-4.99997e+08	
304	5.150000e+00	-4.99997e+08	4.650003e+00	-4.99997e+08	
305	5.200000e+00	-4.99997e+08	4.700003e+00	-4.99997e+08	
306	5.250000e+00	-4.99997e+08	4.750003e+00	-4.99997e+08	
307	5.300000e+00	-4.99997e+08	4.800003e+00	-4.99997e+08	
308	5.350000e+00	-4.99997e+08	4.850003e+00	-4.99997e+08	
309	5.400000e+00	-4.99997e+08	4.900003e+00	-4.99997e+08	
310	5.450000e+00	-4.99997e+08	4.950003e+00	-4.99997e+08	
311	5.500000e+00	-4.99997e+08	5.000003e+00	-4.99997e+08	
312	5.550000e+00	-4.99997e+08	5.050003e+00	-4.99997e+08	
313	5.600000e+00	-4.99997e+08	5.100003e+00	-4.99997e+08	
314	5.650000e+00	-4.99997e+08	5.150003e+00	-4.99997e+08	
315	5.700000e+00	-4.99997e+08	5.200003e+00	-4.99997e+08	
316	5.750000e+00	-4.99997e+08	5.250003e+00	-4.99997e+08	
317	5.800000e+00	-4.99997e+08	5.300003e+00	-4.99997e+08	
318	5.850000e+00	-4.99997e+08	5.350003e+00	-4.99997e+08	
319	5.900000e+00	-4.99997e+08	5.400003e+00	-4.99997e+08	
320	5.950000e+00	-4.99997e+08	5.450003e+00	-4.99997e+08	
321	6.000000e+00	-4.99997e+08	5.500003e+00	-4.99997e+08	
322	6.050000e+00	-4.99997e+08	5.550003e+00	-4.99997e+08	
323	6.100000e+00	-4.99997e+08	5.600003e+00	-4.99997e+08	
324	6.150000e+00	-4.99997e+08	5.650003e+00	-4.99997e+08	
325	6.200000e+00	-4.99997e+08	5.700003e+00	-4.99997e+08	
326	6.250000e+00	-4.99997e+08	5.750003e+00	-4.99997e+08	
327	6.300000e+00	-4.99997e+08	5.800003e+00	-4.99997e+08	
328	6.350000e+00	-4.99997e+08	5.850003e+00	-4.99997e+08	
329	6.400000e+00	-4.99997e+08	5.900003e+00	-4.99997e+08	
330	6.450000e+00	-4.99997e+08	5.950003e+00	-4.99997e+08	
331	6.500000e+00	-4.99997e+08	6.000003e+00	-4.99997e+08	
