         * /home/saurabh/esim-workspace/monostable555/monostable555.cir
         Transient Analysis  Wed Aug 21 12:40:18  2019
--------------------------------------------------------------------------------
Index   time            in              net-_c2-pad1_   net-_r1-pad1_   
--------------------------------------------------------------------------------
0	0.000000e+00	0.000000e+00	3.326405e+00	5.000000e+00	
1	1.000000e-05	0.000000e+00	3.326406e+00	5.000000e+00	
2	2.000000e-05	0.000000e+00	3.326407e+00	5.000000e+00	
3	4.000000e-05	0.000000e+00	3.326410e+00	5.000000e+00	
4	8.000000e-05	0.000000e+00	3.326419e+00	5.000000e+00	
5	1.600000e-04	0.000000e+00	3.326440e+00	5.000000e+00	
6	3.200000e-04	0.000000e+00	3.326484e+00	5.000000e+00	
7	6.400000e-04	0.000000e+00	3.326572e+00	5.000000e+00	
8	1.280000e-03	0.000000e+00	3.326744e+00	5.000000e+00	
9	2.500000e-03	0.000000e+00	3.327062e+00	5.000000e+00	
10	2.550000e-03	5.000000e-01	3.327324e+00	5.000000e+00	
11	2.650000e-03	1.500000e+00	3.328047e+00	5.000000e+00	
12	2.850000e-03	3.500000e+00	3.329792e+00	5.000000e+00	
13	3.000000e-03	5.000000e+00	3.331061e+00	5.000000e+00	
14	3.040000e-03	5.000000e+00	3.331224e+00	5.000000e+00	
15	3.120000e-03	5.000000e+00	3.331383e+00	5.000000e+00	
16	3.280000e-03	5.000000e+00	3.331406e+00	5.000000e+00	
17	3.600000e-03	5.000000e+00	3.331494e+00	5.000000e+00	
18	4.240000e-03	5.000000e+00	3.331644e+00	5.000000e+00	
19	5.500000e-03	5.000000e+00	3.331946e+00	5.000000e+00	
20	5.550000e-03	4.500000e+00	3.331707e+00	5.000000e+00	
21	5.650000e-03	3.500000e+00	3.331031e+00	5.000000e+00	
22	5.850000e-03	1.500000e+00	3.329382e+00	5.000000e+00	
23	6.000000e-03	0.000000e+00	3.328186e+00	5.000000e+00	
24	6.040000e-03	0.000000e+00	3.328042e+00	5.000000e+00	
25	6.120000e-03	0.000000e+00	3.327921e+00	5.000000e+00	
26	6.280000e-03	0.000000e+00	3.327974e+00	5.000000e+00	
27	6.600000e-03	0.000000e+00	3.328037e+00	5.000000e+00	
28	7.240000e-03	0.000000e+00	3.328184e+00	5.000000e+00	
29	7.500000e-03	0.000000e+00	3.328236e+00	5.000000e+00	
30	7.550000e-03	5.000000e-01	3.328497e+00	5.000000e+00	
31	7.650000e-03	1.500000e+00	3.329218e+00	5.000000e+00	
32	7.850000e-03	3.500000e+00	3.330955e+00	5.000000e+00	
33	8.000000e-03	5.000000e+00	3.332217e+00	5.000000e+00	
34	8.040000e-03	5.000000e+00	3.332379e+00	5.000000e+00	
35	8.120000e-03	5.000000e+00	3.332535e+00	5.000000e+00	
36	8.280000e-03	5.000000e+00	3.332552e+00	5.000000e+00	
37	8.600000e-03	5.000000e+00	3.332627e+00	5.000000e+00	
38	9.240000e-03	5.000000e+00	3.332754e+00	5.000000e+00	
39	1.050000e-02	5.000000e+00	3.333010e+00	5.000000e+00	
40	1.055000e-02	4.500000e+00	3.332769e+00	5.000000e+00	
41	1.065000e-02	3.500000e+00	3.332090e+00	5.000000e+00	
42	1.085000e-02	1.500000e+00	3.330434e+00	5.000000e+00	
43	1.100000e-02	0.000000e+00	3.329233e+00	5.000000e+00	
44	1.104000e-02	0.000000e+00	3.329087e+00	5.000000e+00	
45	1.112000e-02	0.000000e+00	3.328963e+00	5.000000e+00	
46	1.128000e-02	0.000000e+00	3.329010e+00	5.000000e+00	
47	1.160000e-02	0.000000e+00	3.329063e+00	5.000000e+00	
48	1.224000e-02	0.000000e+00	3.329188e+00	5.000000e+00	
49	1.250000e-02	0.000000e+00	3.329232e+00	5.000000e+00	
50	1.255000e-02	5.000000e-01	3.329491e+00	5.000000e+00	
51	1.265000e-02	1.500000e+00	3.330208e+00	5.000000e+00	
52	1.285000e-02	3.500000e+00	3.331939e+00	5.000000e+00	
53	1.300000e-02	5.000000e+00	3.333196e+00	5.000000e+00	
54	1.304000e-02	5.000000e+00	3.333357e+00	5.000000e+00	

Index   time            in              net-_c2-pad1_   net-_r1-pad1_   
--------------------------------------------------------------------------------
55	1.312000e-02	5.000000e+00	3.333510e+00	5.000000e+00	
56	1.328000e-02	5.000000e+00	3.333522e+00	5.000000e+00	
57	1.360000e-02	5.000000e+00	3.333587e+00	5.000000e+00	
58	1.424000e-02	5.000000e+00	3.333693e+00	5.000000e+00	
59	1.550000e-02	5.000000e+00	3.333911e+00	5.000000e+00	
60	1.555000e-02	4.500000e+00	3.333668e+00	5.000000e+00	
61	1.565000e-02	3.500000e+00	3.332986e+00	5.000000e+00	
62	1.585000e-02	1.500000e+00	3.331325e+00	5.000000e+00	
63	1.600000e-02	4.440892e-15	3.330118e+00	5.000000e+00	
64	1.604000e-02	0.000000e+00	3.329972e+00	5.000000e+00	
65	1.612000e-02	0.000000e+00	3.329846e+00	5.000000e+00	
66	1.628000e-02	0.000000e+00	3.329888e+00	5.000000e+00	
67	1.660000e-02	0.000000e+00	3.329931e+00	5.000000e+00	
68	1.724000e-02	0.000000e+00	3.330038e+00	5.000000e+00	
69	1.750000e-02	1.734723e-14	3.330075e+00	5.000000e+00	
70	1.755000e-02	5.000000e-01	3.330333e+00	5.000000e+00	
71	1.765000e-02	1.500000e+00	3.331047e+00	5.000000e+00	
72	1.785000e-02	3.500000e+00	3.332772e+00	5.000000e+00	
73	1.800000e-02	5.000000e+00	3.334025e+00	5.000000e+00	
74	1.804000e-02	5.000000e+00	3.334184e+00	5.000000e+00	
75	1.812000e-02	5.000000e+00	3.334336e+00	5.000000e+00	
76	1.828000e-02	5.000000e+00	3.334343e+00	5.000000e+00	
77	1.860000e-02	5.000000e+00	3.334399e+00	5.000000e+00	
78	1.924000e-02	5.000000e+00	3.334488e+00	5.000000e+00	
79	2.050000e-02	5.000000e+00	3.334673e+00	5.000000e+00	
80	2.055000e-02	4.500000e+00	3.334430e+00	5.000000e+00	
81	2.065000e-02	3.500000e+00	3.333744e+00	5.000000e+00	
82	2.085000e-02	1.500000e+00	3.332078e+00	5.000000e+00	
83	2.100000e-02	4.440892e-15	3.330868e+00	5.000000e+00	
84	2.104000e-02	0.000000e+00	3.330721e+00	5.000000e+00	
85	2.112000e-02	0.000000e+00	3.330592e+00	5.000000e+00	
86	2.128000e-02	0.000000e+00	3.330631e+00	5.000000e+00	
87	2.160000e-02	0.000000e+00	3.330666e+00	5.000000e+00	
88	2.224000e-02	0.000000e+00	3.330758e+00	5.000000e+00	
89	2.250000e-02	0.000000e+00	3.330788e+00	5.000000e+00	
90	2.255000e-02	5.000000e-01	3.331045e+00	5.000000e+00	
91	2.265000e-02	1.500000e+00	3.331756e+00	5.000000e+00	
92	2.285000e-02	3.500000e+00	3.333477e+00	5.000000e+00	
93	2.300000e-02	5.000000e+00	3.334727e+00	5.000000e+00	
94	2.304000e-02	5.000000e+00	3.334885e+00	5.000000e+00	
95	2.312000e-02	5.000000e+00	3.335034e+00	5.000000e+00	
96	2.328000e-02	5.000000e+00	3.335038e+00	5.000000e+00	
97	2.360000e-02	5.000000e+00	3.335087e+00	5.000000e+00	
98	2.424000e-02	5.000000e+00	3.335161e+00	5.000000e+00	
99	2.550000e-02	5.000000e+00	3.335319e+00	5.000000e+00	
100	2.555000e-02	4.500000e+00	3.335074e+00	5.000000e+00	
101	2.565000e-02	3.500000e+00	3.334387e+00	5.000000e+00	
102	2.585000e-02	1.500000e+00	3.332716e+00	5.000000e+00	
103	2.600000e-02	4.440892e-15	3.331503e+00	5.000000e+00	
104	2.604000e-02	0.000000e+00	3.331354e+00	5.000000e+00	
105	2.612000e-02	0.000000e+00	3.331225e+00	5.000000e+00	
106	2.628000e-02	0.000000e+00	3.331260e+00	5.000000e+00	
107	2.660000e-02	0.000000e+00	3.331288e+00	5.000000e+00	
108	2.724000e-02	0.000000e+00	3.331367e+00	5.000000e+00	
109	2.750000e-02	0.000000e+00	3.331391e+00	5.000000e+00	
110	2.755000e-02	5.000000e-01	3.331647e+00	5.000000e+00	
111	2.765000e-02	1.500000e+00	3.332357e+00	5.000000e+00	
112	2.785000e-02	3.500000e+00	3.334073e+00	5.000000e+00	

Index   time            in              net-_c2-pad1_   net-_r1-pad1_   
--------------------------------------------------------------------------------
113	2.800000e-02	5.000000e+00	3.335320e+00	5.000000e+00	
114	2.804000e-02	5.000000e+00	3.335478e+00	5.000000e+00	
115	2.812000e-02	5.000000e+00	3.335626e+00	5.000000e+00	
116	2.828000e-02	5.000000e+00	3.335626e+00	5.000000e+00	
117	2.860000e-02	5.000000e+00	3.335669e+00	5.000000e+00	
118	2.924000e-02	5.000000e+00	3.335731e+00	5.000000e+00	
119	3.050000e-02	5.000000e+00	3.335865e+00	5.000000e+00	
120	3.055000e-02	4.500000e+00	3.335619e+00	5.000000e+00	
121	3.065000e-02	3.500000e+00	3.334930e+00	5.000000e+00	
122	3.085000e-02	1.500000e+00	3.333256e+00	5.000000e+00	
123	3.100000e-02	4.440892e-15	3.332040e+00	5.000000e+00	
124	3.104000e-02	0.000000e+00	3.331891e+00	5.000000e+00	
125	3.112000e-02	0.000000e+00	3.331760e+00	5.000000e+00	
126	3.128000e-02	0.000000e+00	3.331792e+00	5.000000e+00	
127	3.160000e-02	0.000000e+00	3.331815e+00	5.000000e+00	
128	3.224000e-02	0.000000e+00	3.331882e+00	5.000000e+00	
129	3.250000e-02	3.469447e-14	3.331902e+00	5.000000e+00	
130	3.255000e-02	5.000000e-01	3.332157e+00	5.000000e+00	
131	3.265000e-02	1.500000e+00	3.332865e+00	5.000000e+00	
132	3.285000e-02	3.500000e+00	3.334578e+00	5.000000e+00	
133	3.300000e-02	5.000000e+00	3.335823e+00	5.000000e+00	
134	3.300000e-02	5.000000e+00	3.335823e+00	5.000000e+00	
135	3.300000e-02	5.000000e+00	3.335823e+00	5.000000e+00	
136	3.300000e-02	5.000000e+00	3.335823e+00	5.000000e+00	
137	3.300000e-02	5.000000e+00	3.335823e+00	5.000000e+00	
138	3.300000e-02	5.000000e+00	3.335823e+00	5.000000e+00	
139	3.300000e-02	5.000000e+00	3.335823e+00	5.000000e+00	
140	3.300000e-02	5.000000e+00	3.335823e+00	5.000000e+00	
141	3.300000e-02	5.000000e+00	3.335823e+00	5.000000e+00	
142	3.300000e-02	5.000000e+00	3.335823e+00	5.000000e+00	
143	3.300000e-02	5.000000e+00	3.335823e+00	5.000000e+00	
144	3.300001e-02	5.000000e+00	3.335823e+00	5.000000e+00	
145	3.300001e-02	5.000000e+00	3.335823e+00	5.000000e+00	
146	3.300001e-02	5.000000e+00	3.335823e+00	5.000000e+00	
147	3.300001e-02	5.000000e+00	3.335823e+00	5.000000e+00	
148	3.300001e-02	5.000000e+00	3.335823e+00	5.000000e+00	
149	3.300001e-02	5.000000e+00	3.335823e+00	5.000000e+00	
150	3.300001e-02	5.000000e+00	3.335823e+00	5.000000e+00	
151	3.300001e-02	5.000000e+00	3.335823e+00	5.000000e+00	
152	3.300001e-02	5.000000e+00	3.335823e+00	5.000000e+00	
153	3.300001e-02	5.000000e+00	3.335823e+00	5.000000e+00	
154	3.300001e-02	5.000000e+00	3.335823e+00	5.000000e+00	
155	3.300002e-02	5.000000e+00	3.335823e+00	5.000000e+00	
156	3.300003e-02	5.000000e+00	3.335823e+00	5.000000e+00	
157	3.300005e-02	5.000000e+00	3.335823e+00	5.000000e+00	
158	3.300009e-02	5.000000e+00	3.335824e+00	5.000000e+00	
159	3.300017e-02	5.000000e+00	3.335824e+00	5.000000e+00	
160	3.300033e-02	5.000000e+00	3.335826e+00	5.000000e+00	
161	3.300066e-02	5.000000e+00	3.335828e+00	5.000000e+00	
162	3.300132e-02	5.000000e+00	3.335833e+00	5.000000e+00	
163	3.300263e-02	5.000000e+00	3.335843e+00	5.000000e+00	
164	3.300525e-02	5.000000e+00	3.335858e+00	5.000000e+00	
165	3.301049e-02	5.000000e+00	3.335877e+00	5.000000e+00	
166	3.302098e-02	5.000000e+00	3.335876e+00	5.000000e+00	
167	3.304195e-02	5.000000e+00	3.335760e+00	5.000000e+00	
168	3.308389e-02	5.000000e+00	3.335299e+00	5.000000e+00	
169	3.316778e-02	5.000000e+00	3.334100e+00	5.000000e+00	
170	3.333555e-02	5.000000e+00	3.331596e+00	5.000000e+00	

Index   time            in              net-_c2-pad1_   net-_r1-pad1_   
--------------------------------------------------------------------------------
171	3.337965e-02	5.000000e+00	3.331046e+00	5.000000e+00	
172	3.339341e-02	5.000000e+00	3.330924e+00	5.000000e+00	
173	3.340211e-02	5.000000e+00	3.330865e+00	5.000000e+00	
174	3.341297e-02	5.000000e+00	3.330808e+00	5.000000e+00	
175	3.342450e-02	5.000000e+00	3.330761e+00	5.000000e+00	
176	3.344487e-02	5.000000e+00	3.330705e+00	5.000000e+00	
177	3.346682e-02	5.000000e+00	3.330670e+00	5.000000e+00	
178	3.349738e-02	5.000000e+00	3.330644e+00	5.000000e+00	
179	3.353106e-02	5.000000e+00	3.330630e+00	5.000000e+00	
180	3.357956e-02	5.000000e+00	3.330622e+00	5.000000e+00	
181	3.363541e-02	5.000000e+00	3.330618e+00	5.000000e+00	
182	3.371488e-02	5.000000e+00	3.330617e+00	5.000000e+00	
183	3.381149e-02	5.000000e+00	3.330616e+00	5.000000e+00	
184	3.395929e-02	5.000000e+00	3.330616e+00	5.000000e+00	
185	3.416769e-02	5.000000e+00	3.330616e+00	5.000000e+00	
186	3.456851e-02	5.000000e+00	3.330616e+00	5.000000e+00	
187	3.537016e-02	5.000000e+00	3.330616e+00	5.000000e+00	
188	3.550000e-02	5.000000e+00	3.330616e+00	5.000000e+00	
189	3.555000e-02	4.500000e+00	3.330367e+00	5.000000e+00	
190	3.565000e-02	3.500000e+00	3.329669e+00	5.000000e+00	
191	3.585000e-02	1.500000e+00	3.327974e+00	5.000000e+00	
192	3.585000e-02	1.499990e+00	3.327974e+00	5.000000e+00	
193	3.585000e-02	1.499989e+00	3.327974e+00	5.000000e+00	
194	3.585000e-02	1.499987e+00	3.327974e+00	5.000000e+00	
195	3.585000e-02	1.499983e+00	3.327974e+00	5.000000e+00	
196	3.585000e-02	1.499980e+00	3.327974e+00	5.000000e+00	
197	3.585000e-02	1.499979e+00	3.327974e+00	5.000000e+00	
198	3.585000e-02	1.499978e+00	3.327974e+00	5.000000e+00	
199	3.585000e-02	1.499974e+00	3.327974e+00	5.000000e+00	
200	3.585000e-02	1.499968e+00	3.327974e+00	5.000000e+00	
201	3.585000e-02	1.499955e+00	3.327974e+00	5.000000e+00	
202	3.585001e-02	1.499930e+00	3.327974e+00	5.000000e+00	
203	3.585001e-02	1.499878e+00	3.327974e+00	5.000000e+00	
204	3.585002e-02	1.499776e+00	3.327974e+00	5.000000e+00	
205	3.585004e-02	1.499571e+00	3.327974e+00	5.000000e+00	
206	3.585008e-02	1.499162e+00	3.327973e+00	5.000000e+00	
207	3.585017e-02	1.498342e+00	3.327973e+00	5.000000e+00	
208	3.585033e-02	1.496704e+00	3.327972e+00	5.000000e+00	
209	3.585066e-02	1.493427e+00	3.327969e+00	5.000000e+00	
210	3.585131e-02	1.486874e+00	3.327964e+00	5.000000e+00	
211	3.585262e-02	1.473766e+00	3.327953e+00	5.000000e+00	
212	3.585524e-02	1.447552e+00	3.327932e+00	5.000000e+00	
213	3.586049e-02	1.395123e+00	3.327890e+00	5.000000e+00	
214	3.587097e-02	1.290266e+00	3.327807e+00	5.000000e+00	
215	3.589194e-02	1.080550e+00	3.327639e+00	5.000000e+00	
216	3.593389e-02	6.611200e-01	3.327302e+00	5.000000e+00	
217	3.600000e-02	0.000000e+00	3.326771e+00	5.000000e+00	
218	3.600839e-02	0.000000e+00	3.326718e+00	5.000000e+00	
219	3.602517e-02	0.000000e+00	3.326634e+00	5.000000e+00	
220	3.605872e-02	0.000000e+00	3.326555e+00	5.000000e+00	
221	3.612583e-02	0.000000e+00	3.326529e+00	5.000000e+00	
222	3.626005e-02	0.000000e+00	3.326566e+00	5.000000e+00	
223	3.652848e-02	0.000000e+00	3.326639e+00	5.000000e+00	
224	3.706535e-02	0.000000e+00	3.326782e+00	5.000000e+00	
225	3.750000e-02	0.000000e+00	3.326896e+00	5.000000e+00	
226	3.755000e-02	5.000000e-01	3.327159e+00	5.000000e+00	
227	3.765000e-02	1.500000e+00	3.327883e+00	5.000000e+00	
228	3.785000e-02	3.500000e+00	3.329629e+00	5.000000e+00	

Index   time            in              net-_c2-pad1_   net-_r1-pad1_   
--------------------------------------------------------------------------------
229	3.800000e-02	5.000000e+00	3.330898e+00	5.000000e+00	
230	3.804000e-02	5.000000e+00	3.331062e+00	5.000000e+00	
231	3.812000e-02	5.000000e+00	3.331221e+00	5.000000e+00	
232	3.828000e-02	5.000000e+00	3.331245e+00	5.000000e+00	
233	3.860000e-02	5.000000e+00	3.331334e+00	5.000000e+00	
234	3.924000e-02	5.000000e+00	3.331488e+00	5.000000e+00	
235	4.050000e-02	5.000000e+00	3.331797e+00	5.000000e+00	
236	4.055000e-02	4.500000e+00	3.331558e+00	5.000000e+00	
237	4.065000e-02	3.500000e+00	3.330882e+00	5.000000e+00	
238	4.085000e-02	1.500000e+00	3.329235e+00	5.000000e+00	
239	4.100000e-02	0.000000e+00	3.328039e+00	5.000000e+00	
240	4.104000e-02	0.000000e+00	3.327895e+00	5.000000e+00	
241	4.112000e-02	0.000000e+00	3.327775e+00	5.000000e+00	
242	4.128000e-02	0.000000e+00	3.327828e+00	5.000000e+00	
243	4.160000e-02	0.000000e+00	3.327893e+00	5.000000e+00	
244	4.224000e-02	0.000000e+00	3.328043e+00	5.000000e+00	
245	4.250000e-02	0.000000e+00	3.328097e+00	5.000000e+00	
246	4.255000e-02	5.000000e-01	3.328358e+00	5.000000e+00	
247	4.265000e-02	1.500000e+00	3.329079e+00	5.000000e+00	
248	4.285000e-02	3.500000e+00	3.330817e+00	5.000000e+00	
249	4.300000e-02	5.000000e+00	3.332080e+00	5.000000e+00	
250	4.304000e-02	5.000000e+00	3.332242e+00	5.000000e+00	
251	4.312000e-02	5.000000e+00	3.332398e+00	5.000000e+00	
252	4.328000e-02	5.000000e+00	3.332416e+00	5.000000e+00	
253	4.360000e-02	5.000000e+00	3.332493e+00	5.000000e+00	
254	4.424000e-02	5.000000e+00	3.332622e+00	5.000000e+00	
255	4.550000e-02	5.000000e+00	3.332884e+00	5.000000e+00	
256	4.555000e-02	4.500000e+00	3.332643e+00	5.000000e+00	
257	4.565000e-02	3.500000e+00	3.331964e+00	5.000000e+00	
258	4.585000e-02	1.500000e+00	3.330309e+00	5.000000e+00	
259	4.600000e-02	0.000000e+00	3.329108e+00	5.000000e+00	
260	4.604000e-02	0.000000e+00	3.328963e+00	5.000000e+00	
261	4.612000e-02	0.000000e+00	3.328839e+00	5.000000e+00	
262	4.628000e-02	0.000000e+00	3.328887e+00	5.000000e+00	
263	4.660000e-02	0.000000e+00	3.328941e+00	5.000000e+00	
264	4.724000e-02	0.000000e+00	3.329069e+00	5.000000e+00	
265	4.750000e-02	0.000000e+00	3.329114e+00	5.000000e+00	
266	4.755000e-02	5.000000e-01	3.329373e+00	5.000000e+00	
267	4.765000e-02	1.500000e+00	3.330091e+00	5.000000e+00	
268	4.785000e-02	3.500000e+00	3.331822e+00	5.000000e+00	
269	4.800000e-02	5.000000e+00	3.333080e+00	5.000000e+00	
270	4.804000e-02	5.000000e+00	3.333241e+00	5.000000e+00	
271	4.812000e-02	5.000000e+00	3.333394e+00	5.000000e+00	
272	4.828000e-02	5.000000e+00	3.333407e+00	5.000000e+00	
273	4.860000e-02	5.000000e+00	3.333473e+00	5.000000e+00	
274	4.924000e-02	5.000000e+00	3.333581e+00	5.000000e+00	
275	5.050000e-02	5.000000e+00	3.333804e+00	5.000000e+00	
276	5.055000e-02	4.500000e+00	3.333562e+00	5.000000e+00	
277	5.065000e-02	3.500000e+00	3.332879e+00	5.000000e+00	
278	5.085000e-02	1.500000e+00	3.331219e+00	5.000000e+00	
279	5.100000e-02	0.000000e+00	3.330013e+00	5.000000e+00	
280	5.104000e-02	0.000000e+00	3.329867e+00	5.000000e+00	
281	5.112000e-02	0.000000e+00	3.329741e+00	5.000000e+00	
282	5.128000e-02	0.000000e+00	3.329784e+00	5.000000e+00	
283	5.160000e-02	0.000000e+00	3.329828e+00	5.000000e+00	
284	5.224000e-02	0.000000e+00	3.329937e+00	5.000000e+00	
285	5.250000e-02	0.000000e+00	3.329974e+00	5.000000e+00	
286	5.255000e-02	5.000000e-01	3.330233e+00	5.000000e+00	

Index   time            in              net-_c2-pad1_   net-_r1-pad1_   
--------------------------------------------------------------------------------
287	5.265000e-02	1.500000e+00	3.330947e+00	5.000000e+00	
288	5.285000e-02	3.500000e+00	3.332673e+00	5.000000e+00	
289	5.300000e-02	5.000000e+00	3.333927e+00	5.000000e+00	
290	5.304000e-02	5.000000e+00	3.334086e+00	5.000000e+00	
291	5.312000e-02	5.000000e+00	3.334238e+00	5.000000e+00	
292	5.328000e-02	5.000000e+00	3.334246e+00	5.000000e+00	
293	5.360000e-02	5.000000e+00	3.334303e+00	5.000000e+00	
294	5.424000e-02	5.000000e+00	3.334394e+00	5.000000e+00	
295	5.550000e-02	5.000000e+00	3.334583e+00	5.000000e+00	
296	5.555000e-02	4.500000e+00	3.334339e+00	5.000000e+00	
297	5.565000e-02	3.500000e+00	3.333654e+00	5.000000e+00	
298	5.585000e-02	1.500000e+00	3.331989e+00	5.000000e+00	
299	5.600000e-02	0.000000e+00	3.330779e+00	5.000000e+00	
300	5.604000e-02	0.000000e+00	3.330632e+00	5.000000e+00	
301	5.612000e-02	0.000000e+00	3.330504e+00	5.000000e+00	
302	5.628000e-02	0.000000e+00	3.330543e+00	5.000000e+00	
303	5.660000e-02	0.000000e+00	3.330579e+00	5.000000e+00	
304	5.724000e-02	0.000000e+00	3.330672e+00	5.000000e+00	
305	5.750000e-02	0.000000e+00	3.330703e+00	5.000000e+00	
306	5.755000e-02	5.000000e-01	3.330960e+00	5.000000e+00	
307	5.765000e-02	1.500000e+00	3.331672e+00	5.000000e+00	
308	5.785000e-02	3.500000e+00	3.333393e+00	5.000000e+00	
309	5.800000e-02	5.000000e+00	3.334643e+00	5.000000e+00	
310	5.804000e-02	5.000000e+00	3.334802e+00	5.000000e+00	
311	5.812000e-02	5.000000e+00	3.334951e+00	5.000000e+00	
312	5.828000e-02	5.000000e+00	3.334956e+00	5.000000e+00	
313	5.860000e-02	5.000000e+00	3.335005e+00	5.000000e+00	
314	5.924000e-02	5.000000e+00	3.335081e+00	5.000000e+00	
315	6.050000e-02	5.000000e+00	3.335242e+00	5.000000e+00	
316	6.055000e-02	4.500000e+00	3.334997e+00	5.000000e+00	
317	6.065000e-02	3.500000e+00	3.334310e+00	5.000000e+00	
318	6.085000e-02	1.500000e+00	3.332640e+00	5.000000e+00	
319	6.100000e-02	0.000000e+00	3.331427e+00	5.000000e+00	
320	6.104000e-02	0.000000e+00	3.331279e+00	5.000000e+00	
321	6.112000e-02	0.000000e+00	3.331149e+00	5.000000e+00	
322	6.128000e-02	0.000000e+00	3.331185e+00	5.000000e+00	
323	6.160000e-02	0.000000e+00	3.331215e+00	5.000000e+00	
324	6.224000e-02	0.000000e+00	3.331294e+00	5.000000e+00	
325	6.250000e-02	0.000000e+00	3.331320e+00	5.000000e+00	
326	6.255000e-02	5.000000e-01	3.331576e+00	5.000000e+00	
327	6.265000e-02	1.500000e+00	3.332286e+00	5.000000e+00	
328	6.285000e-02	3.500000e+00	3.334002e+00	5.000000e+00	
329	6.300000e-02	5.000000e+00	3.335250e+00	5.000000e+00	
330	6.304000e-02	5.000000e+00	3.335407e+00	5.000000e+00	
331	6.312000e-02	5.000000e+00	3.335555e+00	5.000000e+00	
