              * c:\users\hp\esim-workspace\dualtimer\dualtimer.cir
              Transient Analysis  Thu Jun 27 09:33:38  2019
--------------------------------------------------------------------------------
Index   time            c1              c2              net-_c2-pad1_   
--------------------------------------------------------------------------------
0	0.000000e+00	0.000000e+00	0.000000e+00	3.991686e+00	
1	1.000000e-05	6.233053e-03	6.233053e-03	3.991698e+00	
2	2.000000e-05	1.245932e-02	1.245932e-02	3.991712e+00	
3	4.000000e-05	2.489830e-02	2.489830e-02	3.991743e+00	
4	8.000000e-05	4.969509e-02	4.969509e-02	3.991805e+00	
5	1.600000e-04	9.896578e-02	9.896578e-02	3.991928e+00	
6	3.200000e-04	1.962296e-01	1.962296e-01	3.992171e+00	
7	6.400000e-04	3.857562e-01	3.857562e-01	3.992643e+00	
8	1.280000e-03	7.456484e-01	7.456484e-01	3.993541e+00	
9	2.560000e-03	1.395035e+00	1.395035e+00	3.995161e+00	
10	4.560000e-03	2.246168e+00	2.246168e+00	3.997284e+00	
11	6.560000e-03	2.930011e+00	2.930011e+00	3.998990e+00	
12	8.560000e-03	3.479446e+00	3.479446e+00	4.000361e+00	
13	1.056000e-02	3.920890e+00	3.920890e+00	4.001462e+00	
14	1.256000e-02	4.275568e+00	4.275568e+00	4.002347e+00	
15	1.256000e-02	4.275568e+00	4.275568e+00	4.002347e+00	
16	1.256000e-02	4.275568e+00	4.275568e+00	4.002347e+00	
17	1.256000e-02	4.275568e+00	4.275568e+00	4.002347e+00	
18	1.256000e-02	4.275568e+00	4.275568e+00	4.002347e+00	
19	1.256000e-02	4.275568e+00	4.275568e+00	4.002347e+00	
20	1.256000e-02	4.275568e+00	4.275568e+00	4.002347e+00	
21	1.256000e-02	4.275568e+00	4.275568e+00	4.002347e+00	
22	1.256000e-02	4.275568e+00	4.275568e+00	4.002347e+00	
23	1.256000e-02	4.275568e+00	4.275568e+00	4.002347e+00	
24	1.256000e-02	4.275568e+00	4.275568e+00	4.002347e+00	
25	1.256000e-02	4.275567e+00	4.275567e+00	4.002347e+00	
26	1.256000e-02	4.275567e+00	4.275567e+00	4.002347e+00	
27	1.256000e-02	4.275567e+00	4.275567e+00	4.002347e+00	
28	1.256001e-02	4.275567e+00	4.275567e+00	4.002347e+00	
29	1.256001e-02	4.275566e+00	4.275566e+00	4.002347e+00	
30	1.256001e-02	4.275566e+00	4.275566e+00	4.002347e+00	
31	1.256001e-02	4.275566e+00	4.275566e+00	4.002347e+00	
32	1.256001e-02	4.275565e+00	4.275565e+00	4.002347e+00	
33	1.256001e-02	4.275565e+00	4.275565e+00	4.002347e+00	
34	1.256001e-02	4.275565e+00	4.275565e+00	4.002347e+00	
35	1.256001e-02	4.275564e+00	4.275564e+00	4.002347e+00	
36	1.256001e-02	4.275563e+00	4.275563e+00	4.002347e+00	
37	1.256002e-02	4.275562e+00	4.275562e+00	4.002347e+00	
38	1.256002e-02	4.275561e+00	4.275561e+00	4.002347e+00	
39	1.256002e-02	4.275560e+00	4.275560e+00	4.002347e+00	
40	1.256003e-02	4.275557e+00	4.275557e+00	4.002347e+00	
41	1.256004e-02	4.275551e+00	4.275551e+00	4.002347e+00	
42	1.256007e-02	4.275539e+00	4.275539e+00	4.002347e+00	
43	1.256012e-02	4.275516e+00	4.275516e+00	4.002347e+00	
44	1.256023e-02	4.275469e+00	4.275469e+00	4.002347e+00	
45	1.256044e-02	4.275376e+00	4.275376e+00	4.002347e+00	
46	1.256087e-02	4.275190e+00	4.275190e+00	4.002347e+00	
47	1.256172e-02	4.274818e+00	4.274818e+00	4.002347e+00	
48	1.256342e-02	4.274075e+00	4.274075e+00	4.002347e+00	
49	1.256683e-02	4.272588e+00	4.272588e+00	4.002344e+00	
50	1.257365e-02	4.269615e+00	4.269615e+00	4.002337e+00	
51	1.258728e-02	4.263677e+00	4.263677e+00	4.002322e+00	
52	1.261455e-02	4.251826e+00	4.251826e+00	4.002293e+00	
53	1.266909e-02	4.228232e+00	4.228232e+00	4.002234e+00	
54	1.277816e-02	4.181465e+00	4.181465e+00	4.002117e+00	

Index   time            c1              c2              net-_c2-pad1_   
--------------------------------------------------------------------------------
55	1.299631e-02	4.089595e+00	4.089595e+00	4.001888e+00	
56	1.343261e-02	3.912312e+00	3.912312e+00	4.001446e+00	
57	1.430521e-02	3.582095e+00	3.582095e+00	4.000622e+00	
58	1.605041e-02	3.008403e+00	3.008403e+00	3.999191e+00	
59	1.805041e-02	2.472929e+00	2.472929e+00	3.997855e+00	
60	2.005041e-02	2.043560e+00	2.043560e+00	3.996784e+00	
61	2.205041e-02	1.699273e+00	1.699273e+00	3.995925e+00	
62	2.205041e-02	1.699272e+00	1.699272e+00	3.995925e+00	
63	2.205041e-02	1.699272e+00	1.699272e+00	3.995925e+00	
64	2.205041e-02	1.699272e+00	1.699272e+00	3.995925e+00	
65	2.205041e-02	1.699272e+00	1.699272e+00	3.995925e+00	
66	2.205041e-02	1.699272e+00	1.699272e+00	3.995925e+00	
67	2.205041e-02	1.699272e+00	1.699272e+00	3.995925e+00	
68	2.205041e-02	1.699272e+00	1.699272e+00	3.995925e+00	
69	2.205041e-02	1.699272e+00	1.699272e+00	3.995925e+00	
70	2.205041e-02	1.699272e+00	1.699272e+00	3.995925e+00	
71	2.205041e-02	1.699272e+00	1.699272e+00	3.995925e+00	
72	2.205041e-02	1.699273e+00	1.699273e+00	3.995925e+00	
73	2.205041e-02	1.699273e+00	1.699273e+00	3.995925e+00	
74	2.205041e-02	1.699273e+00	1.699273e+00	3.995925e+00	
75	2.205041e-02	1.699273e+00	1.699273e+00	3.995925e+00	
76	2.205041e-02	1.699273e+00	1.699273e+00	3.995925e+00	
77	2.205041e-02	1.699274e+00	1.699274e+00	3.995925e+00	
78	2.205041e-02	1.699274e+00	1.699274e+00	3.995925e+00	
79	2.205041e-02	1.699275e+00	1.699275e+00	3.995925e+00	
80	2.205041e-02	1.699275e+00	1.699275e+00	3.995925e+00	
81	2.205041e-02	1.699276e+00	1.699276e+00	3.995925e+00	
82	2.205042e-02	1.699276e+00	1.699276e+00	3.995925e+00	
83	2.205042e-02	1.699277e+00	1.699277e+00	3.995925e+00	
84	2.205042e-02	1.699279e+00	1.699279e+00	3.995925e+00	
85	2.205043e-02	1.699281e+00	1.699281e+00	3.995925e+00	
86	2.205044e-02	1.699285e+00	1.699285e+00	3.995925e+00	
87	2.205046e-02	1.699294e+00	1.699294e+00	3.995925e+00	
88	2.205050e-02	1.699312e+00	1.699312e+00	3.995925e+00	
89	2.205058e-02	1.699348e+00	1.699348e+00	3.995925e+00	
90	2.205074e-02	1.699419e+00	1.699419e+00	3.995925e+00	
91	2.205107e-02	1.699562e+00	1.699562e+00	3.995925e+00	
92	2.205172e-02	1.699848e+00	1.699848e+00	3.995925e+00	
93	2.205302e-02	1.700419e+00	1.700419e+00	3.995925e+00	
94	2.205562e-02	1.701561e+00	1.701561e+00	3.995927e+00	
95	2.206083e-02	1.703844e+00	1.703844e+00	3.995932e+00	
96	2.207125e-02	1.708406e+00	1.708406e+00	3.995943e+00	
97	2.209207e-02	1.717514e+00	1.717514e+00	3.995966e+00	
98	2.213373e-02	1.735669e+00	1.735669e+00	3.996011e+00	
99	2.221705e-02	1.771733e+00	1.771733e+00	3.996101e+00	
100	2.238368e-02	1.842886e+00	1.842886e+00	3.996278e+00	
101	2.271694e-02	1.981387e+00	1.981387e+00	3.996624e+00	
102	2.338346e-02	2.243825e+00	2.243825e+00	3.997278e+00	
103	2.471651e-02	2.715383e+00	2.715383e+00	3.998455e+00	
104	2.671651e-02	3.307003e+00	3.307003e+00	3.999931e+00	
105	2.871651e-02	3.782340e+00	3.782340e+00	4.001117e+00	
106	3.071651e-02	4.164251e+00	4.164251e+00	4.002069e+00	
107	3.071651e-02	4.164251e+00	4.164251e+00	4.002069e+00	
108	3.071651e-02	4.164251e+00	4.164251e+00	4.002069e+00	
109	3.071651e-02	4.164251e+00	4.164251e+00	4.002069e+00	
110	3.071651e-02	4.164251e+00	4.164251e+00	4.002069e+00	
111	3.071651e-02	4.164251e+00	4.164251e+00	4.002069e+00	
112	3.071651e-02	4.164250e+00	4.164250e+00	4.002069e+00	

Index   time            c1              c2              net-_c2-pad1_   
--------------------------------------------------------------------------------
113	3.071651e-02	4.164250e+00	4.164250e+00	4.002069e+00	
114	3.071651e-02	4.164250e+00	4.164250e+00	4.002069e+00	
115	3.071651e-02	4.164250e+00	4.164250e+00	4.002069e+00	
116	3.071651e-02	4.164250e+00	4.164250e+00	4.002069e+00	
117	3.071651e-02	4.164250e+00	4.164250e+00	4.002069e+00	
118	3.071651e-02	4.164250e+00	4.164250e+00	4.002069e+00	
119	3.071651e-02	4.164249e+00	4.164249e+00	4.002069e+00	
120	3.071651e-02	4.164249e+00	4.164249e+00	4.002069e+00	
121	3.071651e-02	4.164249e+00	4.164249e+00	4.002069e+00	
122	3.071652e-02	4.164249e+00	4.164249e+00	4.002069e+00	
123	3.071652e-02	4.164248e+00	4.164248e+00	4.002069e+00	
124	3.071652e-02	4.164248e+00	4.164248e+00	4.002069e+00	
125	3.071652e-02	4.164247e+00	4.164247e+00	4.002069e+00	
126	3.071652e-02	4.164247e+00	4.164247e+00	4.002069e+00	
127	3.071652e-02	4.164246e+00	4.164246e+00	4.002069e+00	
128	3.071652e-02	4.164246e+00	4.164246e+00	4.002069e+00	
129	3.071652e-02	4.164245e+00	4.164245e+00	4.002069e+00	
130	3.071653e-02	4.164244e+00	4.164244e+00	4.002069e+00	
131	3.071653e-02	4.164242e+00	4.164242e+00	4.002069e+00	
132	3.071654e-02	4.164239e+00	4.164239e+00	4.002069e+00	
133	3.071655e-02	4.164234e+00	4.164234e+00	4.002069e+00	
134	3.071658e-02	4.164222e+00	4.164222e+00	4.002069e+00	
135	3.071663e-02	4.164200e+00	4.164200e+00	4.002069e+00	
136	3.071674e-02	4.164155e+00	4.164155e+00	4.002069e+00	
137	3.071695e-02	4.164064e+00	4.164064e+00	4.002069e+00	
138	3.071738e-02	4.163883e+00	4.163883e+00	4.002070e+00	
139	3.071823e-02	4.163522e+00	4.163522e+00	4.002069e+00	
140	3.071993e-02	4.162799e+00	4.162799e+00	4.002069e+00	
141	3.072334e-02	4.161354e+00	4.161354e+00	4.002066e+00	
142	3.073016e-02	4.158464e+00	4.158464e+00	4.002060e+00	
143	3.074379e-02	4.152692e+00	4.152692e+00	4.002045e+00	
144	3.077106e-02	4.141174e+00	4.141174e+00	4.002017e+00	
145	3.082560e-02	4.118242e+00	4.118242e+00	4.001959e+00	
146	3.093467e-02	4.072787e+00	4.072787e+00	4.001846e+00	
147	3.115282e-02	3.983493e+00	3.983493e+00	4.001623e+00	
148	3.158912e-02	3.811181e+00	3.811181e+00	4.001193e+00	
149	3.246172e-02	3.490225e+00	3.490225e+00	4.000393e+00	
150	3.420691e-02	2.932621e+00	2.932621e+00	3.999002e+00	
151	3.620691e-02	2.412163e+00	2.412163e+00	3.997703e+00	
152	3.820691e-02	1.994835e+00	1.994835e+00	3.996662e+00	
153	3.820692e-02	1.994835e+00	1.994835e+00	3.996662e+00	
154	3.820692e-02	1.994835e+00	1.994835e+00	3.996662e+00	
155	3.820692e-02	1.994835e+00	1.994835e+00	3.996662e+00	
156	3.820692e-02	1.994835e+00	1.994835e+00	3.996662e+00	
157	3.820692e-02	1.994835e+00	1.994835e+00	3.996662e+00	
158	3.820692e-02	1.994835e+00	1.994835e+00	3.996662e+00	
159	3.820692e-02	1.994835e+00	1.994835e+00	3.996662e+00	
160	3.820692e-02	1.994835e+00	1.994835e+00	3.996662e+00	
161	3.820692e-02	1.994835e+00	1.994835e+00	3.996662e+00	
162	3.820692e-02	1.994835e+00	1.994835e+00	3.996662e+00	
163	3.820692e-02	1.994835e+00	1.994835e+00	3.996662e+00	
164	3.820692e-02	1.994835e+00	1.994835e+00	3.996662e+00	
165	3.820692e-02	1.994836e+00	1.994836e+00	3.996662e+00	
166	3.820692e-02	1.994836e+00	1.994836e+00	3.996662e+00	
167	3.820692e-02	1.994836e+00	1.994836e+00	3.996662e+00	
168	3.820692e-02	1.994836e+00	1.994836e+00	3.996662e+00	
169	3.820692e-02	1.994837e+00	1.994837e+00	3.996662e+00	
170	3.820692e-02	1.994837e+00	1.994837e+00	3.996662e+00	

Index   time            c1              c2              net-_c2-pad1_   
--------------------------------------------------------------------------------
171	3.820692e-02	1.994838e+00	1.994838e+00	3.996662e+00	
172	3.820692e-02	1.994838e+00	1.994838e+00	3.996662e+00	
173	3.820693e-02	1.994839e+00	1.994839e+00	3.996662e+00	
174	3.820693e-02	1.994840e+00	1.994840e+00	3.996662e+00	
175	3.820693e-02	1.994841e+00	1.994841e+00	3.996662e+00	
176	3.820694e-02	1.994843e+00	1.994843e+00	3.996662e+00	
177	3.820695e-02	1.994847e+00	1.994847e+00	3.996662e+00	
178	3.820697e-02	1.994855e+00	1.994855e+00	3.996662e+00	
179	3.820701e-02	1.994872e+00	1.994872e+00	3.996662e+00	
180	3.820709e-02	1.994905e+00	1.994905e+00	3.996662e+00	
181	3.820725e-02	1.994971e+00	1.994971e+00	3.996662e+00	
182	3.820758e-02	1.995104e+00	1.995104e+00	3.996662e+00	
183	3.820823e-02	1.995368e+00	1.995368e+00	3.996662e+00	
184	3.820953e-02	1.995897e+00	1.995897e+00	3.996662e+00	
185	3.821213e-02	1.996955e+00	1.996955e+00	3.996664e+00	
186	3.821734e-02	1.999071e+00	1.999071e+00	3.996668e+00	
187	3.822775e-02	2.003298e+00	2.003298e+00	3.996678e+00	
188	3.824858e-02	2.011738e+00	2.011738e+00	3.996700e+00	
189	3.829024e-02	2.028560e+00	2.028560e+00	3.996741e+00	
190	3.837356e-02	2.061976e+00	2.061976e+00	3.996825e+00	
191	3.854019e-02	2.127906e+00	2.127906e+00	3.996989e+00	
192	3.887345e-02	2.256239e+00	2.256239e+00	3.997309e+00	
193	3.953997e-02	2.499412e+00	2.499412e+00	3.997916e+00	
194	4.087302e-02	2.936353e+00	2.936353e+00	3.999006e+00	
195	4.287302e-02	3.484542e+00	3.484542e+00	4.000374e+00	
196	4.487302e-02	3.924984e+00	3.924984e+00	4.001472e+00	
197	4.687302e-02	4.278858e+00	4.278858e+00	4.002355e+00	
198	4.687302e-02	4.278858e+00	4.278858e+00	4.002355e+00	
199	4.687302e-02	4.278858e+00	4.278858e+00	4.002355e+00	
200	4.687302e-02	4.278858e+00	4.278858e+00	4.002355e+00	
201	4.687302e-02	4.278858e+00	4.278858e+00	4.002355e+00	
202	4.687302e-02	4.278858e+00	4.278858e+00	4.002355e+00	
203	4.687302e-02	4.278857e+00	4.278857e+00	4.002355e+00	
204	4.687302e-02	4.278857e+00	4.278857e+00	4.002355e+00	
205	4.687302e-02	4.278857e+00	4.278857e+00	4.002355e+00	
206	4.687302e-02	4.278857e+00	4.278857e+00	4.002355e+00	
207	4.687302e-02	4.278857e+00	4.278857e+00	4.002355e+00	
208	4.687302e-02	4.278857e+00	4.278857e+00	4.002355e+00	
209	4.687302e-02	4.278857e+00	4.278857e+00	4.002355e+00	
210	4.687302e-02	4.278856e+00	4.278856e+00	4.002355e+00	
211	4.687303e-02	4.278856e+00	4.278856e+00	4.002355e+00	
212	4.687303e-02	4.278856e+00	4.278856e+00	4.002355e+00	
213	4.687303e-02	4.278855e+00	4.278855e+00	4.002355e+00	
214	4.687303e-02	4.278855e+00	4.278855e+00	4.002355e+00	
215	4.687303e-02	4.278855e+00	4.278855e+00	4.002355e+00	
216	4.687303e-02	4.278854e+00	4.278854e+00	4.002355e+00	
217	4.687303e-02	4.278854e+00	4.278854e+00	4.002355e+00	
218	4.687303e-02	4.278853e+00	4.278853e+00	4.002355e+00	
219	4.687303e-02	4.278853e+00	4.278853e+00	4.002355e+00	
220	4.687304e-02	4.278852e+00	4.278852e+00	4.002355e+00	
221	4.687304e-02	4.278851e+00	4.278851e+00	4.002355e+00	
222	4.687304e-02	4.278849e+00	4.278849e+00	4.002355e+00	
223	4.687305e-02	4.278846e+00	4.278846e+00	4.002355e+00	
224	4.687306e-02	4.278840e+00	4.278840e+00	4.002355e+00	
225	4.687309e-02	4.278828e+00	4.278828e+00	4.002355e+00	
226	4.687314e-02	4.278805e+00	4.278805e+00	4.002355e+00	
227	4.687325e-02	4.278759e+00	4.278759e+00	4.002355e+00	
228	4.687346e-02	4.278666e+00	4.278666e+00	4.002355e+00	

Index   time            c1              c2              net-_c2-pad1_   
--------------------------------------------------------------------------------
229	4.687389e-02	4.278479e+00	4.278479e+00	4.002355e+00	
230	4.687474e-02	4.278107e+00	4.278107e+00	4.002355e+00	
231	4.687644e-02	4.277363e+00	4.277363e+00	4.002355e+00	
232	4.687985e-02	4.275874e+00	4.275874e+00	4.002352e+00	
233	4.688667e-02	4.272899e+00	4.272899e+00	4.002345e+00	
234	4.690030e-02	4.266956e+00	4.266956e+00	4.002330e+00	
235	4.692757e-02	4.255096e+00	4.255096e+00	4.002301e+00	
236	4.698211e-02	4.231482e+00	4.231482e+00	4.002242e+00	
237	4.709118e-02	4.184677e+00	4.184677e+00	4.002125e+00	
238	4.730933e-02	4.092730e+00	4.092730e+00	4.001896e+00	
239	4.774563e-02	3.915300e+00	3.915300e+00	4.001453e+00	
240	4.861823e-02	3.584810e+00	3.584810e+00	4.000629e+00	
241	5.036343e-02	3.010643e+00	3.010643e+00	3.999196e+00	
242	5.236343e-02	2.474724e+00	2.474724e+00	3.997859e+00	
243	5.436343e-02	2.045000e+00	2.045000e+00	3.996787e+00	
244	5.636343e-02	1.700427e+00	1.700427e+00	3.995928e+00	
245	5.636343e-02	1.700427e+00	1.700427e+00	3.995928e+00	
246	5.636343e-02	1.700427e+00	1.700427e+00	3.995928e+00	
247	5.636343e-02	1.700427e+00	1.700427e+00	3.995928e+00	
248	5.636343e-02	1.700427e+00	1.700427e+00	3.995928e+00	
249	5.636343e-02	1.700427e+00	1.700427e+00	3.995928e+00	
250	5.636343e-02	1.700427e+00	1.700427e+00	3.995928e+00	
251	5.636343e-02	1.700427e+00	1.700427e+00	3.995928e+00	
252	5.636343e-02	1.700427e+00	1.700427e+00	3.995928e+00	
253	5.636343e-02	1.700427e+00	1.700427e+00	3.995928e+00	
254	5.636343e-02	1.700427e+00	1.700427e+00	3.995928e+00	
255	5.636343e-02	1.700427e+00	1.700427e+00	3.995928e+00	
256	5.636343e-02	1.700427e+00	1.700427e+00	3.995928e+00	
257	5.636343e-02	1.700427e+00	1.700427e+00	3.995928e+00	
258	5.636343e-02	1.700428e+00	1.700428e+00	3.995928e+00	
259	5.636343e-02	1.700428e+00	1.700428e+00	3.995928e+00	
260	5.636343e-02	1.700428e+00	1.700428e+00	3.995928e+00	
261	5.636343e-02	1.700429e+00	1.700429e+00	3.995928e+00	
262	5.636343e-02	1.700429e+00	1.700429e+00	3.995928e+00	
263	5.636343e-02	1.700430e+00	1.700430e+00	3.995928e+00	
264	5.636343e-02	1.700430e+00	1.700430e+00	3.995928e+00	
265	5.636344e-02	1.700431e+00	1.700431e+00	3.995928e+00	
266	5.636344e-02	1.700432e+00	1.700432e+00	3.995928e+00	
267	5.636344e-02	1.700433e+00	1.700433e+00	3.995928e+00	
268	5.636345e-02	1.700435e+00	1.700435e+00	3.995928e+00	
269	5.636346e-02	1.700440e+00	1.700440e+00	3.995928e+00	
270	5.636348e-02	1.700449e+00	1.700449e+00	3.995928e+00	
271	5.636352e-02	1.700467e+00	1.700467e+00	3.995928e+00	
272	5.636360e-02	1.700502e+00	1.700502e+00	3.995928e+00	
273	5.636376e-02	1.700574e+00	1.700574e+00	3.995928e+00	
274	5.636409e-02	1.700716e+00	1.700716e+00	3.995928e+00	
275	5.636474e-02	1.701002e+00	1.701002e+00	3.995928e+00	
276	5.636604e-02	1.701573e+00	1.701573e+00	3.995928e+00	
277	5.636864e-02	1.702715e+00	1.702715e+00	3.995930e+00	
278	5.637385e-02	1.704997e+00	1.704997e+00	3.995934e+00	
279	5.638427e-02	1.709557e+00	1.709557e+00	3.995946e+00	
280	5.640509e-02	1.718663e+00	1.718663e+00	3.995968e+00	
281	5.644675e-02	1.736813e+00	1.736813e+00	3.996014e+00	
282	5.653007e-02	1.772866e+00	1.772866e+00	3.996104e+00	
283	5.669670e-02	1.844000e+00	1.844000e+00	3.996281e+00	
284	5.702996e-02	1.982460e+00	1.982460e+00	3.996626e+00	
285	5.769648e-02	2.244823e+00	2.244823e+00	3.997281e+00	
286	5.902953e-02	2.716247e+00	2.716247e+00	3.998457e+00	

Index   time            c1              c2              net-_c2-pad1_   
--------------------------------------------------------------------------------
287	6.102953e-02	3.307697e+00	3.307697e+00	3.999932e+00	
288	6.302953e-02	3.782898e+00	3.782898e+00	4.001118e+00	
289	6.502953e-02	4.164698e+00	4.164698e+00	4.002070e+00	
290	6.502953e-02	4.164698e+00	4.164698e+00	4.002070e+00	
291	6.502953e-02	4.164698e+00	4.164698e+00	4.002070e+00	
292	6.502953e-02	4.164698e+00	4.164698e+00	4.002070e+00	
293	6.502953e-02	4.164698e+00	4.164698e+00	4.002070e+00	
294	6.502953e-02	4.164698e+00	4.164698e+00	4.002070e+00	
295	6.502953e-02	4.164698e+00	4.164698e+00	4.002070e+00	
296	6.502953e-02	4.164698e+00	4.164698e+00	4.002070e+00	
297	6.502953e-02	4.164698e+00	4.164698e+00	4.002070e+00	
298	6.502953e-02	4.164698e+00	4.164698e+00	4.002070e+00	
299	6.502953e-02	4.164698e+00	4.164698e+00	4.002070e+00	
300	6.502953e-02	4.164697e+00	4.164697e+00	4.002070e+00	
301	6.502953e-02	4.164697e+00	4.164697e+00	4.002070e+00	
302	6.502953e-02	4.164697e+00	4.164697e+00	4.002070e+00	
303	6.502953e-02	4.164697e+00	4.164697e+00	4.002070e+00	
304	6.502954e-02	4.164696e+00	4.164696e+00	4.002070e+00	
305	6.502954e-02	4.164696e+00	4.164696e+00	4.002070e+00	
306	6.502954e-02	4.164696e+00	4.164696e+00	4.002070e+00	
307	6.502954e-02	4.164695e+00	4.164695e+00	4.002070e+00	
308	6.502954e-02	4.164695e+00	4.164695e+00	4.002070e+00	
309	6.502954e-02	4.164695e+00	4.164695e+00	4.002070e+00	
310	6.502954e-02	4.164694e+00	4.164694e+00	4.002070e+00	
311	6.502954e-02	4.164693e+00	4.164693e+00	4.002070e+00	
312	6.502954e-02	4.164693e+00	4.164693e+00	4.002070e+00	
313	6.502955e-02	4.164691e+00	4.164691e+00	4.002070e+00	
314	6.502955e-02	4.164690e+00	4.164690e+00	4.002070e+00	
315	6.502956e-02	4.164687e+00	4.164687e+00	4.002070e+00	
316	6.502957e-02	4.164681e+00	4.164681e+00	4.002070e+00	
317	6.502960e-02	4.164670e+00	4.164670e+00	4.002070e+00	
318	6.502965e-02	4.164647e+00	4.164647e+00	4.002070e+00	
319	6.502976e-02	4.164602e+00	4.164602e+00	4.002071e+00	
320	6.502997e-02	4.164512e+00	4.164512e+00	4.002071e+00	
321	6.503040e-02	4.164331e+00	4.164331e+00	4.002071e+00	
322	6.503125e-02	4.163969e+00	4.163969e+00	4.002071e+00	
323	6.503295e-02	4.163246e+00	4.163246e+00	4.002070e+00	
324	6.503636e-02	4.161801e+00	4.161801e+00	4.002068e+00	
325	6.504318e-02	4.158911e+00	4.158911e+00	4.002061e+00	
326	6.505681e-02	4.153139e+00	4.153139e+00	4.002047e+00	
327	6.508408e-02	4.141619e+00	4.141619e+00	4.002018e+00	
328	6.513862e-02	4.118684e+00	4.118684e+00	4.001961e+00	
329	6.524769e-02	4.073224e+00	4.073224e+00	4.001847e+00	
330	6.546584e-02	3.983919e+00	3.983919e+00	4.001624e+00	
331	6.590214e-02	3.811588e+00	3.811588e+00	4.001194e+00	
