Title: kicad schematic
Date: Sat Dec 13 14:43:23  2025
Plotname: Transient Analysis
Flags: real
No. Variables: 36
No. Points: 59      
Variables:
	0	time	time
	1	v(x1.net-_d4-pad1_)	voltage
	2	v(x1.net-_d5-pad2_)	voltage
	3	v(x1.net-_q5-pad2_)	voltage
	4	v(v_a)	voltage
	5	v(x1.net-_q7-pad1_)	voltage
	6	v(x1.net-_q12-pad2_)	voltage
	7	v(v_y)	voltage
	8	v(x1.net-_q2-pad3_)	voltage
	9	v(v_g)	voltage
	10	v(x1.net-_d6-pad1_)	voltage
	11	v(x1.net-_d2-pad1_)	voltage
	12	v(x1.net-_q2-pad1_)	voltage
	13	v(x1.net-_q2-pad2_)	voltage
	14	v(x1.net-_q1-pad1_)	voltage
	15	v(x1.net-_q1-pad2_)	voltage
	16	v(x1.net-_q10-pad1_)	voltage
	17	v(x1.net-_q10-pad3_)	voltage
	18	v(x1.net-_q5-pad1_)	voltage
	19	v(x1.net-_q6-pad3_)	voltage
	20	v(q.x1.q8#collCX)	voltage
	21	v(q.x1.q5#collCX)	voltage
	22	v(q.x1.q6#collCX)	voltage
	23	v(q.x1.q10#collCX)	voltage
	24	v(q.x1.q11#collCX)	voltage
	25	v(q.x1.q1#collCX)	voltage
	26	v(q.x1.q13#collCX)	voltage
	27	v(q.x1.q3#collCX)	voltage
	28	v(q.x1.q2#collCX)	voltage
	29	v(q.x1.q4#collCX)	voltage
	30	v(q.x1.q9#collCX)	voltage
	31	v(q.x1.q12#collCX)	voltage
	32	v(q.x1.q7#collCX)	voltage
	33	i(v_g1)	current
	34	i(v_a1)	current
	35	i(v.x1.v1)	current
Values:
0		0.000000000000000e+00
	6.264221327865840e-01
	5.000000000000000e+00
	7.083642009981274e-01
	0.000000000000000e+00
	8.356241322417877e-02
	1.156108292373985e-02
	2.500680108593350e-05
	8.001441402090323e-02
	5.000000000000000e+00
	6.415162030678601e-01
	9.073375396947636e-01
	1.720387436911732e+00
	6.477556432853423e-01
	1.430988381560300e+00
	2.127193764431929e+00
	4.998442194362051e+00
	8.555201210653469e-02
	4.058991089255650e-03
	1.467471817517219e-10
	8.356241322399560e-02
	4.058991089266004e-03
	4.458953260914843e-15
	4.998423867247229e+00
	4.998442194351720e+00
	1.436041443361136e+00
	6.467319900191587e-01
	4.768928492444120e+00
	1.720337832130413e+00
	1.295764746852737e-13
	6.264221327851786e-01
	2.500680109874596e-05
	8.356241322399560e-02
	-4.334862743378159e-03
	2.397800639929951e-01
	-2.415904280778179e-01
1		1.000000000000000e-02
	6.264221327865860e-01
	5.000000000000000e+00
	7.083642009981275e-01
	0.000000000000000e+00
	8.356241203754024e-02
	1.156108292373840e-02
	2.500680108600372e-05
	8.001441402090508e-02
	5.000000000000000e+00
	6.415162030678624e-01
	9.073375396947491e-01
	1.720387436911715e+00
	6.477556432853449e-01
	1.430988381560307e+00
	2.127193764431938e+00
	4.998442194362100e+00
	8.555201210653529e-02
	4.058991089255609e-03
	1.467458418869270e-10
	8.356241203735705e-02
	4.058991089265963e-03
	4.458953260884046e-15
	4.998423867247279e+00
	4.998442194351769e+00
	1.436041443361143e+00
	6.467319900191613e-01
	4.768928492444140e+00
	1.720337832130397e+00
	1.295764746866721e-13
	6.264221327851807e-01
	2.500680109881618e-05
	8.356241203735705e-02
	-4.334862743378382e-03
	2.397800639929721e-01
	-2.415904280777983e-01
2		2.000000000000000e-02
	6.264221327865849e-01
	5.000000000000000e+00
	7.083642009981275e-01
	0.000000000000000e+00
	8.356241080948711e-02
	1.156108292373837e-02
	2.500680108600371e-05
	8.001441402090081e-02
	5.000000000000000e+00
	6.415162030678571e-01
	9.073375396946519e-01
	1.720387436911595e+00
	6.477556432853393e-01
	1.430988381560295e+00
	2.127193764431926e+00
	4.998442194362101e+00
	8.555201210653486e-02
	4.058991089255609e-03
	1.467457932076391e-10
	8.356241080930392e-02
	4.058991089265963e-03
	4.458953260943791e-15
	4.998423867247280e+00
	4.998442194351770e+00
	1.436041443361131e+00
	6.467319900191558e-01
	4.768928492444287e+00
	1.720337832130276e+00
	1.295764746821097e-13
	6.264221327851796e-01
	2.500680109881617e-05
	8.356241080930392e-02
	-4.334862743378298e-03
	2.397800639928254e-01
	-2.415904280776509e-01
3		4.000000000000000e-02
	6.264221327865843e-01
	5.000000000000000e+00
	7.083642009981286e-01
	0.000000000000000e+00
	8.356240831249724e-02
	1.156108292373823e-02
	2.500680108600372e-05
	8.001441402090509e-02
	5.000000000000000e+00
	6.415162030678627e-01
	9.073375396947128e-01
	1.720387436911674e+00
	6.477556432853449e-01
	1.430988381560308e+00
	2.127193764431940e+00
	4.998442194362100e+00
	8.555201210653438e-02
	4.058991089255641e-03
	1.467457431034698e-10
	8.356240831231407e-02
	4.058991089265994e-03
	4.458953260935681e-15
	4.998423867247279e+00
	4.998442194351769e+00
	1.436041443361145e+00
	6.467319900191614e-01
	4.768928492444196e+00
	1.720337832130356e+00
	1.295764746917645e-13
	6.264221327851790e-01
	2.500680109881619e-05
	8.356240831231407e-02
	-4.334862743378409e-03
	2.397800639929185e-01
	-2.415904280777415e-01
4		8.000000000000000e-02
	6.264221327865833e-01
	5.000000000000000e+00
	7.083642009981267e-01
	0.000000000000000e+00
	8.356239534031829e-02
	1.156108292373305e-02
	2.500680108602446e-05
	8.001441402090501e-02
	5.000000000000000e+00
	6.415162030678622e-01
	9.073375396946567e-01
	1.720387436911599e+00
	6.477556432853446e-01
	1.430988381560304e+00
	2.127193764431934e+00
	4.998442194362029e+00
	8.555201210653293e-02
	4.058991089255806e-03
	1.467412705620447e-10
	8.356239534013510e-02
	4.058991089266160e-03
	4.458953260857252e-15
	4.998423867247207e+00
	4.998442194351697e+00
	1.436041443361140e+00
	6.467319900191610e-01
	4.768928492444282e+00
	1.720337832130281e+00
	1.295764746788204e-13
	6.264221327851780e-01
	2.500680109883693e-05
	8.356239534013510e-02
	-4.334862743378243e-03
	2.397800639928334e-01
	-2.415904280776563e-01
5		1.600000000000000e-01
	6.264221327865847e-01
	5.000000000000000e+00
	7.083642009981276e-01
	0.000000000000000e+00
	8.356236558748983e-02
	1.156108292373692e-02
	2.500680108600690e-05
	8.001441402090334e-02
	5.000000000000000e+00
	6.415162030678591e-01
	9.073375396946850e-01
	1.720387436911638e+00
	6.477556432853415e-01
	1.430988381560296e+00
	2.127193764431925e+00
	4.998442194362116e+00
	8.555201210653543e-02
	4.058991089255677e-03
	1.467446009463170e-10
	8.356236558730666e-02
	4.058991089266031e-03
	4.458953261012892e-15
	4.998423867247295e+00
	4.998442194351784e+00
	1.436041443361132e+00
	6.467319900191580e-01
	4.768928492444241e+00
	1.720337832130320e+00
	1.295764746915092e-13
	6.264221327851794e-01
	2.500680109881937e-05
	8.356236558730666e-02
	-4.334862743378132e-03
	2.397800639928763e-01
	-2.415904280776962e-01
6		3.200000000000000e-01
	6.264221327865834e-01
	5.000000000000000e+00
	7.083642009981276e-01
	0.000000000000000e+00
	8.356230596211058e-02
	1.156108292373251e-02
	2.500680108610895e-05
	8.001441402089816e-02
	5.000000000000000e+00
	6.415162030678534e-01
	9.073375396946322e-01
	1.720387436911572e+00
	6.477556432853356e-01
	1.430988381560287e+00
	2.127193764431914e+00
	4.998442194362097e+00
	8.555201210653353e-02
	4.058991089255603e-03
	1.467411102119762e-10
	8.356230596192739e-02
	4.058991089265956e-03
	4.458953260801258e-15
	4.998423867247276e+00
	4.998442194351766e+00
	1.436041443361123e+00
	6.467319900191522e-01
	4.768928492444317e+00
	1.720337832130254e+00
	1.295764746785716e-13
	6.264221327851781e-01
	2.500680109892142e-05
	8.356230596192739e-02
	-4.334862743377771e-03
	2.397800639927961e-01
	-2.415904280776216e-01
7		6.400000000000000e-01
	6.264221327865847e-01
	5.000000000000000e+00
	7.083642009981274e-01
	0.000000000000000e+00
	8.356225398957759e-02
	1.156108292374140e-02
	2.500680108602134e-05
	8.001441402090798e-02
	5.000000000000000e+00
	6.415162030678648e-01
	9.073375396947043e-01
	1.720387436911660e+00
	6.477556432853475e-01
	1.430988381560309e+00
	2.127193764431941e+00
	4.998442194361989e+00
	8.555201210653679e-02
	4.058991089255803e-03
	1.467491629189712e-10
	8.356225398939442e-02
	4.058991089266157e-03
	4.458953261024258e-15
	4.998423867247166e+00
	4.998442194351656e+00
	1.436041443361146e+00
	6.467319900191639e-01
	4.768928492444208e+00
	1.720337832130342e+00
	1.295764746924172e-13
	6.264221327851793e-01
	2.500680109883380e-05
	8.356225398939442e-02
	-4.334862743378437e-03
	2.397800639929055e-01
	-2.415904280777308e-01
8		1.280000000000000e+00
	6.264221327865842e-01
	5.000000000000000e+00
	7.083642009981276e-01
	0.000000000000000e+00
	8.356222000098436e-02
	1.156108292373445e-02
	2.500680108606059e-05
	8.001441402090351e-02
	5.000000000000000e+00
	6.415162030678599e-01
	9.073375396946985e-01
	1.720387436911657e+00
	6.477556432853424e-01
	1.430988381560299e+00
	2.127193764431928e+00
	4.998442194362044e+00
	8.555201210653299e-02
	4.058991089255701e-03
	1.467434371548290e-10
	8.356222000080119e-02
	4.058991089266054e-03
	4.458953260803159e-15
	4.998423867247222e+00
	4.998442194351711e+00
	1.436041443361135e+00
	6.467319900191588e-01
	4.768928492444218e+00
	1.720337832130339e+00
	1.295764746780300e-13
	6.264221327851787e-01
	2.500680109887305e-05
	8.356222000080119e-02
	-4.334862743377965e-03
	2.397800639928961e-01
	-2.415904280777220e-01
9		2.560000000000000e+00
	6.264221327865832e-01
	5.000000000000000e+00
	7.083642009981278e-01
	0.000000000000000e+00
	8.356221409291124e-02
	1.156108292374218e-02
	2.500680108599716e-05
	8.001441402090363e-02
	5.000000000000000e+00
	6.415162030678604e-01
	9.073375396946773e-01
	1.720387436911626e+00
	6.477556432853426e-01
	1.430988381560303e+00
	2.127193764431933e+00
	4.998442194362108e+00
	8.555201210653447e-02
	4.058991089255734e-03
	1.467501923793159e-10
	8.356221409272808e-02
	4.058991089266087e-03
	4.458953261026149e-15
	4.998423867247286e+00
	4.998442194351776e+00
	1.436041443361139e+00
	6.467319900191590e-01
	4.768928492444250e+00
	1.720337832130308e+00
	1.295764746925177e-13
	6.264221327851777e-01
	2.500680109880963e-05
	8.356221409272808e-02
	-4.334862743378243e-03
	2.397800639928653e-01
	-2.415904280776882e-01
10		4.560000000000000e+00
	6.264221327865855e-01
	5.000000000000000e+00
	7.083642009981271e-01
	0.000000000000000e+00
	8.356260180329791e-02
	1.156108292374280e-02
	2.500680108601853e-05
	8.001441402090329e-02
	5.000000000000000e+00
	6.415162030678598e-01
	9.073375396947858e-01
	1.720387436911763e+00
	6.477556432853420e-01
	1.430988381560302e+00
	2.127193764431933e+00
	4.998442194362054e+00
	8.555201210653732e-02
	4.058991089255770e-03
	1.467485257352596e-10
	8.356260180311474e-02
	4.058991089266124e-03
	4.458953260804856e-15
	4.998423867247233e+00
	4.998442194351724e+00
	1.436041443361138e+00
	6.467319900191585e-01
	4.768928492444088e+00
	1.720337832130445e+00
	1.295764746780286e-13
	6.264221327851802e-01
	2.500680109883099e-05
	8.356260180311474e-02
	-4.334862743378215e-03
	2.397800639930274e-01
	-2.415904280778489e-01
11		6.560000000000000e+00
	6.264221327865817e-01
	5.000000000000000e+00
	7.083642009981286e-01
	0.000000000000000e+00
	8.356273885324261e-02
	1.156108292374293e-02
	2.500680108601869e-05
	8.001441402090625e-02
	5.000000000000000e+00
	6.415162030678634e-01
	9.073375396947354e-01
	1.720387436911698e+00
	6.477556432853460e-01
	1.430988381560308e+00
	2.127193764431938e+00
	4.998442194362054e+00
	8.555201210653544e-02
	4.058991089255714e-03
	1.467482085524758e-10
	8.356273885305944e-02
	4.058991089266067e-03
	4.458953261024837e-15
	4.998423867247233e+00
	4.998442194351724e+00
	1.436041443361144e+00
	6.467319900191625e-01
	4.768928492444163e+00
	1.720337832130380e+00
	1.295764746925531e-13
	6.264221327851762e-01
	2.500680109883115e-05
	8.356273885305944e-02
	-4.334862743378243e-03
	2.397800639929514e-01
	-2.415904280777743e-01
12		8.560000000000000e+00
	6.264221327865847e-01
	5.000000000000000e+00
	7.083642009981274e-01
	0.000000000000000e+00
	8.356281360252507e-02
	1.156108292374360e-02
	2.500680108601853e-05
	8.001441402090471e-02
	5.000000000000000e+00
	6.415162030678612e-01
	9.073375396947936e-01
	1.720387436911772e+00
	6.477556432853437e-01
	1.430988381560296e+00
	2.127193764431925e+00
	4.998442194362054e+00
	8.555201210653736e-02
	4.058991089255754e-03
	1.467481632966050e-10
	8.356281360234190e-02
	4.058991089266108e-03
	4.458953260804514e-15
	4.998423867247233e+00
	4.998442194351724e+00
	1.436041443361132e+00
	6.467319900191603e-01
	4.768928492444076e+00
	1.720337832130454e+00
	1.295764746779963e-13
	6.264221327851792e-01
	2.500680109883099e-05
	8.356281360234190e-02
	-4.334862743378048e-03
	2.397800639930402e-01
	-2.415904280778614e-01
13		1.056000000000000e+01
	6.264221327865833e-01
	5.000000000000000e+00
	7.083642009981270e-01
	0.000000000000000e+00
	8.356286491708184e-02
	1.156108292374376e-02
	2.500680108601869e-05
	8.001441402090441e-02
	5.000000000000000e+00
	6.415162030678609e-01
	9.073375396946713e-01
	1.720387436911622e+00
	6.477556432853434e-01
	1.430988381560301e+00
	2.127193764431931e+00
	4.998442194362054e+00
	8.555201210653647e-02
	4.058991089255799e-03
	1.467481467004275e-10
	8.356286491689867e-02
	4.058991089266153e-03
	4.458953261025599e-15
	4.998423867247233e+00
	4.998442194351724e+00
	1.436041443361137e+00
	6.467319900191598e-01
	4.768928492444259e+00
	1.720337832130304e+00
	1.295764746925582e-13
	6.264221327851779e-01
	2.500680109883115e-05
	8.356286491689867e-02
	-4.334862743378215e-03
	2.397800639928546e-01
	-2.415904280776776e-01
14		1.256000000000000e+01
	6.264221327865853e-01
	5.000000000000000e+00
	7.083642009981286e-01
	0.000000000000000e+00
	8.356290465726145e-02
	1.156108292374429e-02
	2.500680108601853e-05
	8.001441402090591e-02
	5.000000000000000e+00
	6.415162030678629e-01
	9.073375396947634e-01
	1.720387436911735e+00
	6.477556432853453e-01
	1.430988381560305e+00
	2.127193764431936e+00
	4.998442194362054e+00
	8.555201210653832e-02
	4.058991089255714e-03
	1.467481789703795e-10
	8.356290465707827e-02
	4.058991089266067e-03
	4.458953260804663e-15
	4.998423867247233e+00
	4.998442194351724e+00
	1.436041443361141e+00
	6.467319900191618e-01
	4.768928492444121e+00
	1.720337832130417e+00
	1.295764746780109e-13
	6.264221327851799e-01
	2.500680109883099e-05
	8.356290465707827e-02
	-4.334862743378298e-03
	2.397800639929943e-01
	-2.415904280778161e-01
15		1.456000000000000e+01
	6.264221327865848e-01
	5.000000000000000e+00
	7.083642009981276e-01
	0.000000000000000e+00
	8.356291785058147e-02
	1.156108292374390e-02
	2.500680108601869e-05
	8.001441402090170e-02
	5.000000000000000e+00
	6.415162030678574e-01
	9.073375396948082e-01
	1.720387436911792e+00
	6.477556432853397e-01
	1.430988381560293e+00
	2.127193764431922e+00
	4.998442194362054e+00
	8.555201210653703e-02
	4.058991089255636e-03
	1.467479323556108e-10
	8.356291785039829e-02
	4.058991089265989e-03
	4.458953261023453e-15
	4.998423867247233e+00
	4.998442194351724e+00
	1.436041443361129e+00
	6.467319900191563e-01
	4.768928492444052e+00
	1.720337832130474e+00
	1.295764746925080e-13
	6.264221327851793e-01
	2.500680109883115e-05
	8.356291785039829e-02
	-4.334862743378021e-03
	2.397800639930611e-01
	-2.415904280778853e-01
16		1.656000000000000e+01
	6.264221327865840e-01
	5.000000000000000e+00
	7.083642009981285e-01
	0.000000000000000e+00
	8.356292886264946e-02
	1.156108292374417e-02
	2.500680108601853e-05
	8.001441402090705e-02
	5.000000000000000e+00
	6.415162030678641e-01
	9.073375396947033e-01
	1.720387436911661e+00
	6.477556432853466e-01
	1.430988381560306e+00
	2.127193764431937e+00
	4.998442194362054e+00
	8.555201210653682e-02
	4.058991089255662e-03
	1.467481932351853e-10
	8.356292886246629e-02
	4.058991089266015e-03
	4.458953260807266e-15
	4.998423867247233e+00
	4.998442194351724e+00
	1.436041443361142e+00
	6.467319900191630e-01
	4.768928492444210e+00
	1.720337832130342e+00
	1.295764746780872e-13
	6.264221327851786e-01
	2.500680109883099e-05
	8.356292886246629e-02
	-4.334862743378382e-03
	2.397800639929039e-01
	-2.415904280777273e-01
17		1.856000000000000e+01
	6.264221327865817e-01
	5.000000000000000e+00
	7.083642009981272e-01
	0.000000000000000e+00
	8.356295705485797e-02
	1.156108292374418e-02
	2.500680108601868e-05
	8.001441402090417e-02
	5.000000000000000e+00
	6.415162030678607e-01
	9.073375396946772e-01
	1.720387436911630e+00
	6.477556432853429e-01
	1.430988381560301e+00
	2.127193764431930e+00
	4.998442194362054e+00
	8.555201210653571e-02
	4.058991089255851e-03
	1.467481890049585e-10
	8.356295705467480e-02
	4.058991089266205e-03
	4.458953261024995e-15
	4.998423867247233e+00
	4.998442194351724e+00
	1.436041443361137e+00
	6.467319900191594e-01
	4.768928492444251e+00
	1.720337832130311e+00
	1.295764746924506e-13
	6.264221327851762e-01
	2.500680109883115e-05
	8.356295705467480e-02
	-4.334862743378021e-03
	2.397800639928631e-01
	-2.415904280776855e-01
18		2.056000000000000e+01
	6.264221327865809e-01
	5.000000000000000e+00
	7.083642009981270e-01
	0.000000000000000e+00
	8.356296259837648e-02
	1.156108292374375e-02
	2.500680108601853e-05
	8.001441402090384e-02
	5.000000000000000e+00
	6.415162030678602e-01
	9.073375396947683e-01
	1.720387436911742e+00
	6.477556432853426e-01
	1.430988381560298e+00
	2.127193764431927e+00
	4.998442194362054e+00
	8.555201210653397e-02
	4.058991089255751e-03
	1.467479920234805e-10
	8.356296259819330e-02
	4.058991089266105e-03
	4.458953260807123e-15
	4.998423867247233e+00
	4.998442194351724e+00
	1.436041443361134e+00
	6.467319900191592e-01
	4.768928492444115e+00
	1.720337832130424e+00
	1.295764746780991e-13
	6.264221327851754e-01
	2.500680109883099e-05
	8.356296259819330e-02
	-4.334862743377993e-03
	2.397800639930009e-01
	-2.415904280778223e-01
19		2.256000000000000e+01
	6.264221327865837e-01
	5.000000000000000e+00
	7.083642009981278e-01
	0.000000000000000e+00
	8.356294914685432e-02
	1.156108292374393e-02
	2.500680108601869e-05
	8.001441402090531e-02
	5.000000000000000e+00
	6.415162030678623e-01
	9.073375396946699e-01
	1.720387436911619e+00
	6.477556432853445e-01
	1.430988381560303e+00
	2.127193764431933e+00
	4.998442194362054e+00
	8.555201210653622e-02
	4.058991089255681e-03
	1.467479621347966e-10
	8.356294914667114e-02
	4.058991089266035e-03
	4.458953261021844e-15
	4.998423867247233e+00
	4.998442194351724e+00
	1.436041443361139e+00
	6.467319900191610e-01
	4.768928492444261e+00
	1.720337832130300e+00
	1.295764746924662e-13
	6.264221327851782e-01
	2.500680109883115e-05
	8.356294914667114e-02
	-4.334862743378132e-03
	2.397800639928530e-01
	-2.415904280776758e-01
20		2.456000000000000e+01
	6.264221327865839e-01
	5.000000000000000e+00
	7.083642009981275e-01
	0.000000000000000e+00
	8.356295377932632e-02
	1.156108292374441e-02
	2.500680108601853e-05
	8.001441402090384e-02
	5.000000000000000e+00
	6.415162030678604e-01
	9.073375396946750e-01
	1.720387436911625e+00
	6.477556432853429e-01
	1.430988381560296e+00
	2.127193764431925e+00
	4.998442194362054e+00
	8.555201210653761e-02
	4.058991089255714e-03
	1.467481817678464e-10
	8.356295377914315e-02
	4.058991089266067e-03
	4.458953260809164e-15
	4.998423867247233e+00
	4.998442194351724e+00
	1.436041443361132e+00
	6.467319900191593e-01
	4.768928492444254e+00
	1.720337832130306e+00
	1.295764746780789e-13
	6.264221327851784e-01
	2.500680109883099e-05
	8.356295377914315e-02
	-4.334862743378021e-03
	2.397800639928617e-01
	-2.415904280776829e-01
21		2.656000000000000e+01
	6.264221327865807e-01
	5.000000000000000e+00
	7.083642009981271e-01
	0.000000000000000e+00
	8.356295497593752e-02
	1.156108292374371e-02
	2.500680108601869e-05
	8.001441402090684e-02
	5.000000000000000e+00
	6.415162030678643e-01
	9.073375396947989e-01
	1.720387436911783e+00
	6.477556432853468e-01
	1.430988381560305e+00
	2.127193764431935e+00
	4.998442194362056e+00
	8.555201210653467e-02
	4.058991089255731e-03
	1.467479327524150e-10
	8.356295497575435e-02
	4.058991089266085e-03
	4.458953261020576e-15
	4.998423867247234e+00
	4.998442194351725e+00
	1.436041443361141e+00
	6.467319900191633e-01
	4.768928492444065e+00
	1.720337832130464e+00
	1.295764746925030e-13
	6.264221327851752e-01
	2.500680109883115e-05
	8.356295497575435e-02
	-4.334862743378159e-03
	2.397800639930472e-01
	-2.415904280778720e-01
22		2.856000000000000e+01
	6.264221327865833e-01
	5.000000000000000e+00
	7.083642009981268e-01
	0.000000000000000e+00
	8.356293737587865e-02
	1.156108292374381e-02
	2.500680108601853e-05
	8.001441402090383e-02
	5.000000000000000e+00
	6.415162030678604e-01
	9.073375396946842e-01
	1.720387436911636e+00
	6.477556432853429e-01
	1.430988381560301e+00
	2.127193764431930e+00
	4.998442194362054e+00
	8.555201210653608e-02
	4.058991089255715e-03
	1.467479434958667e-10
	8.356293737569548e-02
