Title: kicad schematic
Date: Tue Jun 30 03:02:24  2026
Plotname: Transient Analysis
Flags: real
No. Variables: 19
No. Points: 62      
Variables:
	0	time	time
	1	v(unconnected-_x1-pad11_)	voltage
	2	v(unconnected-_x1-pad9_)	voltage
	3	v(unconnected-_x1-pad2_)	voltage
	4	v(unconnected-_x1-pad12_)	voltage
	5	v(unconnected-_x1-pad1_)	voltage
	6	v(net-_r2-pad1_)	voltage
	7	v(inp)	voltage
	8	v(unconnected-_x1-pad5_)	voltage
	9	v(unconnected-_x1-pad3_)	voltage
	10	v(unconnected-_x1-pad4_)	voltage
	11	v(net-_r2-pad2_)	voltage
	12	v(net-_r3-pad2_)	voltage
	13	v(q.x1.q4#collCX)	voltage
	14	v(q.x1.q2#collCX)	voltage
	15	v(q.x1.q3#collCX)	voltage
	16	v(q.x1.q1#collCX)	voltage
	17	i(v1)	current
	18	i(v2)	current
Values:
0		0.000000000000000e+00
	-8.906588844826828e-19
	-9.634240766327444e-19
	-2.764955628004254e-18
	8.906891935607769e-19
	-1.296670327891893e-17
	1.199999997598291e+01
	6.001176213384084e-07
	-7.778863627492473e-23
	-2.097532628882890e-17
	-7.024841640359115e-17
	1.200000000000000e+01
	0.000000000000000e+00
	-7.778863627492473e-23
	1.199999997595890e+01
	8.906891935607769e-19
	-8.906588844826828e-19
	6.001176213384084e-12
	-2.401708519561563e-11
1		5.000000000000001e-06
	-8.907000877768335e-19
	-9.634658397116099e-19
	-2.764997184174157e-18
	8.906388994185362e-19
	-1.296673998227818e-17
	1.200000172192564e+01
	3.147658345548532e-03
	-1.259663592671707e-22
	-2.097533162102339e-17
	-7.024839642115780e-17
	1.200000000000000e+01
	7.853978404154395e-03
	-1.259663592671707e-22
	1.200000172364756e+01
	8.906388994185362e-19
	-8.907000877768335e-19
	-4.706320058605864e-08
	1.721925640268962e-09
2		6.538793275149749e-06
	-8.906516906374968e-19
	-9.634177871388569e-19
	-2.764949004249165e-18
	8.906817009415683e-19
	-1.296668881536397e-17
	1.200000196100294e+01
	4.248302851128094e-03
	-2.513069813131232e-24
	-2.097518179554296e-17
	-7.024823101408447e-17
	1.200000000000000e+01
	1.027110523455310e-02
	-2.513069813131232e-24
	1.200000196296394e+01
	8.906817009415683e-19
	-8.906516906374968e-19
	-6.022802383425003e-08
	1.961002934688927e-09
3		9.616379825449244e-06
	-8.906446964893868e-19
	-9.634116544102527e-19
	-2.764942553141399e-18
	8.906747060343757e-19
	-1.296667489678355e-17
	1.200000217572873e+01
	6.568229005580073e-03
	-2.495167111006794e-24
	-2.097511584716344e-17
	-7.024812611172481e-17
	1.200000000000000e+01
	1.510535112936831e-02
	-2.495167111006794e-24
	1.200000217790446e+01
	8.906747060343757e-19
	-8.906446964893868e-19
	-8.537122123788243e-08
	2.175728727391024e-09
4		1.577155292604823e-05
	-8.906277014048818e-19
	-9.633967267072223e-19
	-2.764926861319716e-18
	8.906581274478786e-19
	-1.296664128303104e-17
	1.200000214716778e+01
	1.141350483521775e-02
	7.606689185784557e-23
	-2.097487905200007e-17
	-7.024779582702757e-17
	1.200000000000000e+01
	2.477379603834394e-02
	7.606689185784557e-23
	1.200000214931495e+01
	8.906581274478786e-19
	-8.906277014048818e-19
	-1.336029120312620e-07
	2.147167783850268e-09
5		2.808189912724622e-05
	-8.906224383742430e-19
	-9.633962874936803e-19
	-2.764924639140396e-18
	8.905850522057763e-19
	-1.296659724303240e-17
	1.200000216160296e+01
	2.107094231283840e-02
	-1.690831893228339e-22
	-2.097475499211010e-17
	-7.024745362499214e-17
	1.200000000000000e+01
	4.411037180080431e-02
	-1.690831893228339e-22
	1.200000216376456e+01
	8.905850522057763e-19
	-8.906224383742430e-19
	-2.303942948796590e-07
	2.161602957392872e-09
6		5.270259152964217e-05
	-8.905607603645669e-19
	-9.633456350813251e-19
	-2.764869911296687e-18
	8.904676725237325e-19
	-1.296644693169477e-17
	1.200000215256689e+01
	4.040229293278126e-02
	-1.329063545204792e-22
	-2.097387490925577e-17
	-7.024607493200374e-17
	1.200000000000000e+01
	8.278125486677960e-02
	-1.329063545204792e-22
	1.200000215471946e+01
	8.904676725237325e-19
	-8.905607603645669e-19
	-4.237896193399835e-07
	2.152566890359364e-09
7		1.019439763344341e-04
	-8.902920028544407e-19
	-9.631016840116857e-19
	-2.764616790196504e-18
	8.903335547216821e-19
	-1.296597874816319e-17
	1.200000216216358e+01
	7.904215140139190e-02
	3.482460438608744e-22
	-2.097149497778692e-17
	-7.024257312996907e-17
	1.200000000000000e+01
	1.601058500349493e-01
	3.482460438608744e-22
	1.200000216432575e+01
	8.903335547216821e-19
	-8.902920028544407e-19
	-8.106369863355746e-07
	2.162163583591115e-09
8		2.004267459440179e-04
	-8.898701393263214e-19
	-9.627349402778347e-19
	-2.764229667022892e-18
	8.898601620116155e-19
	-1.296511371041465e-17
	1.200000214928258e+01
	1.562632591196467e-01
	-8.570069815876558e-23
	-2.096770946507212e-17
	-7.023629458163971e-17
	1.200000000000000e+01
	3.146216030394193e-01
	-8.570069815876558e-23
	1.200000215143186e+01
	8.898601620116155e-19
	-8.898701393263214e-19
	-1.583583439197726e-06
	2.149282581770384e-09
9		3.973922851631856e-04
	-8.888978192423306e-19
	-9.618838598102370e-19
	-2.763333745091600e-18
	8.888630151071126e-19
	-1.296316638503651e-17
	1.199999948347815e+01
	3.101416900855867e-01
	-1.965144571121320e-22
	-2.095853768943872e-17
	-7.022163817249136e-17
	1.200000000000000e+01
	6.226020687682958e-01
	-1.965144571121320e-22
	1.199999948296163e+01
	8.888630151071126e-19
	-8.888978192423306e-19
	-3.124603786827092e-06
	-5.165218513319969e-10
10		7.913233636015211e-04
	-8.863846928307578e-19
	-9.596790033477208e-19
	-2.761014651292533e-18
	8.863643086613543e-19
	-1.295817111034938e-17
	1.190264913132461e+01
	5.819078853024049e-01
	-1.852036212180972e-22
	-2.093490101675240e-17
	-7.018404123274398e-17
	1.200000000000000e+01
	1.230243791308943e+00
	-1.852036212180972e-22
	1.190255178045593e+01
	8.863643086613543e-19
	-8.863846928307578e-19
	-6.483359060065386e-06
	-9.735086867538982e-05
11		1.215992312555425e-03
	-8.828492390708817e-19
	-9.565699738266159e-19
	-2.757747044693462e-18
	8.829564634734685e-19
	-1.295119449267767e-17
	1.078383370204802e+01
	6.476964771335285e-01
	2.196889893606511e-22
	-2.090175759999382e-17
	-7.013154980025894e-17
	1.200000000000000e+01
	1.863956039179063e+00
	2.196889893606511e-22
	1.078261753575007e+01
	8.829564634734685e-19
	-8.828492390708817e-19
	-1.216259562045535e-05
	-1.216166297951978e-03
12		1.645547581481703e-03
	-8.786431515483781e-19
	-9.528898606373881e-19
	-2.753870544844053e-18
	8.785833951848909e-19
	-1.294273299128183e-17
	9.394719287173640e+00
	6.680167202510373e-01
	8.304314626141629e-23
	-2.086143044292125e-17
	-7.006730503130157e-17
	1.200000000000000e+01
	2.471215848528913e+00
	8.304314626141629e-23
	9.392114006460814e+00
	8.785833951848909e-19
	-8.786431515483781e-19
	-1.803199128277876e-05
	-2.605280712826360e-03
13		2.239771178287654e-03
	-8.721443824547824e-19
	-9.471835444743531e-19
	-2.747867494540475e-18
	8.721403817893197e-19
	-1.292981111189718e-17
	7.560390904911518e+00
	6.827410366097544e-01
	-1.687072512058151e-22
	-2.080062909597491e-17
	-6.997041168447004e-17
	1.200000000000000e+01
	3.235005753018690e+00
	-1.687072512058151e-22
	7.555951295816429e+00
	8.721403817893197e-19
	-8.721443824547824e-19
	-2.552264716408936e-05
	-4.439609095088482e-03
14		3.239771178287654e-03
	-8.603626244178873e-19
	-9.368427063931285e-19
	-2.736984603791942e-18
	8.603427443548323e-19
	-1.290631568609263e-17
	5.133608063619809e+00
	6.950931206837844e-01
	-2.163101486545073e-22
	-2.068940270851296e-17
	-6.979339213433446e-17
	1.200000000000000e+01
	4.254783633251586e+00
	-2.163101486545073e-22
	5.126741671683428e+00
	8.603427443548323e-19
	-8.603626244178873e-19
	-3.559690512567802e-05
	-6.866391936380192e-03
15		4.239771178287654e-03
	-8.476766052310515e-19
	-9.257029851268370e-19
	-2.725259591841912e-18
	8.476568625217972e-19
	-1.288100969849934e-17
	3.729030387160130e+00
	7.004748469806471e-01
	-2.150582570186670e-22
	-2.056961418775507e-17
	-6.960275858595299e-17
	1.200000000000000e+01
	4.858073646641091e+00
	-2.150582570186670e-22
	3.720759417547290e+00
	8.476568625217972e-19
	-8.476766052310515e-19
	-4.157598799660444e-05
	-8.270969612839869e-03
16		5.239771178287654e-03
	-8.340983827424320e-19
	-9.137743541110768e-19
	-2.712701843778958e-18
	8.340787870816202e-19
	-1.285390319513681e-17
	3.440206263833343e+00
	7.014908476289229e-01
	-2.137169356763496e-22
	-2.044132985715192e-17
	-6.939858081065226e-17
	1.200000000000000e+01
	4.985821563307951e+00
	-2.137169356763496e-22
	3.431646470097176e+00
	8.340787870816202e-19
	-8.340983827424320e-19
	-4.284330715679029e-05
	-8.559793736166657e-03
17		6.239771178287654e-03
	-8.196322765276426e-19
	-9.010589131384271e-19
	-2.699312832727056e-18
	8.196128376275142e-19
	-1.282499835399296e-17
	4.261240741210332e+00
	6.984933861118022e-01
	-2.122866749939711e-22
	-2.030456843553224e-17
	-6.918088120432203e-17
	1.200000000000000e+01
	4.625522527096741e+00
	-2.122866749939711e-22
	4.253501981951541e+00
	8.196128376275142e-19
	-8.196322765276426e-19
	-3.927029140984938e-05
	-7.738759258789668e-03
18		7.239771178287654e-03
	-8.042828701495116e-19
	-8.875588915678241e-19
	-2.685094123293412e-18
	8.042635976377539e-19
	-1.279429748843790e-17
	6.173474407582969e+00
	6.902678968384023e-01
	-2.107730285707930e-22
	-2.015978555739238e-17
	-6.895026432260858e-17
	1.200000000000000e+01
	3.812445118022813e+00
	-2.107730285707930e-22
	6.167647881990550e+00
	8.042635976377539e-19
	-8.042828701495116e-19
	-3.122177221184412e-05
	-5.826525592417031e-03
19		8.239771178287654e-03
	-7.880550095491402e-19
	-8.732766477194447e-19
	-2.670047371215447e-18
	7.880359132754121e-19
	-1.276180304683502e-17
	9.016306217966847e+00
	6.717268514697997e-01
	-2.091757175660558e-22
	-2.000700212821183e-17
	-6.870689985127025e-17
	1.200000000000000e+01
	2.626179017929744e+00
	-2.091757175660558e-22
	9.013322524184813e+00
	7.880359132754121e-19
	-7.880550095491402e-19
	-1.954452166459944e-05
	-2.983693782033154e-03
20		9.239771178287655e-03
	-7.696442708200682e-19
	-8.570453075968272e-19
	-2.652935051171212e-18
	7.696253746826332e-19
	-1.272483137705206e-17
	1.193842711161959e+01
	5.700046877159374e-01
	-2.073699265646057e-22
	-1.983427437745587e-17
	-6.843173469297553e-17
	1.200000000000000e+01
	1.182844217896564e+00
	-2.073699265646057e-22
	1.193836553873120e+01
	7.696253746826332e-19
	-7.696442708200682e-19
	-6.128395301806263e-06
	-6.157288838041369e-05
21		1.023977117828766e-02
	-7.503663342382138e-19
	-8.400372336424055e-19
	-2.634998546741645e-18
	7.503476480390354e-19
	-1.268607183762888e-17
	1.200000662565347e+01
	-1.863007980609629e-01
	-2.054810293256355e-22
	-1.965359444661631e-17
	-6.814387983880431e-17
	1.200000000000000e+01
	-3.762756155445989e-01
	-2.054810293256355e-22
	1.200000663227912e+01
	7.503476480390354e-19
	-7.503663342382138e-19
	1.899748174836361e-06
	6.625653466846293e-09
22		1.123977117828766e-02
	-7.306577743891703e-19
	-8.226422449847075e-19
	-2.616650971623323e-18
	7.306393026713535e-19
	-1.264641987427186e-17
	1.199998915052496e+01
	-9.495398640197816e-01
	-2.035506619153969e-22
	-1.946895119735401e-17
	-6.784969542356204e-17
	1.200000000000000e+01
	-1.898562970069887e+00
	-2.035506619153969e-22
	1.199998913967548e+01
	7.306393026713535e-19
	-7.306577743891703e-19
	9.490231060501057e-06
	-1.084947504059741e-08
23		1.223977117828766e-02
	-7.105215980737855e-19
	-8.048618092111516e-19
	-2.597893358194822e-18
	7.105033458225495e-19
	-1.260587701419197e-17
	1.200000721710824e+01
	-1.616053208919916e+00
	-2.015786335435658e-22
	-1.928035753530752e-17
	-6.754919689468609e-17
	1.200000000000000e+01
	-3.235005753018694e+00
	-2.015786335435658e-22
	1.200000722432534e+01
	7.105033458225495e-19
	-7.105215980737855e-19
	1.618952544098778e-05
	7.217108237422831e-09
24		1.323977117828766e-02
	-6.899608759717274e-19
	-7.866974259562667e-19
	-2.578726761806695e-18
	6.899428478579110e-19
	-1.256444481848298e-17
	1.199999001716575e+01
	-2.127997690084410e+00
	-1.995659312199647e-22
	-1.908782663672595e-17
	-6.724240002409479e-17
	1.200000000000000e+01
	-4.254783633251591e+00
	-1.995659312199647e-22
	1.199999000718292e+01
	6.899428478579110e-19
	-6.899608759717274e-19
	2.126785943167182e-05
	-9.982834246746730e-09
25		1.423977117828766e-02
	-6.689787416001825e-19
	-7.681506261844994e-19
	-2.559152260145755e-18
	6.689609423981265e-19
	-1.252212488147401e-17
	1.200000835192194e+01
	-2.427955001942382e+00
	-1.975119201950616e-22
	-1.889137194474936e-17
	-6.692932090393191e-17
	1.200000000000000e+01
	-4.858073646641092e+00
	-1.975119201950616e-22
	1.200000836027386e+01
	6.689609423981265e-19
	-6.689787416001825e-19
	2.430118644698711e-05
	8.351921942234553e-09
26		1.523977117828766e-02
	-6.475783911915314e-19
	-7.492229723984210e-19
	-2.539170953526384e-18
	6.475608255152365e-19
	-1.247891883100884e-17
	1.199999124490022e+01
	-2.493882539916264e+00
	-1.954171190925166e-22
	-1.869100717124560e-17
	-6.660997594881785e-17
	1.200000000000000e+01
	-4.985821563307950e+00
	-1.954171190925166e-22
	1.199999123614512e+01
	6.475608255152365e-19
	-6.475783911915314e-19
	2.491939023391686e-05
	-8.755099782306597e-09
27		1.623977117828766e-02
	-6.257630829216041e-19
	-7.299160582038668e-19
	-2.518783964540387e-18
	6.257457555599900e-19
	-1.243482832808359e-17
	1.200000964696715e+01
	-2.312059626671407e+00
	-1.932827376921574e-22
	-1.848687313063520e-17
	-6.628454489265031e-17
	1.200000000000000e+01
	-4.625522527096738e+00
	-1.932827376921574e-22
	1.200000965661412e+01
	6.257457555599900e-19
	-6.257630829216041e-19
	2.313462900425331e-05
	9.646967152193708e-09
28		1.723977117828766e-02
	-6.035361367011736e-19
	-7.102315084446246e-19
	-2.497992438277985e-18
	6.035190524080978e-19
	-1.238985506705521e-17
	1.199999242535622e+01
	-1.907557543161407e+00
	-1.911092159657466e-22
	-1.827898402916799e-17
	-6.595304474962214e-17
	1.200000000000000e+01
	-3.812445118022808e+00
	-1.911092159657466e-22
	1.199999241778158e+01
	6.035190524080978e-19
	-6.035361367011736e-19
	1.904887574861401e-05
	-7.574643776792067e-09
29		1.823977117828766e-02
	-5.809009336467669e-19
	-6.901709790226910e-19
	-2.476797542235976e-18
	5.808840970094355e-19
	-1.234400077553690e-17
	1.200001068851692e+01
	-1.312753140402692e+00
	-1.888964134713911e-22
	-1.806735436937404e-17
	-6.561549288246620e-17
	1.200000000000000e+01
	-2.626179017929736e+00
	-1.888964134713911e-22
	1.200001069920544e+01
	5.808840970094355e-19
	-5.809009336467669e-19
	1.313425877527044e-05
	1.068851691876649e-08
30		1.923977117828766e-02
	-5.578609153916162e-19
	-6.697361565648496e-19
	-2.455200466073776e-18
	5.578443310795200e-19
	-1.229726721414125e-17
	1.199999315618790e+01
	-5.931109593160933e-01
	-1.866450650484316e-22
	-1.785199886873808e-17
	-6.527190692154050e-17
	1.200000000000000e+01
	-1.182844217896553e+00
	-1.866450650484316e-22
	1.199999314934409e+01
	5.578443310795200e-19
	-5.578609153916162e-19
	5.897332585804603e-06
	-6.843812102100277e-09
31		2.023977117828766e-02
	-5.340183305442653e-19
	-6.485562135472373e-19
	-2.432801475836646e-18
	5.340020077598816e-19
	-1.224877873353302e-17
	1.200001108359769e+01
	1.880200153079262e-01
	-1.843161084372312e-22
	-1.762922196297581e-17
	-6.491628903199585e-17
	1.200000000000000e+01
	3.762756155446093e-01
	-1.843161084372312e-22
	1.200001109468129e+01
	5.340020077598816e-19
	-5.340183305442653e-19
	-1.882556002366831e-06
	1.108359769415312e-08
32		2.123977117828766e-02
	-5.077908490717892e-19
	-6.251521307265116e-19
	-2.408004680563178e-18
	5.077748156639133e-19
	-1.219503724753776e-17
	1.071528407790062e+01
	6.491477009339857e-01
	-1.817548615543338e-22
	-1.738427826130835e-17
	-6.452469213689702e-17
	1.200000000000000e+01
	1.898562970069895e+00
	-1.817548615543338e-22
	1.071399936197852e+01
	5.077748156639133e-19
	-5.077908490717892e-19
	-1.249415269135909e-05
	-1.284715922099380e-03
33		2.223977117828766e-02
	-4.792041194407857e-19
	-5.995365921412408e-19
	-2.380819080420999e-18
	4.791884027968150e-19
	-1.213605608982430e-17
	7.554726374729912e+00
	6.826418526098913e-01
	-1.789634503398198e-22
	-1.711727753554981e-17
	-6.409724787544055e-17
	1.200000000000000e+01
	3.235005753018702e+00
	-1.789634503398198e-22
	7.550281101104640e+00
	4.791884027968150e-19
	-4.792041194407857e-19
	-2.552363900408811e-05
	-4.445273625270089e-03
34		2.323977117828767e-02
	-4.494513771157984e-19
	-5.728220749642000e-19
	-2.352443875232275e-18
	4.494359909851266e-19
	-1.207446220586023e-17
	5.135635110385859e+00
	6.949901956620925e-01
	-1.760568879280053e-22
	-1.683930643855618e-17
	-6.365194970967379e-17
	1.200000000000000e+01
	4.254783633251595e+00
	-1.760568879280053e-22
	5.128770745496245e+00
	4.494359909851266e-19
	-4.494513771157984e-19
	-3.559793437589503e-05
	-6.864364889614141e-03
35		2.423977117828767e-02
	-4.189304786101959e-19
	-5.453794637541456e-19
	-2.323278841761595e-18
	4.189154321763339e-19
	-1.201113130903557e-17
	3.725773628776090e+00
	7.004857638685548e-01
	-1.730750581864044e-22
	-1.655406109447666e-17
	-6.319479613653552e-17
	1.200000000000000e+01
	4.858073646641095e+00
	-1.730750581864044e-22
	3.717499402404866e+00
	4.189154321763339e-19
	-4.189304786101959e-19
	-4.157587882772540e-05
	-8.274226371223910e-03
36		2.523977117828767e-02
	-3.876507791828076e-19
	-5.172134059354164e-19
	-2.293327287352343e-18
	3.876360814557771e-19
	-1.194606830176686e-17
	3.443425568378037e+00
	7.014799213182261e-01
	-1.700171096937444e-22
	-1.626158149282660e-17
	-6.272583516342374e-17
	1.200000000000000e+01
	4.985821563307949e+00
	-1.700171096937444e-22
	3.434868993946415e+00
	3.876360814557771e-19
	-3.876507791828076e-19
	-4.284341641989723e-05
	-8.556574431621963e-03
37		2.623977117828767e-02
	-3.556218591209666e-19
	-4.883286672250736e-19
	-2.262592606527476e-18
	3.556075190181380e-19
	-1.187927821653319e-17
	4.257984331164121e+00
	6.985056328957683e-01
	-1.668836852145070e-22
	-1.596190869091481e-17
	-6.224511607244047e-17
	1.200000000000000e+01
	4.625522527096734e+00
	-1.668836852145070e-22
	4.250242315495284e+00
	3.556075190181380e-19
	-3.556218591209666e-19
	-3.927016894200966e-05
	-7.742015668835880e-03
38		2.723977117828767e-02
	-3.228535209020676e-19
	-4.587301308095660e-19
	-2.231078280675254e-18
	3.228395473217207e-19
	-1.181076621548563e-17
	6.176816661652715e+00
	6.902517689782249e-01
	-1.636787087431317e-22
	-1.565533830814277e-17
	-6.175301524146838e-17
	1.200000000000000e+01
	3.812445118022800e+00
	-1.636787087431317e-22
	6.170993478314367e+00
	3.228395473217207e-19
	-3.228535209020676e-19
	-3.122193349044575e-05
	-5.823183338347285e-03
39		2.823977117828767e-02
	-2.893557862595603e-19
	-4.284227964698914e-19
	-2.198787877694786e-18
	2.893421882110173e-19
	-1.174053759001451e-17
	9.012949716631645e+00
	6.717560254154276e-01
	-1.604018232091253e-22
	-1.534191324218221e-17
	-6.124958420001821e-17
	1.200000000000000e+01
	2.626179017929726e+00
	-1.604018232091253e-22
	9.009962666348276e+00
	2.893421882110173e-19
	-2.893557862595603e-19
	-1.954422992514299e-05
	-2.987050283368355e-03
40		2.923977117828767e-02
	-2.540605617156463e-19
	-3.963564737457803e-19
	-2.164566579348822e-18
	2.540473611624535e-19
	-1.166603119624929e-17
	1.193938685196416e+01
	5.695943730763963e-01
	-1.569467281356394e-22
	-1.501146279294098e-17
	-6.071796142562825e-17
	1.200000000000000e+01
	1.182844217896545e+00
	-1.569467281356394e-22
	1.193932623881613e+01
	2.540473611624535e-19
	-2.540605617156463e-19
	-6.132498448201493e-06
	-6.061314803583809e-05
41		3.023977117828767e-02
	-2.180572791112736e-19
	-3.635920466399752e-19
	-2.129576856958479e-18
	2.180444848153772e-19
	-1.158981953392084e-17
	1.200001485755509e+01
	-1.856069797326056e-01
	-1.534209851200203e-22
	-1.467424904398770e-17
	-6.017511830546922e-17
	1.200000000000000e+01
	-3.762756155446265e-01
	-1.534209851200203e-22
	1.200001487241264e+01
	2.180444848153772e-19
	-2.180572791112736e-19
	1.906686358120209e-06
	1.485755508900954e-08
42		3.123977117828767e-02
	-1.817054340182841e-19
	-3.304813120943900e-19
	-2.094204889285451e-18
	1.816930504330590e-19
	-1.151275815631206e-17
	1.199998091116185e+01
	-9.502307859247224e-01
	-1.498606127962359e-22
	-1.433367706757010e-17
	-5.962669318163688e-17
	1.200000000000000e+01
	-1.898562970069911e+00
	-1.498606127962359e-22
	1.199998089207301e+01
