Title: kicad schematic
Date: Tue Jul 07 15:33:11  2026
Plotname: Transient Analysis
Flags: real
No. Variables: 334
No. Points: 108     
Variables:
	0	time	time
	1	v(x4.net-_q1-pad1_)	voltage
	2	v(x4.net-_q1-pad2_)	voltage
	3	v(net-_r3-pad1_)	voltage
	4	v(x4.net-_q14-pad1_)	voltage
	5	v(x4.net-_q3-pad3_)	voltage
	6	v(x4.net-_q11-pad3_)	voltage
	7	v(x4.net-_q11-pad1_)	voltage
	8	v(net-_x2-pad2_)	voltage
	9	v(net-_x1-pad2_)	voltage
	10	v(x4.net-_q2-pad2_)	voltage
	11	v(x4.net-_c1-pad2_)	voltage
	12	v(x4.net-_q10-pad1_)	voltage
	13	v(x4.net-_q15-pad3_)	voltage
	14	v(x4.net-_q16-pad1_)	voltage
	15	v(x4.net-_c1-pad1_)	voltage
	16	v(x4.net-_q24-pad2_)	voltage
	17	v(net-_x4-pad4_)	voltage
	18	v(x4.net-_q23-pad3_)	voltage
	19	v(x4.net-_q28-pad2_)	voltage
	20	v(x4.net-_q28-pad3_)	voltage
	21	v(x4.net-_j1-pad3_)	voltage
	22	v(x4.net-_q30-pad2_)	voltage
	23	v(v8)	voltage
	24	v(b)	voltage
	25	v(i_b)	voltage
	26	v(x7.net-_m2-pad1_)	voltage
	27	v(a)	voltage
	28	v(i_a)	voltage
	29	v(x8.net-_m2-pad1_)	voltage
	30	v(d)	voltage
	31	v(c)	voltage
	32	v(x9.net-_m2-pad1_)	voltage
	33	v(net-_r3-pad2_)	voltage
	34	v(v7)	voltage
	35	v(x1.net-_q1-pad1_)	voltage
	36	v(x1.net-_q1-pad2_)	voltage
	37	v(x1.net-_q14-pad1_)	voltage
	38	v(x1.net-_q3-pad3_)	voltage
	39	v(x1.net-_q11-pad3_)	voltage
	40	v(x1.net-_q11-pad1_)	voltage
	41	v(x1.net-_q2-pad2_)	voltage
	42	v(x1.net-_c1-pad2_)	voltage
	43	v(x1.net-_q10-pad1_)	voltage
	44	v(x1.net-_q15-pad3_)	voltage
	45	v(x1.net-_q16-pad1_)	voltage
	46	v(x1.net-_c1-pad1_)	voltage
	47	v(x1.net-_q24-pad2_)	voltage
	48	v(x1.net-_q23-pad3_)	voltage
	49	v(x1.net-_q28-pad2_)	voltage
	50	v(x1.net-_q28-pad3_)	voltage
	51	v(x1.net-_j1-pad3_)	voltage
	52	v(x1.net-_q30-pad2_)	voltage
	53	v(x3.net-_q1-pad1_)	voltage
	54	v(x3.net-_q1-pad2_)	voltage
	55	v(x3.net-_q14-pad1_)	voltage
	56	v(x3.net-_q3-pad3_)	voltage
	57	v(x3.net-_q11-pad3_)	voltage
	58	v(x3.net-_q11-pad1_)	voltage
	59	v(x3.net-_q2-pad2_)	voltage
	60	v(x3.net-_c1-pad2_)	voltage
	61	v(x3.net-_q10-pad1_)	voltage
	62	v(x3.net-_q15-pad3_)	voltage
	63	v(x3.net-_q16-pad1_)	voltage
	64	v(x3.net-_c1-pad1_)	voltage
	65	v(x3.net-_q24-pad2_)	voltage
	66	v(net-_x3-pad4_)	voltage
	67	v(x3.net-_q23-pad3_)	voltage
	68	v(x3.net-_q28-pad2_)	voltage
	69	v(x3.net-_q28-pad3_)	voltage
	70	v(x3.net-_j1-pad3_)	voltage
	71	v(x3.net-_q30-pad2_)	voltage
	72	v(x2.net-_q1-pad1_)	voltage
	73	v(x2.net-_q1-pad2_)	voltage
	74	v(x2.net-_q14-pad1_)	voltage
	75	v(x2.net-_q3-pad3_)	voltage
	76	v(x2.net-_q11-pad3_)	voltage
	77	v(x2.net-_q11-pad1_)	voltage
	78	v(v9)	voltage
	79	v(x2.net-_q2-pad2_)	voltage
	80	v(x2.net-_c1-pad2_)	voltage
	81	v(x2.net-_q10-pad1_)	voltage
	82	v(x2.net-_q15-pad3_)	voltage
	83	v(x2.net-_q16-pad1_)	voltage
	84	v(x2.net-_c1-pad1_)	voltage
	85	v(x2.net-_q24-pad2_)	voltage
	86	v(x2.net-_q23-pad3_)	voltage
	87	v(x2.net-_q28-pad2_)	voltage
	88	v(x2.net-_q28-pad3_)	voltage
	89	v(x2.net-_j1-pad3_)	voltage
	90	v(x2.net-_q30-pad2_)	voltage
	91	v(x5.net-_q1-pad1_)	voltage
	92	v(x5.net-_q1-pad2_)	voltage
	93	v(x5.net-_j1-pad3_)	voltage
	94	v(x5.net-_q2-pad3_)	voltage
	95	v(x5.net-_d4-pad1_)	voltage
	96	v(x5.net-_q7-pad3_)	voltage
	97	v(x5.net-_q10-pad1_)	voltage
	98	v(x5.net-_q14-pad1_)	voltage
	99	v(x5.net-_d2-pad1_)	voltage
	100	v(x5.net-_d1-pad2_)	voltage
	101	v(x5.net-_d3-pad1_)	voltage
	102	v(x5.net-_q11-pad1_)	voltage
	103	v(x5.net-_d4-pad2_)	voltage
	104	v(x5.net-_q17-pad1_)	voltage
	105	v(x5.net-_q17-pad2_)	voltage
	106	v(x5.net-_j2-pad3_)	voltage
	107	v(x5.net-_q18-pad3_)	voltage
	108	v(x5.net-_d9-pad1_)	voltage
	109	v(x5.net-_q23-pad3_)	voltage
	110	v(x5.net-_q25-pad3_)	voltage
	111	v(x5.net-_q30-pad1_)	voltage
	112	v(x5.net-_d7-pad1_)	voltage
	113	v(x5.net-_d6-pad2_)	voltage
	114	v(x5.net-_d8-pad1_)	voltage
	115	v(x5.net-_q27-pad1_)	voltage
	116	v(x5.net-_d10-pad2_)	voltage
	117	v(v6)	voltage
	118	v(vref)	voltage
	119	v(vstab)	voltage
	120	v(x6.net-_q1-pad1_)	voltage
	121	v(x6.net-_q1-pad2_)	voltage
	122	v(x6.net-_q14-pad1_)	voltage
	123	v(x6.net-_q3-pad3_)	voltage
	124	v(x6.net-_q11-pad3_)	voltage
	125	v(x6.net-_q11-pad1_)	voltage
	126	v(x6.net-_q2-pad2_)	voltage
	127	v(x6.net-_c1-pad2_)	voltage
	128	v(x6.net-_q10-pad1_)	voltage
	129	v(x6.net-_q15-pad3_)	voltage
	130	v(x6.net-_q16-pad1_)	voltage
	131	v(x6.net-_c1-pad1_)	voltage
	132	v(x6.net-_q24-pad2_)	voltage
	133	v(x6.net-_q23-pad3_)	voltage
	134	v(x6.net-_q28-pad2_)	voltage
	135	v(x6.net-_q28-pad3_)	voltage
	136	v(x6.net-_j1-pad3_)	voltage
	137	v(x6.net-_q30-pad2_)	voltage
	138	v(q.x6.q30#collCX)	voltage
	139	v(q.x6.q29#collCX)	voltage
	140	v(q.x6.q31#collCX)	voltage
	141	v(q.x6.q28#collCX)	voltage
	142	v(q.x6.q27#collCX)	voltage
	143	v(q.x6.q25#collCX)	voltage
	144	v(q.x6.q23#collCX)	voltage
	145	v(q.x6.q24#collCX)	voltage
	146	v(q.x6.q21#collCX)	voltage
	147	v(q.x6.q20#collCX)	voltage
	148	v(q.x6.q17#collCX)	voltage
	149	v(q.x6.q15#collCX)	voltage
	150	v(q.x6.q5#collCX)	voltage
	151	v(q.x6.q9#collCX)	voltage
	152	v(q.x6.q22#collCX)	voltage
	153	v(q.x6.q8#collCX)	voltage
	154	v(q.x6.q6#collCX)	voltage
	155	v(q.x6.q16#collCX)	voltage
	156	v(q.x6.q10#collCX)	voltage
	157	v(q.x6.q7#collCX)	voltage
	158	v(q.x6.q26#collCX)	voltage
	159	v(q.x6.q18#collCX)	voltage
	160	v(q.x6.q13#collCX)	voltage
	161	v(q.x6.q2#collCX)	voltage
	162	v(q.x6.q12#collCX)	voltage
	163	v(q.x6.q3#collCX)	voltage
	164	v(q.x6.q11#collCX)	voltage
	165	v(q.x6.q4#collCX)	voltage
	166	v(q.x6.q19#collCX)	voltage
	167	v(q.x6.q14#collCX)	voltage
	168	v(q.x6.q1#collCX)	voltage
	169	v(q.x5.q32#collCX)	voltage
	170	v(q.x5.q31#collCX)	voltage
	171	v(q.x5.q27#collCX)	voltage
	172	v(q.x5.q19#collCX)	voltage
	173	v(q.x5.q18#collCX)	voltage
	174	v(q.x5.q16#collCX)	voltage
	175	v(q.x5.q15#collCX)	voltage
	176	v(q.x5.q11#collCX)	voltage
	177	v(q.x5.q3#collCX)	voltage
	178	v(q.x5.q2#collCX)	voltage
	179	v(q.x5.q23#collCX)	voltage
	180	v(q.x5.q29#collCX)	voltage
	181	v(q.x5.q28#collCX)	voltage
	182	v(q.x5.q25#collCX)	voltage
	183	v(q.x5.q22#collCX)	voltage
	184	v(q.x5.q30#collCX)	voltage
	185	v(q.x5.q26#collCX)	voltage
	186	v(q.x5.q24#collCX)	voltage
	187	v(q.x5.q21#collCX)	voltage
	188	v(q.x5.q20#collCX)	voltage
	189	v(q.x5.q17#collCX)	voltage
	190	v(q.x5.q7#collCX)	voltage
	191	v(q.x5.q13#collCX)	voltage
	192	v(q.x5.q12#collCX)	voltage
	193	v(q.x5.q9#collCX)	voltage
	194	v(q.x5.q6#collCX)	voltage
	195	v(q.x5.q14#collCX)	voltage
	196	v(q.x5.q10#collCX)	voltage
	197	v(q.x5.q8#collCX)	voltage
	198	v(q.x5.q5#collCX)	voltage
	199	v(q.x5.q4#collCX)	voltage
	200	v(q.x5.q1#collCX)	voltage
	201	v(q.x2.q30#collCX)	voltage
	202	v(q.x2.q29#collCX)	voltage
	203	v(q.x2.q31#collCX)	voltage
	204	v(q.x2.q28#collCX)	voltage
	205	v(q.x2.q27#collCX)	voltage
	206	v(q.x2.q25#collCX)	voltage
	207	v(q.x2.q23#collCX)	voltage
	208	v(q.x2.q24#collCX)	voltage
	209	v(q.x2.q21#collCX)	voltage
	210	v(q.x2.q20#collCX)	voltage
	211	v(q.x2.q17#collCX)	voltage
	212	v(q.x2.q15#collCX)	voltage
	213	v(q.x2.q5#collCX)	voltage
	214	v(q.x2.q9#collCX)	voltage
	215	v(q.x2.q22#collCX)	voltage
	216	v(q.x2.q8#collCX)	voltage
	217	v(q.x2.q6#collCX)	voltage
	218	v(q.x2.q16#collCX)	voltage
	219	v(q.x2.q10#collCX)	voltage
	220	v(q.x2.q7#collCX)	voltage
	221	v(q.x2.q26#collCX)	voltage
	222	v(q.x2.q18#collCX)	voltage
	223	v(q.x2.q13#collCX)	voltage
	224	v(q.x2.q2#collCX)	voltage
	225	v(q.x2.q12#collCX)	voltage
	226	v(q.x2.q3#collCX)	voltage
	227	v(q.x2.q11#collCX)	voltage
	228	v(q.x2.q4#collCX)	voltage
	229	v(q.x2.q19#collCX)	voltage
	230	v(q.x2.q14#collCX)	voltage
	231	v(q.x2.q1#collCX)	voltage
	232	v(q.x3.q30#collCX)	voltage
	233	v(q.x3.q29#collCX)	voltage
	234	v(q.x3.q31#collCX)	voltage
	235	v(q.x3.q28#collCX)	voltage
	236	v(q.x3.q27#collCX)	voltage
	237	v(q.x3.q25#collCX)	voltage
	238	v(q.x3.q23#collCX)	voltage
	239	v(q.x3.q24#collCX)	voltage
	240	v(q.x3.q21#collCX)	voltage
	241	v(q.x3.q20#collCX)	voltage
	242	v(q.x3.q17#collCX)	voltage
	243	v(q.x3.q15#collCX)	voltage
	244	v(q.x3.q5#collCX)	voltage
	245	v(q.x3.q9#collCX)	voltage
	246	v(q.x3.q22#collCX)	voltage
	247	v(q.x3.q8#collCX)	voltage
	248	v(q.x3.q6#collCX)	voltage
	249	v(q.x3.q16#collCX)	voltage
	250	v(q.x3.q10#collCX)	voltage
	251	v(q.x3.q7#collCX)	voltage
	252	v(q.x3.q26#collCX)	voltage
	253	v(q.x3.q18#collCX)	voltage
	254	v(q.x3.q13#collCX)	voltage
	255	v(q.x3.q2#collCX)	voltage
	256	v(q.x3.q12#collCX)	voltage
	257	v(q.x3.q3#collCX)	voltage
	258	v(q.x3.q11#collCX)	voltage
	259	v(q.x3.q4#collCX)	voltage
	260	v(q.x3.q19#collCX)	voltage
	261	v(q.x3.q14#collCX)	voltage
	262	v(q.x3.q1#collCX)	voltage
	263	v(q.x1.q30#collCX)	voltage
	264	v(q.x1.q29#collCX)	voltage
	265	v(q.x1.q31#collCX)	voltage
	266	v(q.x1.q28#collCX)	voltage
	267	v(q.x1.q27#collCX)	voltage
	268	v(q.x1.q25#collCX)	voltage
	269	v(q.x1.q23#collCX)	voltage
	270	v(q.x1.q24#collCX)	voltage
	271	v(q.x1.q21#collCX)	voltage
	272	v(q.x1.q20#collCX)	voltage
	273	v(q.x1.q17#collCX)	voltage
	274	v(q.x1.q15#collCX)	voltage
	275	v(q.x1.q5#collCX)	voltage
	276	v(q.x1.q9#collCX)	voltage
	277	v(q.x1.q22#collCX)	voltage
	278	v(q.x1.q8#collCX)	voltage
	279	v(q.x1.q6#collCX)	voltage
	280	v(q.x1.q16#collCX)	voltage
	281	v(q.x1.q10#collCX)	voltage
	282	v(q.x1.q7#collCX)	voltage
	283	v(q.x1.q26#collCX)	voltage
	284	v(q.x1.q18#collCX)	voltage
	285	v(q.x1.q13#collCX)	voltage
	286	v(q.x1.q2#collCX)	voltage
	287	v(q.x1.q12#collCX)	voltage
	288	v(q.x1.q3#collCX)	voltage
	289	v(q.x1.q11#collCX)	voltage
	290	v(q.x1.q4#collCX)	voltage
	291	v(q.x1.q19#collCX)	voltage
	292	v(q.x1.q14#collCX)	voltage
	293	v(q.x1.q1#collCX)	voltage
	294	v(q.x4.q30#collCX)	voltage
	295	v(q.x4.q29#collCX)	voltage
	296	v(q.x4.q31#collCX)	voltage
	297	v(q.x4.q28#collCX)	voltage
	298	v(q.x4.q27#collCX)	voltage
	299	v(q.x4.q25#collCX)	voltage
	300	v(q.x4.q23#collCX)	voltage
	301	v(q.x4.q24#collCX)	voltage
	302	v(q.x4.q21#collCX)	voltage
	303	v(q.x4.q20#collCX)	voltage
	304	v(q.x4.q17#collCX)	voltage
	305	v(q.x4.q15#collCX)	voltage
	306	v(q.x4.q5#collCX)	voltage
	307	v(q.x4.q9#collCX)	voltage
	308	v(q.x4.q22#collCX)	voltage
	309	v(q.x4.q8#collCX)	voltage
	310	v(q.x4.q6#collCX)	voltage
	311	v(q.x4.q16#collCX)	voltage
	312	v(q.x4.q10#collCX)	voltage
	313	v(q.x4.q7#collCX)	voltage
	314	v(q.x4.q26#collCX)	voltage
	315	v(q.x4.q18#collCX)	voltage
	316	v(q.x4.q13#collCX)	voltage
	317	v(q.x4.q2#collCX)	voltage
	318	v(q.x4.q12#collCX)	voltage
	319	v(q.x4.q3#collCX)	voltage
	320	v(q.x4.q11#collCX)	voltage
	321	v(q.x4.q4#collCX)	voltage
	322	v(q.x4.q19#collCX)	voltage
	323	v(q.x4.q14#collCX)	voltage
	324	v(q.x4.q1#collCX)	voltage
	325	i(v5)	current
	326	i(v3)	current
	327	i(v6)	current
	328	i(v2)	current
	329	i(v.x9.v1)	current
	330	i(v.x8.v1)	current
	331	i(v.x7.v1)	current
	332	i(v4)	current
	333	i(a2)	current
Values:
0		0.000000000000000e+00
	1.158162546296871e+00
	6.371052074287358e+00
	7.000000000000000e+00
	1.114475272684569e+00
	1.610345959268843e+00
	2.221996811686357e+00
	2.083728265449354e+00
	9.987577337980770e-01
	5.935421323347827e+00
	5.283381670469491e-01
	4.299129516762690e-03
	6.341294081025760e-01
	8.641075364849637e-02
	5.493814159545343e-01
	6.993419047689728e+00
	5.927525191051791e+00
	5.926881965416682e+00
	6.459385178709260e+00
	6.128960242145521e-01
	5.996379803697463e-02
	1.293796872039849e+00
	6.810451495428418e-01
	6.000000000000000e+00
	4.999999898432548e+00
	3.073052793370260e-03
	5.000000000000000e+00
	4.999999896763151e+00
	3.969885196858570e-03
	5.000000000000000e+00
	4.999999903855537e+00
	0.000000000000000e+00
	5.000000000000000e+00
	6.999999975624141e+00
	3.000000000000000e+00
	1.078678209130489e+00
	6.374957749541250e+00
	1.099649789390892e+00
	6.463141847036930e+00
	6.991833031762303e+00
	6.495501368795783e+00
	4.527273807185915e-01
	2.052089194350026e-02
	6.464275536901041e-01
	1.020557789046265e-01
	5.455221244135858e-01
	6.993397000534918e+00
	5.935976746066517e+00
	6.459809870377040e+00
	6.128960242674605e-01
	5.996467619034300e-02
	1.293796872091168e+00
	6.810451495899915e-01
	1.158162546349417e+00
	6.371052074260994e+00
	1.114475272734250e+00
	1.610345959295108e+00
	2.221996811738655e+00
	2.083726107830850e+00
	5.283381670730263e-01
	4.299129516757820e-03
	6.341294081290474e-01
	8.641075364876927e-02
	5.493814159807080e-01
	6.993419047546890e+00
	5.927524635138818e+00
	5.926881402863048e+00
	6.459385149039546e+00
	6.128960242145531e-01
	5.996379803696951e-02
	1.293796872039849e+00
	6.810451495428410e-01
	1.153920390859892e+00
	6.366126502175187e+00
	1.090164621501091e+00
	1.597653379135976e+00
	2.196599757339402e+00
	1.598274701247215e+00
	1.000000000000000e+00
	5.191656708498986e-01
	4.741052706922697e-01
	1.108650579737059e+00
	5.541833312974664e-01
	5.544630000619117e-01
	2.068614128977060e+00
	9.994888305716234e-01
	1.535971569300708e+00
	6.128960241478126e-01
	5.996269051427533e-02
	1.293796871975110e+00
	6.810451494833678e-01
	6.339174578050117e+00
	6.339978895936183e+00
	1.261525383117843e+00
	6.823698666592171e-01
	6.894834385159827e+00
	6.950984607838774e+00
	4.272803195847971e+00
	6.325941157910961e-01
	3.982121612055459e+00
	3.612345388083114e+00
	4.517211772839243e-01
	3.953782830759268e-03
	6.533017335725402e+00
	6.339175544944917e+00
	6.339979835680627e+00
	1.261526327276052e+00
	6.823698175367332e-01
	5.980922361731307e+00
	6.951146012069934e+00
	6.271241696462160e+00
	7.844831391410449e-03
	6.895179712394834e+00
	6.533146695928753e+00
	1.246192836317829e-04
	6.348368012760278e-01
	5.611618301483312e+00
	5.000000000000000e+00
	2.927178861307594e+00
	5.852914361385243e+00
	1.157964255312579e+00
	6.371047969065850e+00
	1.114481829017971e+00
	3.537717972636702e+00
	4.148740909975358e+00
	3.951276803609689e+00
	5.281356819289093e-01
	4.301875324845275e-03
	6.341362637328993e-01
	8.641335510658499e-02
	5.493855519918609e-01
	6.993395295493044e+00
	5.857215886643557e+00
	6.454799610262304e+00
	6.128960242144943e-01
	5.996379711393329e-02
	1.293796872039788e+00
	6.810451495427869e-01
	6.090704844345572e-01
	1.289988704676548e+00
	6.999700283887003e+00
	6.371018238083430e+00
	5.852888587148697e+00
	6.999843947617035e+00
	6.999984150053813e+00
	6.993395295484894e+00
	6.993395295478698e+00
	5.493615007996809e-01
	8.639044239210593e-02
	1.114459128672424e+00
	5.281251046997316e-01
	4.301736492229948e-03
	6.993395408986229e+00
	4.301875328656939e-03
	5.281443587925095e-01
	5.494033168072711e-01
	6.341540161588493e-01
	4.148758148611466e+00
	5.000408202095360e-12
	1.439237513376199e-06
	1.750132461066502e-05
	1.757660781618123e-05
	5.005130541045461e-12
	8.510157946774134e-06
	3.951276803610646e+00
	3.537726429518186e+00
	6.371064882829346e+00
	1.114499511223598e+00
	1.157981931161637e+00
	3.073052793370260e-03
	7.759291669592057e-03
	6.348368012747413e-01
	1.257468597414028e+00
	6.339094320360939e+00
	3.969885196858570e-03
	6.325941157898155e-01
	3.953782823604769e-03
	1.257467645758213e+00
	6.339093356583912e+00
	6.895187155274111e+00
	9.027773459420636e-06
	6.348945395533836e-01
	1.246192883030249e-04
	7.396306090006865e-06
	7.905992292522646e-03
	6.271299718206169e+00
	5.980931161316581e+00
	6.824306403721039e-01
	1.261586859843488e+00
	6.339231757990732e+00
	3.982130507842926e+00
	7.359567870092280e-06
	3.953782835427679e-03
	4.517799107409322e-01
	9.131287134587270e-06
	6.326549658472808e-01
	4.272862221396538e+00
	6.894841791112276e+00
	6.824306917673191e-01
	1.261585917947659e+00
	6.339230793137914e+00
	6.090704843764960e-01
	1.289988704611580e+00
	6.999700283887065e+00
	6.366096771754982e+00
	9.987282912486086e-01
	6.999984316558011e+00
	6.999986570876265e+00
	2.068614128973905e+00
	2.068584584487306e+00
	5.544337331601135e-01
	5.541540645062327e-01
	1.090135357101548e+00
	5.191581931662160e-01
	4.740977975602539e-01
	2.068635347185729e+00
	4.741104971474976e-01
	5.191710222777872e-01
	5.544844860069724e-01
	1.108671967689139e+00
	2.196620952917298e+00
	1.479189667824097e-12
	4.619468598088356e-07
	2.108264570099144e-05
	2.126225994938599e-05
	5.210745934048971e-06
	5.337295272441758e-06
	1.598279877408788e+00
	1.597658681140903e+00
	6.366146960485829e+00
	1.090186012721908e+00
	1.153941770807239e+00
	6.090704844346084e-01
	1.289988704676608e+00
	6.999700283887003e+00
	6.371022343278105e+00
	5.926855608718650e+00
	6.999987695317776e+00
	6.999986712635785e+00
	6.993419047538814e+00
	6.993419047532544e+00
	5.493573686336005e-01
	8.638784469589167e-02
	1.114452576121406e+00
	5.283275067205184e-01
	4.298990706921642e-03
	6.993419145712855e+00
	4.299129518343867e-03
	5.283469127961569e-01
	5.493991779781665e-01
	6.341471577394093e-01
	2.222014329260131e+00
	5.000425186537304e-12
	1.439102794862172e-06
	1.749854374676744e-05
	1.757378874229522e-05
	4.243956804445439e-12
	8.718353896729799e-06
	2.083726107830947e+00
	1.610354623986659e+00
	6.371068985340390e+00
	1.114492952135389e+00
	1.158180219365054e+00
	6.090704844806751e-01
	1.289988704728157e+00
	6.999700283886956e+00
	6.374928018112208e+00
	5.935399100609732e+00
	6.999990978245957e+00
	6.999986940155192e+00
	6.993397000526850e+00
	6.993397000520219e+00
	5.455014098506000e-01
	1.020356532230670e-01
	1.099629854506951e+00
	4.527268076141361e-01
	2.052062245185900e-02
	6.993397097317819e+00
	2.052099790018903e-02
	4.527277495294979e-01
	5.455373981066379e-01
	6.464428147013976e-01
	6.991833969762868e+00
	5.000409423155288e-12
	9.417738449580057e-07
	1.503786501541382e-05
	1.511982534864204e-05
	1.022102801341968e-07
	3.550078845873168e-07
	6.495501469132637e+00
	6.463142197630794e+00
	6.374972290592901e+00
	1.099664993441375e+00
	1.078693415816674e+00
	6.090704844346072e-01
	1.289988704676608e+00
	6.999700283887003e+00
	6.371022343304468e+00
	5.926856171272127e+00
	6.999987695568104e+00
	6.999986712650952e+00
	6.993419047681653e+00
	6.993419047675382e+00
	5.493573686074512e-01
	8.638784469564194e-02
	1.114452576071748e+00
	5.283275066944522e-01
	4.298990706926650e-03
	6.993419145855602e+00
	4.299129518348730e-03
	5.283469127700710e-01
	5.493991779519748e-01
	6.341471577129197e-01
	2.222014329207815e+00
	5.000425186639448e-12
	1.439102793553940e-06
	1.749854372885673e-05
	1.757378872430820e-05
	4.243956804445439e-12
	8.718353887876909e-06
	2.083728265449451e+00
	1.610354623960386e+00
	6.371068985366738e+00
	1.114492952085690e+00
	1.158180219312489e+00
	7.730224893531812e-08
	4.821324524340032e-08
	7.914519939422604e-08
	-3.052505161348055e-02
	-1.443640504974190e-11
	-1.549555835461498e-11
	-1.524642418091841e-11
	2.514683572485410e-09
	0.000000000000000e+00
1		1.000000000000000e-10
	1.158162546296878e+00
	6.371052074287357e+00
	7.000000000000000e+00
	1.114475272684567e+00
	1.610345959268942e+00
	2.221996811686409e+00
	2.083728265449395e+00
	9.987577337984340e-01
	5.935421323347841e+00
	5.283381670469642e-01
	4.299129516773980e-03
	6.341294081025778e-01
	8.641075364849636e-02
	5.493814159545340e-01
	6.993419047689728e+00
	5.927525191051798e+00
	5.926881965416695e+00
	6.459385178709257e+00
	6.128960242145500e-01
	5.996379803697298e-02
	1.293796872039847e+00
	6.810451495428409e-01
	6.000000000000000e+00
	4.999999898432548e+00
	3.073052793370911e-03
	5.000000000000000e+00
	4.999999896763152e+00
	3.969885196860930e-03
	5.000000000000000e+00
	4.999999903855538e+00
	0.000000000000000e+00
	5.000000000000000e+00
	6.999999975624143e+00
	3.000000000000000e+00
	1.078678209130488e+00
	6.374957749541251e+00
	1.099649789390892e+00
	6.463141847036945e+00
	6.991833031762311e+00
	6.495501368795784e+00
	4.527273807185926e-01
	2.052089194350087e-02
	6.464275536901047e-01
	1.020557789046266e-01
	5.455221244135866e-01
	6.993397000534912e+00
	5.935976746066522e+00
	6.459809870377038e+00
	6.128960242674608e-01
	5.996467619034307e-02
	1.293796872091168e+00
	6.810451495899914e-01
	1.158162546349424e+00
	6.371052074261002e+00
	1.114475272734250e+00
	1.610345959295208e+00
	2.221996811738709e+00
	2.083726107830895e+00
	5.283381670730427e-01
	4.299129516771104e-03
	6.341294081290513e-01
	8.641075364877096e-02
	5.493814159807093e-01
	6.993419047546900e+00
	5.927524635138832e+00
	5.926881402863066e+00
	6.459385149039557e+00
	6.128960242145545e-01
	5.996379803697285e-02
	1.293796872039850e+00
	6.810451495428420e-01
	1.153920390859900e+00
	6.366126502175193e+00
	1.090164621501099e+00
