* /home/saurabh/pilot_related/new_installer/esim-1.1.2/examples/7805voltageregulator/7805voltageregulator.cir
Transient Analysis  Thu Aug 29 10:57:43  2019
--------------------------------------------------------------------------------
Index   time            in1             in2             net-_c1-pad1_   
--------------------------------------------------------------------------------
0	0.000000e+00	1.243888e-18	1.243888e-18	3.111673e-19	
1	1.000000e-05	3.769905e-02	-3.76990e-02	2.049370e-11	
2	1.006128e-05	3.793005e-02	-3.79301e-02	2.062384e-11	
3	1.018383e-05	3.839205e-02	-3.83921e-02	2.088747e-11	
4	1.042893e-05	3.931605e-02	-3.93161e-02	2.143491e-11	
5	1.091913e-05	4.116405e-02	-4.11641e-02	2.261347e-11	
6	1.189953e-05	4.486006e-02	-4.48601e-02	2.533013e-11	
7	1.386033e-05	5.225205e-02	-5.22520e-02	3.241373e-11	
8	1.778193e-05	6.703596e-02	-6.70360e-02	5.515618e-11	
9	2.146097e-05	8.090536e-02	-8.09054e-02	9.024871e-11	
10	2.629931e-05	9.914494e-02	-9.91449e-02	1.668641e-10	
11	3.086183e-05	1.163446e-01	-1.16345e-01	2.851064e-10	
12	3.628834e-05	1.368009e-01	-1.36801e-01	5.172451e-10	
13	4.153639e-05	1.565840e-01	-1.56584e-01	8.873839e-10	
14	4.736025e-05	1.785373e-01	-1.78537e-01	1.572140e-09	
15	5.305198e-05	1.999920e-01	-1.99992e-01	2.690500e-09	
16	5.909594e-05	2.227737e-01	-2.22774e-01	4.692746e-09	
17	6.503838e-05	2.451719e-01	-2.45172e-01	8.019106e-09	
18	7.118536e-05	2.683401e-01	-2.68340e-01	1.386584e-08	
19	7.725742e-05	2.912250e-01	-2.91225e-01	2.369068e-08	
20	8.344589e-05	3.145476e-01	-3.14548e-01	4.077794e-08	
21	8.958204e-05	3.376718e-01	-3.37672e-01	6.970115e-08	
22	9.578452e-05	3.610447e-01	-3.61045e-01	1.196918e-07	
23	1.019523e-04	3.842854e-01	-3.84285e-01	2.046934e-07	
24	1.081585e-04	4.076695e-01	-4.07669e-01	3.510656e-07	
25	1.143428e-04	4.309698e-01	-4.30969e-01	6.006403e-07	
26	1.205504e-04	4.543563e-01	-4.54355e-01	1.029453e-06	
27	1.267458e-04	4.776950e-01	-4.77693e-01	1.761843e-06	
28	1.329574e-04	5.010932e-01	-5.01090e-01	3.018533e-06	
29	1.391655e-04	5.244769e-01	-5.24472e-01	5.167097e-06	
30	1.453903e-04	5.479223e-01	-5.47913e-01	8.850791e-06	
31	1.516248e-04	5.714035e-01	-5.71388e-01	1.515276e-05	
32	1.578896e-04	5.949986e-01	-5.94973e-01	2.595254e-05	
33	1.641944e-04	6.187462e-01	-6.18702e-01	4.443773e-05	
34	1.705757e-04	6.427855e-01	-6.42709e-01	7.611902e-05	
35	1.770792e-04	6.672937e-01	-6.67163e-01	1.304183e-04	
36	1.837935e-04	6.926120e-01	-6.92388e-01	2.237377e-04	
37	1.908550e-04	7.192678e-01	-7.18883e-01	3.848396e-04	
38	1.984929e-04	7.481486e-01	-7.47482e-01	6.661573e-04	
39	2.070444e-04	7.805712e-01	-7.79406e-01	1.164898e-03	
40	2.166355e-04	8.170789e-01	-8.15054e-01	2.025307e-03	
41	2.285345e-04	8.626343e-01	-8.58995e-01	3.638861e-03	
42	2.432189e-04	9.193229e-01	-9.12721e-01	6.602154e-03	
43	2.625335e-04	9.947701e-01	-9.82443e-01	1.232746e-02	
44	2.876993e-04	1.094692e+00	-1.07156e+00	2.313450e-02	
45	3.213246e-04	1.231167e+00	-1.18745e+00	4.371685e-02	
46	3.655289e-04	1.415783e+00	-1.33419e+00	8.159533e-02	
47	4.237705e-04	1.667885e+00	-1.51784e+00	1.500465e-01	
48	4.999254e-04	2.012023e+00	-1.74185e+00	2.701752e-01	
49	5.607046e-04	2.297767e+00	-1.90802e+00	3.897497e-01	
50	5.931985e-04	2.454320e+00	-1.99245e+00	4.618731e-01	
51	6.093139e-04	2.532898e+00	-2.03322e+00	4.996818e-01	
52	6.220716e-04	2.595530e+00	-2.06498e+00	5.305499e-01	
53	6.340147e-04	2.654499e+00	-2.09431e+00	5.601867e-01	
54	6.499804e-04	2.733828e+00	-2.13292e+00	6.009063e-01	

Index   time            in1             in2             net-_c1-pad1_   
--------------------------------------------------------------------------------
55	6.652023e-04	2.809983e+00	-2.16910e+00	6.408851e-01	
56	6.818528e-04	2.893854e+00	-2.20797e+00	6.858864e-01	
57	7.107427e-04	3.040749e+00	-2.27371e+00	7.670428e-01	
58	7.594411e-04	3.292128e+00	-2.37975e+00	9.123737e-01	
59	8.210981e-04	3.616747e+00	-2.50576e+00	1.110991e+00	
60	9.161647e-04	4.129743e+00	-2.68300e+00	1.446747e+00	
61	9.913090e-04	4.544797e+00	-2.80926e+00	1.735535e+00	
62	1.051055e-03	4.880054e+00	-2.90149e+00	1.978561e+00	
63	1.077935e-03	5.032255e+00	-2.94073e+00	2.091528e+00	
64	1.094965e-03	5.129099e+00	-2.96488e+00	2.164216e+00	
65	1.106147e-03	5.192848e+00	-2.98045e+00	2.212396e+00	
66	1.114126e-03	5.238419e+00	-2.99142e+00	2.246998e+00	
67	1.122027e-03	5.283607e+00	-3.00217e+00	2.281436e+00	
68	1.131903e-03	5.340171e+00	-3.01545e+00	2.324723e+00	
69	1.143118e-03	5.404524e+00	-3.03031e+00	2.374210e+00	
70	1.153525e-03	5.464343e+00	-3.04391e+00	2.420433e+00	
71	1.163584e-03	5.522260e+00	-3.05687e+00	2.465389e+00	
72	1.175805e-03	5.592744e+00	-3.07238e+00	2.520364e+00	
73	1.187541e-03	5.660551e+00	-3.08703e+00	2.573520e+00	
74	1.199649e-03	5.730630e+00	-3.10190e+00	2.628730e+00	
75	1.212062e-03	5.802600e+00	-3.11689e+00	2.685713e+00	
76	1.226411e-03	5.885947e+00	-3.13389e+00	2.752058e+00	
77	1.239938e-03	5.964661e+00	-3.14961e+00	2.815056e+00	
78	1.257521e-03	6.067178e+00	-3.16959e+00	2.897591e+00	
79	1.276678e-03	6.179121e+00	-3.19079e+00	2.988330e+00	
80	1.297754e-03	6.302558e+00	-3.21345e+00	3.089111e+00	
81	1.317918e-03	6.420914e+00	-3.23447e+00	3.186440e+00	
82	1.346925e-03	6.591578e+00	-3.26363e+00	3.327947e+00	
83	1.374728e-03	6.755576e+00	-3.29039e+00	3.465182e+00	
84	1.411000e-03	6.970074e+00	-3.32362e+00	3.646458e+00	
85	1.447074e-03	7.183926e+00	-3.35480e+00	3.829127e+00	
86	1.486004e-03	7.415200e+00	-3.38644e+00	4.028760e+00	
87	1.503516e-03	7.519378e+00	-3.40001e+00	4.119371e+00	
88	1.515510e-03	7.590770e+00	-3.40907e+00	4.181705e+00	
89	1.523038e-03	7.635602e+00	-3.41466e+00	4.220946e+00	
90	1.527922e-03	7.664691e+00	-3.41824e+00	4.246448e+00	
91	1.531080e-03	7.683496e+00	-3.42055e+00	4.262950e+00	
92	1.533081e-03	7.695416e+00	-3.42200e+00	4.273417e+00	
93	1.534584e-03	7.704372e+00	-3.42309e+00	4.281284e+00	
94	1.535964e-03	7.712595e+00	-3.42409e+00	4.288508e+00	
95	1.537320e-03	7.720668e+00	-3.42506e+00	4.295604e+00	
96	1.538728e-03	7.729056e+00	-3.42608e+00	4.302977e+00	
97	1.540140e-03	7.737466e+00	-3.42710e+00	4.310370e+00	
98	1.541791e-03	7.747291e+00	-3.42829e+00	4.319003e+00	
99	1.543969e-03	7.760242e+00	-3.42987e+00	4.330377e+00	
100	1.546499e-03	7.775268e+00	-3.43171e+00	4.343558e+00	
101	1.549273e-03	7.791720e+00	-3.43375e+00	4.357970e+00	
102	1.552493e-03	7.810781e+00	-3.43614e+00	4.374636e+00	
103	1.558271e-03	7.844867e+00	-3.44052e+00	4.404342e+00	
104	1.564096e-03	7.879054e+00	-3.44508e+00	4.433978e+00	
105	1.569388e-03	7.909938e+00	-3.44936e+00	4.460580e+00	
106	1.573903e-03	7.936140e+00	-3.45313e+00	4.483009e+00	
107	1.575714e-03	7.946614e+00	-3.45468e+00	4.491939e+00	
108	1.576877e-03	7.953332e+00	-3.45567e+00	4.497657e+00	
109	1.577466e-03	7.956730e+00	-3.45618e+00	4.500549e+00	
110	1.577869e-03	7.959060e+00	-3.45653e+00	4.502532e+00	
111	1.578292e-03	7.961506e+00	-3.45689e+00	4.504619e+00	
112	1.578695e-03	7.963839e+00	-3.45722e+00	4.506615e+00	

Index   time            in1             in2             net-_c1-pad1_   
--------------------------------------------------------------------------------
113	1.579165e-03	7.966570e+00	-3.45761e+00	4.508958e+00	
114	1.579848e-03	7.970549e+00	-3.45816e+00	4.512388e+00	
115	1.580722e-03	7.975658e+00	-3.45884e+00	4.516814e+00	
116	1.581936e-03	7.982789e+00	-3.45976e+00	4.523024e+00	
117	1.583038e-03	7.989279e+00	-3.46058e+00	4.528701e+00	
118	1.584239e-03	7.996361e+00	-3.46145e+00	4.534913e+00	
119	1.585504e-03	8.003838e+00	-3.46235e+00	4.541486e+00	
120	1.587165e-03	8.013667e+00	-3.46352e+00	4.550142e+00	
121	1.588964e-03	8.024320e+00	-3.46478e+00	4.559537e+00	
122	1.589967e-03	8.030259e+00	-3.46548e+00	4.564779e+00	
123	1.590703e-03	8.034623e+00	-3.46599e+00	4.568634e+00	
124	1.591325e-03	8.038311e+00	-3.46642e+00	4.571892e+00	
125	1.591897e-03	8.041700e+00	-3.46681e+00	4.574886e+00	
126	1.592475e-03	8.045126e+00	-3.46721e+00	4.577915e+00	
127	1.593035e-03	8.048447e+00	-3.46760e+00	4.580851e+00	
128	1.593705e-03	8.052421e+00	-3.46805e+00	4.584367e+00	
129	1.594455e-03	8.056870e+00	-3.46856e+00	4.588305e+00	
130	1.595327e-03	8.062045e+00	-3.46916e+00	4.592890e+00	
131	1.595869e-03	8.065266e+00	-3.46952e+00	4.595746e+00	
132	1.596188e-03	8.067160e+00	-3.46973e+00	4.597426e+00	
133	1.596460e-03	8.068773e+00	-3.46992e+00	4.598855e+00	
134	1.596737e-03	8.070416e+00	-3.47011e+00	4.600310e+00	
135	1.596933e-03	8.071577e+00	-3.47024e+00	4.601335e+00	
136	1.597194e-03	8.073119e+00	-3.47042e+00	4.602696e+00	
137	1.597544e-03	8.075185e+00	-3.47067e+00	4.604516e+00	
138	1.597912e-03	8.077362e+00	-3.47093e+00	4.606432e+00	
139	1.598551e-03	8.081131e+00	-3.47138e+00	4.609746e+00	
140	1.599059e-03	8.084123e+00	-3.47175e+00	4.612378e+00	
141	1.599669e-03	8.087723e+00	-3.47218e+00	4.615547e+00	
142	1.600000e-03	8.089683e+00	-3.47241e+00	4.617275e+00	
143	1.600488e-03	8.092565e+00	-3.47274e+00	4.619821e+00	
144	1.600996e-03	8.095578e+00	-3.47309e+00	4.622485e+00	
145	1.601580e-03	8.099036e+00	-3.47349e+00	4.625548e+00	
146	1.602315e-03	8.103401e+00	-3.47398e+00	4.629420e+00	
147	1.603190e-03	8.108599e+00	-3.47456e+00	4.634038e+00	
148	1.604147e-03	8.114287e+00	-3.47519e+00	4.639098e+00	
149	1.605384e-03	8.121649e+00	-3.47600e+00	4.645654e+00	
150	1.606723e-03	8.129623e+00	-3.47686e+00	4.652762e+00	
151	1.608333e-03	8.139213e+00	-3.47789e+00	4.661319e+00	
152	1.609805e-03	8.147984e+00	-3.47883e+00	4.669151e+00	
153	1.611354e-03	8.157218e+00	-3.47982e+00	4.677401e+00	
154	1.612826e-03	8.165991e+00	-3.48075e+00	4.685244e+00	
155	1.614218e-03	8.174292e+00	-3.48162e+00	4.692668e+00	
156	1.615873e-03	8.184157e+00	-3.48266e+00	4.701495e+00	
157	1.618317e-03	8.198729e+00	-3.48419e+00	4.714541e+00	
158	1.622030e-03	8.220877e+00	-3.48649e+00	4.734385e+00	
159	1.626623e-03	8.248272e+00	-3.48932e+00	4.758956e+00	
160	1.633238e-03	8.287724e+00	-3.49334e+00	4.794387e+00	
161	1.641744e-03	8.338469e+00	-3.49843e+00	4.840039e+00	
162	1.652890e-03	8.404956e+00	-3.50497e+00	4.899984e+00	
163	1.669518e-03	8.504153e+00	-3.51446e+00	4.989693e+00	
164	1.688280e-03	8.616073e+00	-3.52478e+00	5.091295e+00	
165	1.708589e-03	8.737200e+00	-3.53549e+00	5.201709e+00	
166	1.729486e-03	8.861798e+00	-3.54603e+00	5.315773e+00	
167	1.750867e-03	8.989240e+00	-3.55630e+00	5.432939e+00	
168	1.776710e-03	9.143182e+00	-3.56805e+00	5.575130e+00	
169	1.816184e-03	9.378084e+00	-3.58462e+00	5.793462e+00	
170	1.832858e-03	9.477206e+00	-3.59113e+00	5.886079e+00	

Index   time            in1             in2             net-_c1-pad1_   
--------------------------------------------------------------------------------
171	1.845958e-03	9.555029e+00	-3.59604e+00	5.958993e+00	
172	1.854960e-03	9.608481e+00	-3.59931e+00	6.009174e+00	
173	1.865296e-03	9.669826e+00	-3.60296e+00	6.066864e+00	
174	1.876553e-03	9.736602e+00	-3.60682e+00	6.129783e+00	
175	1.899068e-03	9.870033e+00	-3.61416e+00	6.255877e+00	
176	1.915944e-03	9.969935e+00	-3.61933e+00	6.350608e+00	
177	1.924330e-03	1.001954e+01	-3.62179e+00	6.397744e+00	
178	1.929551e-03	1.005040e+01	-3.62329e+00	6.427112e+00	
179	1.932571e-03	1.006826e+01	-3.62415e+00	6.444109e+00	
180	1.935086e-03	1.008312e+01	-3.62485e+00	6.458275e+00	
181	1.937636e-03	1.009820e+01	-3.62555e+00	6.472655e+00	
182	1.939030e-03	1.010645e+01	-3.62593e+00	6.480521e+00	
183	1.940937e-03	1.011772e+01	-3.62644e+00	6.491287e+00	
184	1.942861e-03	1.012910e+01	-3.62695e+00	6.502155e+00	
185	1.944615e-03	1.013948e+01	-3.62741e+00	6.512066e+00	
186	1.946275e-03	1.014929e+01	-3.62784e+00	6.521447e+00	
187	1.948064e-03	1.015987e+01	-3.62831e+00	6.531563e+00	
188	1.949750e-03	1.016984e+01	-3.62874e+00	6.541094e+00	
189	1.951400e-03	1.017959e+01	-3.62917e+00	6.550427e+00	
190	1.953043e-03	1.018931e+01	-3.62959e+00	6.559722e+00	
191	1.954817e-03	1.019979e+01	-3.63003e+00	6.569759e+00	
192	1.956811e-03	1.021158e+01	-3.63054e+00	6.581041e+00	
193	1.959040e-03	1.022474e+01	-3.63109e+00	6.593653e+00	
194	1.961914e-03	1.024172e+01	-3.63180e+00	6.609922e+00	
195	1.965349e-03	1.026201e+01	-3.63264e+00	6.629373e+00	
196	1.970107e-03	1.029010e+01	-3.63378e+00	6.656318e+00	
197	1.974639e-03	1.031684e+01	-3.63486e+00	6.681983e+00	
198	1.977180e-03	1.033183e+01	-3.63545e+00	6.696374e+00	
199	1.979702e-03	1.034671e+01	-3.63604e+00	6.710666e+00	
200	1.982520e-03	1.036332e+01	-3.63669e+00	6.726633e+00	
201	1.984986e-03	1.037786e+01	-3.63725e+00	6.740614e+00	
202	1.987422e-03	1.039222e+01	-3.63779e+00	6.754429e+00	
203	1.989977e-03	1.040728e+01	-3.63836e+00	6.768919e+00	
204	1.994568e-03	1.043433e+01	-3.63936e+00	6.794973e+00	
205	1.999783e-03	1.046505e+01	-3.64047e+00	6.824580e+00	
206	2.005161e-03	1.049672e+01	-3.64159e+00	6.855127e+00	
207	2.014388e-03	1.055101e+01	-3.64345e+00	6.907554e+00	
208	2.021529e-03	1.059300e+01	-3.64485e+00	6.948147e+00	
209	2.025359e-03	1.061551e+01	-3.64558e+00	6.969926e+00	
210	2.028999e-03	1.063689e+01	-3.64626e+00	6.990626e+00	
211	2.033450e-03	1.066303e+01	-3.64707e+00	7.015955e+00	
212	2.037368e-03	1.068603e+01	-3.64778e+00	7.038258e+00	
213	2.041223e-03	1.070866e+01	-3.64845e+00	7.060203e+00	
214	2.048931e-03	1.075387e+01	-3.64976e+00	7.104110e+00	
215	2.056994e-03	1.080114e+01	-3.65108e+00	7.150056e+00	
216	2.063101e-03	1.083691e+01	-3.65204e+00	7.184866e+00	
217	2.067120e-03	1.086044e+01	-3.65266e+00	7.207780e+00	
218	2.071124e-03	1.088388e+01	-3.65326e+00	7.230617e+00	
219	2.076775e-03	1.091693e+01	-3.65408e+00	7.262851e+00	
220	2.081737e-03	1.094595e+01	-3.65478e+00	7.291168e+00	
221	2.086628e-03	1.097453e+01	-3.65544e+00	7.319086e+00	
222	2.094856e-03	1.102259e+01	-3.65652e+00	7.366067e+00	
223	2.105178e-03	1.108282e+01	-3.65779e+00	7.425029e+00	
224	2.113577e-03	1.113177e+01	-3.65875e+00	7.473017e+00	
225	2.121839e-03	1.117989e+01	-3.65964e+00	7.520243e+00	
226	2.129118e-03	1.122224e+01	-3.66038e+00	7.561861e+00	
227	2.136180e-03	1.126331e+01	-3.66105e+00	7.602258e+00	
228	2.149593e-03	1.134121e+01	-3.66222e+00	7.678998e+00	

Index   time            in1             in2             net-_c1-pad1_   
--------------------------------------------------------------------------------
229	2.163113e-03	1.141961e+01	-3.66324e+00	7.756375e+00	
230	2.175985e-03	1.149415e+01	-3.66408e+00	7.830075e+00	
231	2.188027e-03	1.156377e+01	-3.66474e+00	7.899039e+00	
232	2.199826e-03	1.163189e+01	-3.66527e+00	7.966626e+00	
233	2.219003e-03	1.174240e+01	-3.66590e+00	8.076499e+00	
234	2.237789e-03	1.185039e+01	-3.66624e+00	8.184149e+00	
235	2.262707e-03	1.199322e+01	-3.66627e+00	8.326952e+00	
236	2.286555e-03	1.212946e+01	-3.66585e+00	8.463611e+00	
237	2.332897e-03	1.239287e+01	-3.66382e+00	8.729049e+00	
238	2.385205e-03	1.268798e+01	-3.65965e+00	9.028328e+00	
239	2.437968e-03	1.298314e+01	-3.65350e+00	9.329642e+00	
240	2.508516e-03	1.337358e+01	-3.64232e+00	9.731263e+00	
241	2.602991e-03	1.388836e+01	-3.62232e+00	1.026604e+01	
242	2.655272e-03	1.416902e+01	-3.60885e+00	1.056017e+01	
243	2.698096e-03	1.439656e+01	-3.59661e+00	1.079995e+01	
244	2.726961e-03	1.454870e+01	-3.58775e+00	1.096095e+01	
245	2.755022e-03	1.469562e+01	-3.57869e+00	1.111693e+01	
246	2.810948e-03	1.498550e+01	-3.55933e+00	1.142617e+01	
247	2.861886e-03	1.524602e+01	-3.54021e+00	1.170581e+01	
248	2.963761e-03	1.575658e+01	-3.49797e+00	1.225861e+01	
249	3.151935e-03	1.666056e+01	-3.40683e+00	1.325373e+01	
250	3.420216e-03	1.785410e+01	-3.25027e+00	1.460383e+01	
251	3.956780e-03	1.986212e+01	-2.86044e+00	1.700168e+01	
252	4.818555e-03	2.188698e+01	-2.07404e+00	1.981294e+01	
253	5.698690e-03	2.229226e+01	-1.13190e+00	2.116036e+01	
254	5.977507e-03	2.206728e+01	-8.09907e-01	2.125738e+01	
255	6.074557e-03	2.195375e+01	-6.91647e-01	2.126211e+01	
256	6.109285e-03	2.190974e+01	-6.47593e-01	2.126214e+01	
257	6.125865e-03	2.188819e+01	-6.26140e-01	2.126205e+01	
258	6.139428e-03	2.187033e+01	-6.08378e-01	2.126195e+01	
259	6.153931e-03	2.185100e+01	-5.89168e-01	2.126183e+01	
260	6.169424e-03	2.183008e+01	-5.68394e-01	2.126168e+01	
261	6.183788e-03	2.181044e+01	-5.48903e-01	2.126154e+01	
262	6.199710e-03	2.178841e+01	-5.27033e-01	2.126137e+01	
263	6.217234e-03	2.176383e+01	-5.02643e-01	2.126119e+01	
264	6.238841e-03	2.173306e+01	-4.72108e-01	2.126095e+01	
265	6.264935e-03	2.169522e+01	-4.34551e-01	2.126067e+01	
266	6.299704e-03	2.164364e+01	-3.83355e-01	2.126029e+01	
267	6.348603e-03	2.156888e+01	-3.09130e-01	2.125975e+01	
268	6.427262e-03	2.144321e+01	-1.84323e-01	2.125889e+01	
269	6.555003e-03	2.122509e+01	3.239291e-02	2.125748e+01	
270	6.810484e-03	2.073804e+01	5.166353e-01	2.125468e+01	
271	7.321446e-03	1.957219e+01	1.676868e+00	2.124906e+01	
272	8.343370e-03	1.658611e+01	4.651713e+00	2.123783e+01	
273	1.013118e-02	1.011468e+01	1.110350e+01	2.121818e+01	
274	1.145685e-02	5.299362e+00	1.590425e+01	2.120361e+01	
275	1.254125e-02	2.001326e+00	1.919037e+01	2.119169e+01	
276	1.322627e-02	4.074331e-01	2.077673e+01	2.118417e+01	
277	1.356722e-02	-2.14520e-01	2.139494e+01	2.118042e+01	
278	1.370984e-02	-4.38312e-01	2.161717e+01	2.117886e+01	
279	1.376630e-02	-5.20803e-01	2.169905e+01	2.117825e+01	
280	1.379437e-02	-5.60511e-01	2.173847e+01	2.117796e+01	
281	1.381412e-02	-5.87924e-01	2.176569e+01	2.117777e+01	
282	1.383305e-02	-6.13776e-01	2.179139e+01	2.117761e+01	
283	1.385284e-02	-6.40368e-01	2.181785e+01	2.117749e+01	
284	1.387263e-02	-6.66489e-01	2.184392e+01	2.117743e+01	
285	1.389425e-02	-6.94457e-01	2.187195e+01	2.117750e+01	
286	1.391882e-02	-7.25484e-01	2.190332e+01	2.117784e+01	

Index   time            in1             in2             net-_c1-pad1_   
--------------------------------------------------------------------------------
287	1.395064e-02	-7.64341e-01	2.194326e+01	2.117892e+01	
288	1.400778e-02	-8.29941e-01	2.201348e+01	2.118354e+01	
289	1.406623e-02	-8.91030e-01	2.208369e+01	2.119266e+01	
290	1.412259e-02	-9.43963e-01	2.215002e+01	2.120605e+01	
291	1.420131e-02	-1.00814e+00	2.224030e+01	2.123215e+01	
292	1.431413e-02	-1.08112e+00	2.236390e+01	2.128278e+01	
293	1.448428e-02	-1.15233e+00	2.253336e+01	2.138103e+01	
294	1.479096e-02	-1.18106e+00	2.276720e+01	2.158614e+01	
295	1.504687e-02	-1.12345e+00	2.287395e+01	2.175050e+01	
296	1.526926e-02	-1.02599e+00	2.288820e+01	2.186221e+01	
297	1.545429e-02	-9.16769e-01	2.283922e+01	2.192245e+01	
298	1.555967e-02	-8.44067e-01	2.278591e+01	2.194185e+01	
299	1.562918e-02	-7.91857e-01	2.274082e+01	2.194896e+01	
300	1.568250e-02	-7.49302e-01	2.270114e+01	2.195183e+01	
301	1.573217e-02	-7.07435e-01	2.266045e+01	2.195302e+01	
302	1.578959e-02	-6.56056e-01	2.260934e+01	2.195329e+01	
303	1.580843e-02	-6.38449e-01	2.259166e+01	2.195321e+01	
304	1.582784e-02	-6.19911e-01	2.257300e+01	2.195309e+01	
305	1.584809e-02	-6.00125e-01	2.255305e+01	2.195293e+01	
306	1.586777e-02	-5.80456e-01	2.253321e+01	2.195275e+01	
307	1.588899e-02	-5.58760e-01	2.251131e+01	2.195255e+01	
308	1.590837e-02	-5.38506e-01	2.249085e+01	2.195235e+01	
309	1.592793e-02	-5.17635e-01	2.246978e+01	2.195214e+01	
310	1.594761e-02	-4.96195e-01	2.244813e+01	2.195193e+01	
311	1.597138e-02	-4.69721e-01	2.242140e+01	2.195167e+01	
312	1.599875e-02	-4.38447e-01	2.238982e+01	2.195138e+01	
313	1.603349e-02	-3.97535e-01	2.234853e+01	2.195100e+01	
314	1.607837e-02	-3.42675e-01	2.229318e+01	2.195050e+01	
315	1.614317e-02	-2.59514e-01	2.220930e+01	2.194979e+01	
316	1.624818e-02	-1.14857e-01	2.206349e+01	2.194863e+01	
317	1.645822e-02	2.104936e-01	2.173583e+01	2.194632e+01	
318	1.687828e-02	1.000097e+00	2.094161e+01	2.194170e+01	
319	1.771842e-02	3.082698e+00	1.884976e+01	2.193246e+01	
320	1.939868e-02	8.703530e+00	1.321045e+01	2.191398e+01	
321	2.139868e-02	1.605084e+01	5.841135e+00	2.189198e+01	
322	2.339868e-02	2.144828e+01	4.217080e-01	2.186998e+01	
323	2.414054e-02	2.249708e+01	-6.33369e-01	2.186371e+01	
324	2.440532e-02	2.273196e+01	-8.50416e-01	2.188155e+01	
325	2.463680e-02	2.288808e+01	-9.55855e-01	2.193222e+01	
326	2.473547e-02	2.294022e+01	-9.76948e-01	2.196327e+01	
327	2.487422e-02	2.299580e+01	-9.85460e-01	2.201034e+01	
328	2.515172e-02	2.303427e+01	-9.38471e-01	2.209580e+01	
329	2.531555e-02	2.300716e+01	-8.75012e-01	2.213215e+01	
330	2.541534e-02	2.297111e+01	-8.24862e-01	2.214625e+01	
331	2.548631e-02	2.293642e+01	-7.84023e-01	2.215240e+01	
