Title: kicad schematic
Date: Sun Dec 14 19:09:03  2025
Plotname: Transient Analysis
Flags: real
No. Variables: 27
No. Points: 59      
Variables:
	0	time	time
	1	v(net-_x1-pad14_)	voltage
	2	v(net-_v_a1-pad1_)	voltage
	3	v(net-_v_a2-pad1_)	voltage
	4	v(net-_v_b1-pad1_)	voltage
	5	v(net-_v_b2-pad1_)	voltage
	6	v(net-_v_a3-pad1_)	voltage
	7	v(net-_v_b3-pad1_)	voltage
	8	v(net-_v_b4-pad1_)	voltage
	9	v(net-_v_a4-pad1_)	voltage
	10	v(v_y2)	voltage
	11	v(v_y1)	voltage
	12	v(v_y4)	voltage
	13	v(v_y3)	voltage
	14	i(v_a4)	current
	15	i(v_b4)	current
	16	i(v_b3)	current
	17	i(v_a3)	current
	18	i(v_b2)	current
	19	i(v_b1)	current
	20	i(v_a2)	current
	21	i(v_a1)	current
	22	i(v1)	current
	23	i(a1)	current
	24	i(a1)	current
	25	i(a1)	current
	26	i(a1)	current
Values:
0		0.000000000000000e+00
	5.000000000000000e+00
	5.000000000000000e+00
	5.000000000000000e+00
	5.000000000000000e+00
	0.000000000000000e+00
	5.000000000000000e+00
	5.000000000000000e+00
	0.000000000000000e+00
	5.000000000000000e+00
	5.000000000000000e+00
	0.000000000000000e+00
	5.000000000000000e+00
	0.000000000000000e+00
	0.000000000000000e+00
	0.000000000000000e+00
	0.000000000000000e+00
	0.000000000000000e+00
	0.000000000000000e+00
	0.000000000000000e+00
	0.000000000000000e+00
	0.000000000000000e+00
	0.000000000000000e+00
	0.000000000000000e+00
	0.000000000000000e+00
	0.000000000000000e+00
	0.000000000000000e+00
1		1.000000000000000e-03
	5.000000000000000e+00
	5.000000000000000e+00
	5.000000000000000e+00
	5.000000000000000e+00
	0.000000000000000e+00
	5.000000000000000e+00
	5.000000000000000e+00
	0.000000000000000e+00
	5.000000000000000e+00
	5.000000000000000e+00
	0.000000000000000e+00
	5.000000000000000e+00
	0.000000000000000e+00
	0.000000000000000e+00
	0.000000000000000e+00
	0.000000000000000e+00
	0.000000000000000e+00
	0.000000000000000e+00
	0.000000000000000e+00
	0.000000000000000e+00
	0.000000000000000e+00
	0.000000000000000e+00
	0.000000000000000e+00
	0.000000000000000e+00
	0.000000000000000e+00
	0.000000000000000e+00
2		2.000000000000000e-03
	5.000000000000000e+00
	5.000000000000000e+00
	5.000000000000000e+00
	5.000000000000000e+00
	0.000000000000000e+00
	5.000000000000000e+00
	5.000000000000000e+00
	0.000000000000000e+00
	5.000000000000000e+00
	5.000000000000000e+00
	0.000000000000000e+00
	5.000000000000000e+00
	0.000000000000000e+00
	0.000000000000000e+00
	0.000000000000000e+00
	0.000000000000000e+00
	0.000000000000000e+00
	0.000000000000000e+00
	0.000000000000000e+00
	0.000000000000000e+00
	0.000000000000000e+00
	0.000000000000000e+00
	0.000000000000000e+00
	0.000000000000000e+00
	0.000000000000000e+00
	0.000000000000000e+00
3		4.000000000000000e-03
	5.000000000000000e+00
	5.000000000000000e+00
	5.000000000000000e+00
	5.000000000000000e+00
	0.000000000000000e+00
	5.000000000000000e+00
	5.000000000000000e+00
	0.000000000000000e+00
	5.000000000000000e+00
	5.000000000000000e+00
	0.000000000000000e+00
	5.000000000000000e+00
	0.000000000000000e+00
	0.000000000000000e+00
	0.000000000000000e+00
	0.000000000000000e+00
	0.000000000000000e+00
	0.000000000000000e+00
	0.000000000000000e+00
	0.000000000000000e+00
	0.000000000000000e+00
	0.000000000000000e+00
	0.000000000000000e+00
	0.000000000000000e+00
	0.000000000000000e+00
	0.000000000000000e+00
4		8.000000000000000e-03
	5.000000000000000e+00
	5.000000000000000e+00
	5.000000000000000e+00
	5.000000000000000e+00
	0.000000000000000e+00
	5.000000000000000e+00
	5.000000000000000e+00
	0.000000000000000e+00
	5.000000000000000e+00
	5.000000000000000e+00
	0.000000000000000e+00
	5.000000000000000e+00
	0.000000000000000e+00
	0.000000000000000e+00
	0.000000000000000e+00
	0.000000000000000e+00
	0.000000000000000e+00
	0.000000000000000e+00
	0.000000000000000e+00
	0.000000000000000e+00
	0.000000000000000e+00
	0.000000000000000e+00
	0.000000000000000e+00
	0.000000000000000e+00
	0.000000000000000e+00
	0.000000000000000e+00
5		1.600000000000000e-02
	5.000000000000000e+00
	5.000000000000000e+00
	5.000000000000000e+00
	5.000000000000000e+00
	0.000000000000000e+00
	5.000000000000000e+00
	5.000000000000000e+00
	0.000000000000000e+00
	5.000000000000000e+00
	5.000000000000000e+00
	0.000000000000000e+00
	5.000000000000000e+00
	0.000000000000000e+00
	0.000000000000000e+00
	0.000000000000000e+00
	0.000000000000000e+00
	0.000000000000000e+00
	0.000000000000000e+00
	0.000000000000000e+00
	0.000000000000000e+00
	0.000000000000000e+00
	0.000000000000000e+00
	0.000000000000000e+00
	0.000000000000000e+00
	0.000000000000000e+00
	0.000000000000000e+00
6		3.200000000000000e-02
	5.000000000000000e+00
	5.000000000000000e+00
	5.000000000000000e+00
	5.000000000000000e+00
	0.000000000000000e+00
	5.000000000000000e+00
	5.000000000000000e+00
	0.000000000000000e+00
	5.000000000000000e+00
	5.000000000000000e+00
	0.000000000000000e+00
	5.000000000000000e+00
	0.000000000000000e+00
	0.000000000000000e+00
	0.000000000000000e+00
	0.000000000000000e+00
	0.000000000000000e+00
	0.000000000000000e+00
	0.000000000000000e+00
	0.000000000000000e+00
	0.000000000000000e+00
	0.000000000000000e+00
	0.000000000000000e+00
	0.000000000000000e+00
	0.000000000000000e+00
	0.000000000000000e+00
7		6.400000000000000e-02
	5.000000000000000e+00
	5.000000000000000e+00
	5.000000000000000e+00
	5.000000000000000e+00
	0.000000000000000e+00
	5.000000000000000e+00
	5.000000000000000e+00
	0.000000000000000e+00
	5.000000000000000e+00
	5.000000000000000e+00
	0.000000000000000e+00
	5.000000000000000e+00
	0.000000000000000e+00
	0.000000000000000e+00
	0.000000000000000e+00
	0.000000000000000e+00
	0.000000000000000e+00
	0.000000000000000e+00
	0.000000000000000e+00
	0.000000000000000e+00
	0.000000000000000e+00
	0.000000000000000e+00
	0.000000000000000e+00
	0.000000000000000e+00
	0.000000000000000e+00
	0.000000000000000e+00
8		1.280000000000000e-01
	5.000000000000000e+00
	5.000000000000000e+00
	5.000000000000000e+00
	5.000000000000000e+00
	0.000000000000000e+00
	5.000000000000000e+00
	5.000000000000000e+00
	0.000000000000000e+00
	5.000000000000000e+00
	5.000000000000000e+00
	0.000000000000000e+00
	5.000000000000000e+00
	0.000000000000000e+00
	0.000000000000000e+00
	0.000000000000000e+00
	0.000000000000000e+00
	0.000000000000000e+00
	0.000000000000000e+00
	0.000000000000000e+00
	0.000000000000000e+00
	0.000000000000000e+00
	0.000000000000000e+00
	0.000000000000000e+00
	0.000000000000000e+00
	0.000000000000000e+00
	0.000000000000000e+00
9		2.560000000000000e-01
	5.000000000000000e+00
	5.000000000000000e+00
	5.000000000000000e+00
	5.000000000000000e+00
	0.000000000000000e+00
	5.000000000000000e+00
	5.000000000000000e+00
	0.000000000000000e+00
	5.000000000000000e+00
	5.000000000000000e+00
	0.000000000000000e+00
	5.000000000000000e+00
	0.000000000000000e+00
	0.000000000000000e+00
	0.000000000000000e+00
	0.000000000000000e+00
	0.000000000000000e+00
	0.000000000000000e+00
	0.000000000000000e+00
	0.000000000000000e+00
	0.000000000000000e+00
	0.000000000000000e+00
	0.000000000000000e+00
	0.000000000000000e+00
	0.000000000000000e+00
	0.000000000000000e+00
10		4.560000000000000e-01
	5.000000000000000e+00
	5.000000000000000e+00
	5.000000000000000e+00
	5.000000000000000e+00
	0.000000000000000e+00
	5.000000000000000e+00
	5.000000000000000e+00
	0.000000000000000e+00
	5.000000000000000e+00
	5.000000000000000e+00
	0.000000000000000e+00
	5.000000000000000e+00
	0.000000000000000e+00
	0.000000000000000e+00
	0.000000000000000e+00
	0.000000000000000e+00
	0.000000000000000e+00
	0.000000000000000e+00
	0.000000000000000e+00
	0.000000000000000e+00
	0.000000000000000e+00
	0.000000000000000e+00
	0.000000000000000e+00
	0.000000000000000e+00
	0.000000000000000e+00
	0.000000000000000e+00
11		6.560000000000000e-01
	5.000000000000000e+00
	5.000000000000000e+00
	5.000000000000000e+00
	5.000000000000000e+00
	0.000000000000000e+00
	5.000000000000000e+00
	5.000000000000000e+00
	0.000000000000000e+00
	5.000000000000000e+00
	5.000000000000000e+00
	0.000000000000000e+00
	5.000000000000000e+00
	0.000000000000000e+00
	0.000000000000000e+00
	0.000000000000000e+00
	0.000000000000000e+00
	0.000000000000000e+00
	0.000000000000000e+00
	0.000000000000000e+00
	0.000000000000000e+00
	0.000000000000000e+00
	0.000000000000000e+00
	0.000000000000000e+00
	0.000000000000000e+00
	0.000000000000000e+00
	0.000000000000000e+00
12		8.560000000000001e-01
	5.000000000000000e+00
	5.000000000000000e+00
	5.000000000000000e+00
	5.000000000000000e+00
	0.000000000000000e+00
	5.000000000000000e+00
	5.000000000000000e+00
	0.000000000000000e+00
	5.000000000000000e+00
	5.000000000000000e+00
	0.000000000000000e+00
	5.000000000000000e+00
	0.000000000000000e+00
	0.000000000000000e+00
	0.000000000000000e+00
	0.000000000000000e+00
	0.000000000000000e+00
	0.000000000000000e+00
	0.000000000000000e+00
	0.000000000000000e+00
	0.000000000000000e+00
	0.000000000000000e+00
	0.000000000000000e+00
	0.000000000000000e+00
	0.000000000000000e+00
	0.000000000000000e+00
13		1.056000000000000e+00
	5.000000000000000e+00
	5.000000000000000e+00
	5.000000000000000e+00
	5.000000000000000e+00
	0.000000000000000e+00
	5.000000000000000e+00
	5.000000000000000e+00
	0.000000000000000e+00
	5.000000000000000e+00
	5.000000000000000e+00
	0.000000000000000e+00
	5.000000000000000e+00
	0.000000000000000e+00
	0.000000000000000e+00
	0.000000000000000e+00
	0.000000000000000e+00
	0.000000000000000e+00
	0.000000000000000e+00
	0.000000000000000e+00
	0.000000000000000e+00
	0.000000000000000e+00
	0.000000000000000e+00
	0.000000000000000e+00
	0.000000000000000e+00
	0.000000000000000e+00
	0.000000000000000e+00
14		1.256000000000000e+00
	5.000000000000000e+00
	5.000000000000000e+00
	5.000000000000000e+00
	5.000000000000000e+00
	0.000000000000000e+00
	5.000000000000000e+00
	5.000000000000000e+00
	0.000000000000000e+00
	5.000000000000000e+00
	5.000000000000000e+00
	0.000000000000000e+00
	5.000000000000000e+00
	0.000000000000000e+00
	0.000000000000000e+00
	0.000000000000000e+00
	0.000000000000000e+00
	0.000000000000000e+00
	0.000000000000000e+00
	0.000000000000000e+00
	0.000000000000000e+00
	0.000000000000000e+00
	0.000000000000000e+00
	0.000000000000000e+00
	0.000000000000000e+00
	0.000000000000000e+00
	0.000000000000000e+00
15		1.456000000000000e+00
	5.000000000000000e+00
	5.000000000000000e+00
	5.000000000000000e+00
	5.000000000000000e+00
	0.000000000000000e+00
	5.000000000000000e+00
	5.000000000000000e+00
	0.000000000000000e+00
	5.000000000000000e+00
	5.000000000000000e+00
	0.000000000000000e+00
	5.000000000000000e+00
	0.000000000000000e+00
	0.000000000000000e+00
	0.000000000000000e+00
	0.000000000000000e+00
	0.000000000000000e+00
	0.000000000000000e+00
	0.000000000000000e+00
	0.000000000000000e+00
	0.000000000000000e+00
	0.000000000000000e+00
	0.000000000000000e+00
	0.000000000000000e+00
	0.000000000000000e+00
	0.000000000000000e+00
16		1.656000000000000e+00
	5.000000000000000e+00
	5.000000000000000e+00
	5.000000000000000e+00
	5.000000000000000e+00
	0.000000000000000e+00
	5.000000000000000e+00
	5.000000000000000e+00
	0.000000000000000e+00
	5.000000000000000e+00
	5.000000000000000e+00
	0.000000000000000e+00
	5.000000000000000e+00
	0.000000000000000e+00
	0.000000000000000e+00
	0.000000000000000e+00
	0.000000000000000e+00
	0.000000000000000e+00
	0.000000000000000e+00
	0.000000000000000e+00
	0.000000000000000e+00
	0.000000000000000e+00
	0.000000000000000e+00
	0.000000000000000e+00
	0.000000000000000e+00
	0.000000000000000e+00
	0.000000000000000e+00
17		1.856000000000000e+00
	5.000000000000000e+00
	5.000000000000000e+00
	5.000000000000000e+00
	5.000000000000000e+00
	0.000000000000000e+00
	5.000000000000000e+00
	5.000000000000000e+00
	0.000000000000000e+00
	5.000000000000000e+00
	5.000000000000000e+00
	0.000000000000000e+00
	5.000000000000000e+00
	0.000000000000000e+00
	0.000000000000000e+00
	0.000000000000000e+00
	0.000000000000000e+00
	0.000000000000000e+00
	0.000000000000000e+00
	0.000000000000000e+00
	0.000000000000000e+00
	0.000000000000000e+00
	0.000000000000000e+00
	0.000000000000000e+00
	0.000000000000000e+00
	0.000000000000000e+00
	0.000000000000000e+00
18		2.056000000000000e+00
	5.000000000000000e+00
	5.000000000000000e+00
	5.000000000000000e+00
	5.000000000000000e+00
	0.000000000000000e+00
	5.000000000000000e+00
	5.000000000000000e+00
	0.000000000000000e+00
	5.000000000000000e+00
	5.000000000000000e+00
	0.000000000000000e+00
	5.000000000000000e+00
	0.000000000000000e+00
	0.000000000000000e+00
	0.000000000000000e+00
	0.000000000000000e+00
	0.000000000000000e+00
	0.000000000000000e+00
	0.000000000000000e+00
	0.000000000000000e+00
	0.000000000000000e+00
	0.000000000000000e+00
	0.000000000000000e+00
	0.000000000000000e+00
	0.000000000000000e+00
	0.000000000000000e+00
19		2.256000000000000e+00
	5.000000000000000e+00
	5.000000000000000e+00
	5.000000000000000e+00
	5.000000000000000e+00
	0.000000000000000e+00
	5.000000000000000e+00
	5.000000000000000e+00
	0.000000000000000e+00
	5.000000000000000e+00
	5.000000000000000e+00
	0.000000000000000e+00
	5.000000000000000e+00
	0.000000000000000e+00
	0.000000000000000e+00
	0.000000000000000e+00
	0.000000000000000e+00
	0.000000000000000e+00
	0.000000000000000e+00
	0.000000000000000e+00
	0.000000000000000e+00
	0.000000000000000e+00
	0.000000000000000e+00
	0.000000000000000e+00
	0.000000000000000e+00
	0.000000000000000e+00
	0.000000000000000e+00
20		2.456000000000000e+00
	5.000000000000000e+00
	5.000000000000000e+00
	5.000000000000000e+00
	5.000000000000000e+00
	0.000000000000000e+00
	5.000000000000000e+00
	5.000000000000000e+00
	0.000000000000000e+00
	5.000000000000000e+00
	5.000000000000000e+00
	0.000000000000000e+00
	5.000000000000000e+00
	0.000000000000000e+00
	0.000000000000000e+00
	0.000000000000000e+00
	0.000000000000000e+00
	0.000000000000000e+00
	0.000000000000000e+00
	0.000000000000000e+00
	0.000000000000000e+00
	0.000000000000000e+00
	0.000000000000000e+00
	0.000000000000000e+00
	0.000000000000000e+00
	0.000000000000000e+00
	0.000000000000000e+00
21		2.656000000000001e+00
	5.000000000000000e+00
	5.000000000000000e+00
	5.000000000000000e+00
	5.000000000000000e+00
	0.000000000000000e+00
	5.000000000000000e+00
	5.000000000000000e+00
	0.000000000000000e+00
	5.000000000000000e+00
	5.000000000000000e+00
	0.000000000000000e+00
	5.000000000000000e+00
	0.000000000000000e+00
	0.000000000000000e+00
	0.000000000000000e+00
	0.000000000000000e+00
	0.000000000000000e+00
	0.000000000000000e+00
	0.000000000000000e+00
	0.000000000000000e+00
	0.000000000000000e+00
	0.000000000000000e+00
	0.000000000000000e+00
	0.000000000000000e+00
	0.000000000000000e+00
	0.000000000000000e+00
22		2.856000000000001e+00
	5.000000000000000e+00
	5.000000000000000e+00
	5.000000000000000e+00
	5.000000000000000e+00
	0.000000000000000e+00
	5.000000000000000e+00
	5.000000000000000e+00
	0.000000000000000e+00
	5.000000000000000e+00
	5.000000000000000e+00
	0.000000000000000e+00
	5.000000000000000e+00
	0.000000000000000e+00
	0.000000000000000e+00
	0.000000000000000e+00
	0.000000000000000e+00
	0.000000000000000e+00
	0.000000000000000e+00
	0.000000000000000e+00
	0.000000000000000e+00
	0.000000000000000e+00
	0.000000000000000e+00
	0.000000000000000e+00
	0.000000000000000e+00
	0.000000000000000e+00
	0.000000000000000e+00
23		3.056000000000001e+00
	5.000000000000000e+00
	5.000000000000000e+00
	5.000000000000000e+00
	5.000000000000000e+00
	0.000000000000000e+00
	5.000000000000000e+00
	5.000000000000000e+00
	0.000000000000000e+00
	5.000000000000000e+00
	5.000000000000000e+00
	0.000000000000000e+00
	5.000000000000000e+00
	0.000000000000000e+00
	0.000000000000000e+00
	0.000000000000000e+00
	0.000000000000000e+00
	0.000000000000000e+00
	0.000000000000000e+00
	0.000000000000000e+00
	0.000000000000000e+00
	0.000000000000000e+00
	0.000000000000000e+00
	0.000000000000000e+00
	0.000000000000000e+00
	0.000000000000000e+00
	0.000000000000000e+00
24		3.256000000000001e+00
	5.000000000000000e+00
	5.000000000000000e+00
	5.000000000000000e+00
	5.000000000000000e+00
	0.000000000000000e+00
	5.000000000000000e+00
	5.000000000000000e+00
	0.000000000000000e+00
	5.000000000000000e+00
	5.000000000000000e+00
	0.000000000000000e+00
	5.000000000000000e+00
	0.000000000000000e+00
	0.000000000000000e+00
	0.000000000000000e+00
	0.000000000000000e+00
	0.000000000000000e+00
	0.000000000000000e+00
	0.000000000000000e+00
	0.000000000000000e+00
	0.000000000000000e+00
	0.000000000000000e+00
	0.000000000000000e+00
	0.000000000000000e+00
	0.000000000000000e+00
	0.000000000000000e+00
25		3.456000000000001e+00
	5.000000000000000e+00
	5.000000000000000e+00
	5.000000000000000e+00
	5.000000000000000e+00
	0.000000000000000e+00
	5.000000000000000e+00
	5.000000000000000e+00
	0.000000000000000e+00
	5.000000000000000e+00
	5.000000000000000e+00
	0.000000000000000e+00
	5.000000000000000e+00
	0.000000000000000e+00
	0.000000000000000e+00
	0.000000000000000e+00
	0.000000000000000e+00
	0.000000000000000e+00
	0.000000000000000e+00
	0.000000000000000e+00
	0.000000000000000e+00
	0.000000000000000e+00
	0.000000000000000e+00
	0.000000000000000e+00
	0.000000000000000e+00
	0.000000000000000e+00
	0.000000000000000e+00
26		3.656000000000001e+00
	5.000000000000000e+00
	5.000000000000000e+00
	5.000000000000000e+00
	5.000000000000000e+00
	0.000000000000000e+00
	5.000000000000000e+00
	5.000000000000000e+00
	0.000000000000000e+00
	5.000000000000000e+00
	5.000000000000000e+00
	0.000000000000000e+00
	5.000000000000000e+00
	0.000000000000000e+00
	0.000000000000000e+00
	0.000000000000000e+00
	0.000000000000000e+00
	0.000000000000000e+00
	0.000000000000000e+00
	0.000000000000000e+00
	0.000000000000000e+00
	0.000000000000000e+00
	0.000000000000000e+00
	0.000000000000000e+00
	0.000000000000000e+00
	0.000000000000000e+00
	0.000000000000000e+00
27		3.856000000000002e+00
	5.000000000000000e+00
	5.000000000000000e+00
	5.000000000000000e+00
	5.000000000000000e+00
	0.000000000000000e+00
	5.000000000000000e+00
	5.000000000000000e+00
	0.000000000000000e+00
	5.000000000000000e+00
	5.000000000000000e+00
	0.000000000000000e+00
	5.000000000000000e+00
	0.000000000000000e+00
	0.000000000000000e+00
	0.000000000000000e+00
	0.000000000000000e+00
	0.000000000000000e+00
	0.000000000000000e+00
	0.000000000000000e+00
	0.000000000000000e+00
	0.000000000000000e+00
	0.000000000000000e+00
	0.000000000000000e+00
	0.000000000000000e+00
	0.000000000000000e+00
	0.000000000000000e+00
28		4.056000000000002e+00
	5.000000000000000e+00
	5.000000000000000e+00
	5.000000000000000e+00
	5.000000000000000e+00
	0.000000000000000e+00
	5.000000000000000e+00
	5.000000000000000e+00
	0.000000000000000e+00
	5.000000000000000e+00
	5.000000000000000e+00
	0.000000000000000e+00
	5.000000000000000e+00
	0.000000000000000e+00
	0.000000000000000e+00
	0.000000000000000e+00
	0.000000000000000e+00
	0.000000000000000e+00
	0.000000000000000e+00
	0.000000000000000e+00
	0.000000000000000e+00
	0.000000000000000e+00
	0.000000000000000e+00
	0.000000000000000e+00
	0.000000000000000e+00
	0.000000000000000e+00
	0.000000000000000e+00
29		4.256000000000002e+00
	5.000000000000000e+00
	5.000000000000000e+00
	5.000000000000000e+00
	5.000000000000000e+00
	0.000000000000000e+00
	5.000000000000000e+00
	5.000000000000000e+00
	0.000000000000000e+00
	5.000000000000000e+00
	5.000000000000000e+00
	0.000000000000000e+00
	5.000000000000000e+00
	0.000000000000000e+00
	0.000000000000000e+00
	0.000000000000000e+00
	0.000000000000000e+00
	0.000000000000000e+00
	0.000000000000000e+00
	0.000000000000000e+00
	0.000000000000000e+00
	0.000000000000000e+00
	0.000000000000000e+00
	0.000000000000000e+00
	0.000000000000000e+00
	0.000000000000000e+00
	0.000000000000000e+00
30		4.456000000000002e+00
	5.000000000000000e+00
	5.000000000000000e+00
	5.000000000000000e+00
	5.000000000000000e+00
	0.000000000000000e+00
	5.000000000000000e+00
	5.000000000000000e+00
	0.000000000000000e+00
	5.000000000000000e+00
	5.000000000000000e+00
	0.000000000000000e+00
	5.000000000000000e+00
	0.000000000000000e+00
	0.000000000000000e+00
	0.000000000000000e+00
	0.000000000000000e+00
	0.000000000000000e+00
	0.000000000000000e+00
	0.000000000000000e+00
	0.000000000000000e+00
	0.000000000000000e+00
