                 * /home/saurabh/desktop/test_pwm/test_pwm.cir
                 Transient Analysis  Fri Mar 13 09:52:56  2020
--------------------------------------------------------------------------------
Index   time            ?               d               net-_u5-pad1_   
--------------------------------------------------------------------------------
0	0.000000e+00	-8.99071e+00	8.993281e+00	0.000000e+00	
1	1.000000e-07	-8.99071e+00	8.993281e+00	0.000000e+00	
2	2.000000e-07	-8.99071e+00	8.993281e+00	0.000000e+00	
3	4.000000e-07	-8.99071e+00	8.993281e+00	0.000000e+00	
4	8.000000e-07	-8.99071e+00	8.993281e+00	0.000000e+00	
5	1.600000e-06	-8.99071e+00	8.993281e+00	0.000000e+00	
6	3.200000e-06	-8.99071e+00	8.993281e+00	0.000000e+00	
7	6.400000e-06	-8.99071e+00	8.993281e+00	0.000000e+00	
8	1.000000e-05	-8.99071e+00	8.993281e+00	0.000000e+00	
9	1.064000e-05	-8.99071e+00	8.993281e+00	6.400000e-01	
10	1.192000e-05	-8.99071e+00	8.993281e+00	1.920000e+00	
11	1.192200e-05	-8.99071e+00	8.993281e+00	1.922000e+00	
12	1.192204e-05	-8.99071e+00	8.993281e+00	1.922040e+00	
13	1.192212e-05	-8.99071e+00	8.993281e+00	1.922119e+00	
14	1.192224e-05	-8.99071e+00	8.993281e+00	1.922243e+00	
15	1.192237e-05	-8.99071e+00	8.993281e+00	1.922370e+00	
16	1.192262e-05	-8.99071e+00	8.993281e+00	1.922623e+00	
17	1.192300e-05	-8.99071e+00	8.993281e+00	1.923000e+00	
18	1.192305e-05	-8.99071e+00	8.993281e+00	1.923051e+00	
19	1.192315e-05	-8.99071e+00	8.993281e+00	1.923152e+00	
20	1.192335e-05	-8.99071e+00	8.993281e+00	1.923355e+00	
21	1.192376e-05	-8.99071e+00	8.993281e+00	1.923761e+00	
22	1.192457e-05	-8.99071e+00	8.993281e+00	1.924572e+00	
23	1.192619e-05	-8.99071e+00	8.993281e+00	1.926195e+00	
24	1.192944e-05	-8.99071e+00	8.993281e+00	1.929440e+00	
25	1.193593e-05	-8.99071e+00	8.993281e+00	1.935931e+00	
26	1.194891e-05	-8.99071e+00	8.993281e+00	1.948913e+00	
27	1.197488e-05	-8.99071e+00	8.993281e+00	1.974877e+00	
28	1.202680e-05	-8.99071e+00	8.993281e+00	2.026804e+00	
29	1.213066e-05	-8.99071e+00	8.993281e+00	2.130659e+00	
30	1.233837e-05	-8.99071e+00	8.993281e+00	2.338368e+00	
31	1.275379e-05	-8.99071e+00	8.993281e+00	2.753787e+00	
32	1.358462e-05	-8.99071e+00	8.993281e+00	3.584625e+00	
33	1.524630e-05	-8.99071e+00	8.993281e+00	5.246300e+00	
34	1.856965e-05	-8.99071e+00	8.993281e+00	8.569650e+00	
35	2.000000e-05	-8.99071e+00	8.993281e+00	1.000000e+01	
36	2.018012e-05	-8.99071e+00	8.993281e+00	1.000000e+01	
37	2.054035e-05	-8.99071e+00	8.993281e+00	1.000000e+01	
38	2.126081e-05	-8.99071e+00	8.993281e+00	1.000000e+01	
39	2.270173e-05	-8.99071e+00	8.993281e+00	1.000000e+01	
40	2.558358e-05	-8.99071e+00	8.993281e+00	1.000000e+01	
41	3.134728e-05	-8.99071e+00	8.993281e+00	1.000000e+01	
42	4.287467e-05	-8.99071e+00	8.993281e+00	1.000000e+01	
43	6.592945e-05	-8.99071e+00	8.993281e+00	1.000000e+01	
44	1.120390e-04	-8.99071e+00	8.993281e+00	1.000000e+01	
45	2.042582e-04	-8.99071e+00	8.993281e+00	1.000000e+01	
46	3.886964e-04	-8.99071e+00	8.993281e+00	1.000000e+01	
47	6.705615e-04	-8.99071e+00	8.993281e+00	1.000000e+01	
48	1.086614e-03	-8.99071e+00	8.993281e+00	1.000000e+01	
49	1.651098e-03	-8.99071e+00	8.993281e+00	1.000000e+01	
50	2.418673e-03	-8.99071e+00	8.993281e+00	1.000000e+01	
51	3.418673e-03	-8.99071e+00	8.993281e+00	1.000000e+01	
52	4.418673e-03	-8.99071e+00	8.993281e+00	1.000000e+01	
53	5.020000e-03	-8.99071e+00	8.993281e+00	1.000000e+01	
54	5.022000e-03	-8.99071e+00	8.993281e+00	9.000000e+00	

Index   time            ?               d               net-_u5-pad1_   
--------------------------------------------------------------------------------
55	5.026000e-03	-8.99071e+00	8.993281e+00	7.000000e+00	
56	5.034000e-03	-8.99071e+00	8.993281e+00	3.000000e+00	
57	5.040000e-03	-8.99071e+00	8.993281e+00	0.000000e+00	
58	5.041600e-03	-8.99071e+00	8.993281e+00	0.000000e+00	
59	5.044800e-03	-8.99071e+00	8.993281e+00	0.000000e+00	
60	5.051200e-03	-8.99071e+00	8.993281e+00	0.000000e+00	
61	5.064000e-03	-8.99071e+00	8.993281e+00	0.000000e+00	
62	5.089600e-03	-8.99071e+00	8.993281e+00	0.000000e+00	
63	5.140800e-03	-8.99071e+00	8.993281e+00	0.000000e+00	
64	5.243200e-03	-8.99071e+00	8.993281e+00	0.000000e+00	
65	5.448000e-03	-8.99071e+00	8.993281e+00	0.000000e+00	
66	5.857600e-03	-8.99071e+00	8.993281e+00	0.000000e+00	
67	6.676800e-03	-8.99071e+00	8.993281e+00	0.000000e+00	
68	7.676800e-03	-8.99071e+00	8.993281e+00	0.000000e+00	
69	8.676800e-03	-8.99071e+00	8.993281e+00	0.000000e+00	
70	9.676800e-03	-8.99071e+00	8.993281e+00	0.000000e+00	
71	1.001000e-02	-8.99071e+00	8.993281e+00	0.000000e+00	
72	1.001100e-02	-8.99071e+00	8.993281e+00	1.000000e+00	
73	1.001300e-02	-8.99071e+00	8.993281e+00	3.000000e+00	
74	1.001700e-02	-8.99071e+00	8.993281e+00	7.000000e+00	
75	1.002000e-02	-8.99071e+00	8.993281e+00	1.000000e+01	
76	1.002080e-02	-8.99071e+00	8.993281e+00	1.000000e+01	
77	1.002240e-02	-8.99071e+00	8.993281e+00	1.000000e+01	
78	1.002560e-02	-8.99071e+00	8.993281e+00	1.000000e+01	
79	1.003200e-02	-8.99071e+00	8.993281e+00	1.000000e+01	
80	1.004480e-02	-8.99071e+00	8.993281e+00	1.000000e+01	
81	1.007040e-02	-8.99071e+00	8.993281e+00	1.000000e+01	
82	1.012160e-02	-8.99071e+00	8.993281e+00	1.000000e+01	
83	1.022400e-02	-8.99071e+00	8.993281e+00	1.000000e+01	
84	1.042880e-02	-8.99071e+00	8.993281e+00	1.000000e+01	
85	1.083840e-02	-8.99071e+00	8.993281e+00	1.000000e+01	
86	1.165760e-02	-8.99071e+00	8.993281e+00	1.000000e+01	
87	1.265760e-02	-8.99071e+00	8.993281e+00	1.000000e+01	
88	1.365760e-02	-8.99071e+00	8.993281e+00	1.000000e+01	
89	1.465760e-02	-8.99071e+00	8.993281e+00	1.000000e+01	
90	1.502000e-02	-8.99071e+00	8.993281e+00	1.000000e+01	
91	1.502200e-02	-8.99071e+00	8.993281e+00	9.000000e+00	
92	1.502600e-02	-8.99071e+00	8.993281e+00	7.000000e+00	
93	1.503400e-02	-8.99071e+00	8.993281e+00	3.000000e+00	
94	1.504000e-02	-8.99071e+00	8.993281e+00	8.402168e-13	
95	1.504160e-02	-8.99071e+00	8.993281e+00	0.000000e+00	
96	1.504480e-02	-8.99071e+00	8.993281e+00	0.000000e+00	
97	1.505120e-02	-8.99071e+00	8.993281e+00	0.000000e+00	
98	1.506400e-02	-8.99071e+00	8.993281e+00	0.000000e+00	
99	1.508960e-02	-8.99071e+00	8.993281e+00	0.000000e+00	
100	1.514080e-02	-8.99071e+00	8.993281e+00	0.000000e+00	
101	1.524320e-02	-8.99071e+00	8.993281e+00	0.000000e+00	
102	1.544800e-02	-8.99071e+00	8.993281e+00	0.000000e+00	
103	1.585760e-02	-8.99071e+00	8.993281e+00	0.000000e+00	
104	1.667680e-02	-8.99071e+00	8.993281e+00	0.000000e+00	
105	1.767680e-02	-8.99071e+00	8.993281e+00	0.000000e+00	
106	1.867680e-02	-8.99071e+00	8.993281e+00	0.000000e+00	
107	1.967680e-02	-8.99071e+00	8.993281e+00	0.000000e+00	
108	2.001000e-02	-8.99071e+00	8.993281e+00	0.000000e+00	
109	2.001100e-02	-8.99071e+00	8.993281e+00	1.000000e+00	
110	2.001300e-02	-8.99071e+00	8.993281e+00	3.000000e+00	
111	2.001700e-02	-8.99071e+00	8.993281e+00	7.000000e+00	
112	2.002000e-02	-8.99071e+00	8.993281e+00	1.000000e+01	

Index   time            ?               d               net-_u5-pad1_   
--------------------------------------------------------------------------------
113	2.002080e-02	-8.99071e+00	8.993281e+00	1.000000e+01	
114	2.002240e-02	-8.99071e+00	8.993281e+00	1.000000e+01	
115	2.002560e-02	-8.99071e+00	8.993281e+00	1.000000e+01	
116	2.003200e-02	-8.99071e+00	8.993281e+00	1.000000e+01	
117	2.004480e-02	-8.99071e+00	8.993281e+00	1.000000e+01	
118	2.007040e-02	-8.99071e+00	8.993281e+00	1.000000e+01	
119	2.012160e-02	-8.99071e+00	8.993281e+00	1.000000e+01	
120	2.022400e-02	-8.99071e+00	8.993281e+00	1.000000e+01	
121	2.042880e-02	-8.99071e+00	8.993281e+00	1.000000e+01	
122	2.083840e-02	-8.99071e+00	8.993281e+00	1.000000e+01	
123	2.165760e-02	-8.99071e+00	8.993281e+00	1.000000e+01	
124	2.265760e-02	-8.99071e+00	8.993281e+00	1.000000e+01	
125	2.365760e-02	-8.99071e+00	8.993281e+00	1.000000e+01	
126	2.465760e-02	-8.99071e+00	8.993281e+00	1.000000e+01	
127	2.502000e-02	-8.99071e+00	8.993281e+00	1.000000e+01	
128	2.502200e-02	-8.99071e+00	8.993281e+00	9.000000e+00	
129	2.502600e-02	-8.99071e+00	8.993281e+00	7.000000e+00	
130	2.503400e-02	-8.99071e+00	8.993281e+00	3.000000e+00	
131	2.504000e-02	-8.99071e+00	8.993281e+00	0.000000e+00	
132	2.504160e-02	-8.99071e+00	8.993281e+00	0.000000e+00	
133	2.504480e-02	-8.99071e+00	8.993281e+00	0.000000e+00	
134	2.505120e-02	-8.99071e+00	8.993281e+00	0.000000e+00	
135	2.506400e-02	-8.99071e+00	8.993281e+00	0.000000e+00	
136	2.508960e-02	-8.99071e+00	8.993281e+00	0.000000e+00	
137	2.514080e-02	-8.99071e+00	8.993281e+00	0.000000e+00	
138	2.524320e-02	-8.99071e+00	8.993281e+00	0.000000e+00	
139	2.544800e-02	-8.99071e+00	8.993281e+00	0.000000e+00	
140	2.585760e-02	-8.99071e+00	8.993281e+00	0.000000e+00	
141	2.667680e-02	-8.99071e+00	8.993281e+00	0.000000e+00	
142	2.767680e-02	-8.99071e+00	8.993281e+00	0.000000e+00	
143	2.867680e-02	-8.99071e+00	8.993281e+00	0.000000e+00	
144	2.967680e-02	-8.99071e+00	8.993281e+00	0.000000e+00	
145	3.001000e-02	-8.99071e+00	8.993281e+00	0.000000e+00	
146	3.001100e-02	-8.99071e+00	8.993281e+00	1.000000e+00	
147	3.001300e-02	-8.99071e+00	8.993281e+00	3.000000e+00	
148	3.001700e-02	-8.99071e+00	8.993281e+00	7.000000e+00	
149	3.002000e-02	-8.99071e+00	8.993281e+00	1.000000e+01	
150	3.002080e-02	-8.99071e+00	8.993281e+00	1.000000e+01	
151	3.002240e-02	-8.99071e+00	8.993281e+00	1.000000e+01	
152	3.002560e-02	-8.99071e+00	8.993281e+00	1.000000e+01	
153	3.003200e-02	-8.99071e+00	8.993281e+00	1.000000e+01	
154	3.004480e-02	-8.99071e+00	8.993281e+00	1.000000e+01	
155	3.007040e-02	-8.99071e+00	8.993281e+00	1.000000e+01	
156	3.012160e-02	-8.99071e+00	8.993281e+00	1.000000e+01	
157	3.022400e-02	-8.99071e+00	8.993281e+00	1.000000e+01	
158	3.042880e-02	-8.99071e+00	8.993281e+00	1.000000e+01	
159	3.083840e-02	-8.99071e+00	8.993281e+00	1.000000e+01	
160	3.165760e-02	-8.99071e+00	8.993281e+00	1.000000e+01	
161	3.265760e-02	-8.99071e+00	8.993281e+00	1.000000e+01	
162	3.365760e-02	-8.99071e+00	8.993281e+00	1.000000e+01	
163	3.465760e-02	-8.99071e+00	8.993281e+00	1.000000e+01	
164	3.502000e-02	-8.99071e+00	8.993281e+00	1.000000e+01	
165	3.502200e-02	-8.99071e+00	8.993281e+00	9.000000e+00	
166	3.502600e-02	-8.99071e+00	8.993281e+00	7.000000e+00	
167	3.503400e-02	-8.99071e+00	8.993281e+00	3.000000e+00	
168	3.504000e-02	-8.99071e+00	8.993281e+00	3.442580e-12	
169	3.504160e-02	-8.99071e+00	8.993281e+00	0.000000e+00	
170	3.504480e-02	-8.99071e+00	8.993281e+00	0.000000e+00	

Index   time            ?               d               net-_u5-pad1_   
--------------------------------------------------------------------------------
171	3.505120e-02	-8.99071e+00	8.993281e+00	0.000000e+00	
172	3.506400e-02	-8.99071e+00	8.993281e+00	0.000000e+00	
173	3.508960e-02	-8.99071e+00	8.993281e+00	0.000000e+00	
174	3.514080e-02	-8.99071e+00	8.993281e+00	0.000000e+00	
175	3.524320e-02	-8.99071e+00	8.993281e+00	0.000000e+00	
176	3.544800e-02	-8.99071e+00	8.993281e+00	0.000000e+00	
177	3.585760e-02	-8.99071e+00	8.993281e+00	0.000000e+00	
178	3.667680e-02	-8.99071e+00	8.993281e+00	0.000000e+00	
179	3.767680e-02	-8.99071e+00	8.993281e+00	0.000000e+00	
180	3.867680e-02	-8.99071e+00	8.993281e+00	0.000000e+00	
181	3.967680e-02	-8.99071e+00	8.993281e+00	0.000000e+00	
182	4.001000e-02	-8.99071e+00	8.993281e+00	0.000000e+00	
183	4.001100e-02	-8.99071e+00	8.993281e+00	1.000000e+00	
184	4.001300e-02	-8.99071e+00	8.993281e+00	3.000000e+00	
185	4.001700e-02	-8.99071e+00	8.993281e+00	7.000000e+00	
186	4.002000e-02	-8.99071e+00	8.993281e+00	1.000000e+01	
187	4.002080e-02	-8.99071e+00	8.993281e+00	1.000000e+01	
188	4.002240e-02	-8.99071e+00	8.993281e+00	1.000000e+01	
189	4.002560e-02	-8.99071e+00	8.993281e+00	1.000000e+01	
190	4.003200e-02	-8.99071e+00	8.993281e+00	1.000000e+01	
191	4.004480e-02	-8.99071e+00	8.993281e+00	1.000000e+01	
192	4.007040e-02	-8.99071e+00	8.993281e+00	1.000000e+01	
193	4.012160e-02	-8.99071e+00	8.993281e+00	1.000000e+01	
194	4.022400e-02	-8.99071e+00	8.993281e+00	1.000000e+01	
195	4.042880e-02	-8.99071e+00	8.993281e+00	1.000000e+01	
196	4.083840e-02	-8.99071e+00	8.993281e+00	1.000000e+01	
197	4.165760e-02	-8.99071e+00	8.993281e+00	1.000000e+01	
198	4.265760e-02	-8.99071e+00	8.993281e+00	1.000000e+01	
199	4.365760e-02	-8.99071e+00	8.993281e+00	1.000000e+01	
200	4.465760e-02	-8.99071e+00	8.993281e+00	1.000000e+01	
201	4.502000e-02	-8.99071e+00	8.993281e+00	1.000000e+01	
202	4.502200e-02	-8.99071e+00	8.993281e+00	9.000000e+00	
203	4.502600e-02	-8.99071e+00	8.993281e+00	7.000000e+00	
204	4.503400e-02	-8.99071e+00	8.993281e+00	3.000000e+00	
205	4.504000e-02	-8.99071e+00	8.993281e+00	0.000000e+00	
206	4.504160e-02	-8.99071e+00	8.993281e+00	0.000000e+00	
207	4.504480e-02	-8.99071e+00	8.993281e+00	0.000000e+00	
208	4.505120e-02	-8.99071e+00	8.993281e+00	0.000000e+00	
209	4.506400e-02	-8.99071e+00	8.993281e+00	0.000000e+00	
210	4.508960e-02	-8.99071e+00	8.993281e+00	0.000000e+00	
211	4.514080e-02	-8.99071e+00	8.993281e+00	0.000000e+00	
212	4.524320e-02	-8.99071e+00	8.993281e+00	0.000000e+00	
213	4.544800e-02	-8.99071e+00	8.993281e+00	0.000000e+00	
214	4.585760e-02	-8.99071e+00	8.993281e+00	0.000000e+00	
215	4.667680e-02	-8.99071e+00	8.993281e+00	0.000000e+00	
216	4.767680e-02	-8.99071e+00	8.993281e+00	0.000000e+00	
217	4.867680e-02	-8.99071e+00	8.993281e+00	0.000000e+00	
218	4.967680e-02	-8.99071e+00	8.993281e+00	0.000000e+00	
219	5.001000e-02	-8.99071e+00	8.993281e+00	0.000000e+00	
220	5.001100e-02	-8.99071e+00	8.993281e+00	1.000000e+00	
221	5.001300e-02	-8.99071e+00	8.993281e+00	3.000000e+00	
222	5.001700e-02	-8.99071e+00	8.993281e+00	7.000000e+00	
223	5.002000e-02	-8.99071e+00	8.993281e+00	1.000000e+01	
224	5.002080e-02	-8.99071e+00	8.993281e+00	1.000000e+01	
225	5.002240e-02	-8.99071e+00	8.993281e+00	1.000000e+01	
226	5.002560e-02	-8.99071e+00	8.993281e+00	1.000000e+01	
227	5.003200e-02	-8.99071e+00	8.993281e+00	1.000000e+01	
228	5.004480e-02	-8.99071e+00	8.993281e+00	1.000000e+01	

Index   time            ?               d               net-_u5-pad1_   
--------------------------------------------------------------------------------
229	5.007040e-02	-8.99071e+00	8.993281e+00	1.000000e+01	
230	5.012160e-02	-8.99071e+00	8.993281e+00	1.000000e+01	
231	5.022400e-02	-8.99071e+00	8.993281e+00	1.000000e+01	
232	5.042880e-02	-8.99071e+00	8.993281e+00	1.000000e+01	
233	5.083840e-02	-8.99071e+00	8.993281e+00	1.000000e+01	
234	5.165760e-02	-8.99071e+00	8.993281e+00	1.000000e+01	
235	5.265760e-02	-8.99071e+00	8.993281e+00	1.000000e+01	
236	5.365760e-02	-8.99071e+00	8.993281e+00	1.000000e+01	
237	5.465760e-02	-8.99071e+00	8.993281e+00	1.000000e+01	
238	5.502000e-02	-8.99071e+00	8.993281e+00	1.000000e+01	
239	5.502200e-02	-8.99071e+00	8.993281e+00	9.000000e+00	
240	5.502600e-02	-8.99071e+00	8.993281e+00	7.000000e+00	
241	5.503400e-02	-8.99071e+00	8.993281e+00	3.000000e+00	
242	5.504000e-02	-8.99071e+00	8.993281e+00	0.000000e+00	
243	5.504160e-02	-8.99071e+00	8.993281e+00	0.000000e+00	
244	5.504480e-02	-8.99071e+00	8.993281e+00	0.000000e+00	
245	5.505120e-02	-8.99071e+00	8.993281e+00	0.000000e+00	
246	5.506400e-02	-8.99071e+00	8.993281e+00	0.000000e+00	
247	5.508960e-02	-8.99071e+00	8.993281e+00	0.000000e+00	
248	5.514080e-02	-8.99071e+00	8.993281e+00	0.000000e+00	
249	5.524320e-02	-8.99071e+00	8.993281e+00	0.000000e+00	
250	5.544800e-02	-8.99071e+00	8.993281e+00	0.000000e+00	
251	5.585760e-02	-8.99071e+00	8.993281e+00	0.000000e+00	
252	5.667680e-02	-8.99071e+00	8.993281e+00	0.000000e+00	
253	5.767680e-02	-8.99071e+00	8.993281e+00	0.000000e+00	
254	5.867680e-02	-8.99071e+00	8.993281e+00	0.000000e+00	
255	5.967680e-02	-8.99071e+00	8.993281e+00	0.000000e+00	
256	6.001000e-02	-8.99071e+00	8.993281e+00	6.938894e-12	
257	6.001100e-02	-8.99071e+00	8.993281e+00	1.000000e+00	
258	6.001300e-02	-8.99071e+00	8.993281e+00	3.000000e+00	
259	6.001700e-02	-8.99071e+00	8.993281e+00	7.000000e+00	
260	6.002000e-02	-8.99071e+00	8.993281e+00	1.000000e+01	
261	6.002080e-02	-8.99071e+00	8.993281e+00	1.000000e+01	
262	6.002240e-02	-8.99071e+00	8.993281e+00	1.000000e+01	
263	6.002560e-02	-8.99071e+00	8.993281e+00	1.000000e+01	
264	6.003200e-02	-8.99071e+00	8.993281e+00	1.000000e+01	
265	6.004480e-02	-8.99071e+00	8.993281e+00	1.000000e+01	
266	6.007040e-02	-8.99071e+00	8.993281e+00	1.000000e+01	
267	6.012160e-02	-8.99071e+00	8.993281e+00	1.000000e+01	
268	6.022400e-02	-8.99071e+00	8.993281e+00	1.000000e+01	
269	6.042880e-02	-8.99071e+00	8.993281e+00	1.000000e+01	
270	6.083840e-02	-8.99071e+00	8.993281e+00	1.000000e+01	
271	6.165760e-02	-8.99071e+00	8.993281e+00	1.000000e+01	
272	6.265760e-02	-8.99071e+00	8.993281e+00	1.000000e+01	
273	6.365760e-02	-8.99071e+00	8.993281e+00	1.000000e+01	
274	6.465760e-02	-8.99071e+00	8.993281e+00	1.000000e+01	
275	6.502000e-02	-8.99071e+00	8.993281e+00	1.000000e+01	
276	6.502200e-02	-8.99071e+00	8.993281e+00	9.000000e+00	
277	6.502600e-02	-8.99071e+00	8.993281e+00	7.000000e+00	
278	6.503400e-02	-8.99071e+00	8.993281e+00	3.000000e+00	
279	6.504000e-02	-8.99071e+00	8.993281e+00	0.000000e+00	
280	6.504160e-02	-8.99071e+00	8.993281e+00	0.000000e+00	
281	6.504480e-02	-8.99071e+00	8.993281e+00	0.000000e+00	
282	6.505120e-02	-8.99071e+00	8.993281e+00	0.000000e+00	
283	6.506400e-02	-8.99071e+00	8.993281e+00	0.000000e+00	
284	6.508960e-02	-8.99071e+00	8.993281e+00	0.000000e+00	
285	6.514080e-02	-8.99071e+00	8.993281e+00	0.000000e+00	
286	6.524320e-02	-8.99071e+00	8.993281e+00	0.000000e+00	

Index   time            ?               d               net-_u5-pad1_   
--------------------------------------------------------------------------------
287	6.544800e-02	-8.99071e+00	8.993281e+00	0.000000e+00	
288	6.585760e-02	-8.99071e+00	8.993281e+00	0.000000e+00	
289	6.667680e-02	-8.99071e+00	8.993281e+00	0.000000e+00	
290	6.767680e-02	-8.99072e+00	8.993281e+00	0.000000e+00	
291	6.867680e-02	-8.99072e+00	8.993281e+00	0.000000e+00	
292	6.967680e-02	-8.99073e+00	8.993281e+00	0.000000e+00	
293	7.001000e-02	-8.99073e+00	8.993281e+00	0.000000e+00	
294	7.001100e-02	-8.99073e+00	8.993281e+00	1.000000e+00	
295	7.001300e-02	-8.99073e+00	8.993281e+00	3.000000e+00	
296	7.001700e-02	-8.99073e+00	8.993281e+00	7.000000e+00	
297	7.002000e-02	-8.99073e+00	8.993281e+00	1.000000e+01	
298	7.002080e-02	-8.99073e+00	8.993281e+00	1.000000e+01	
299	7.002240e-02	-8.99073e+00	8.993281e+00	1.000000e+01	
300	7.002560e-02	-8.99073e+00	8.993281e+00	1.000000e+01	
301	7.003200e-02	-8.99073e+00	8.993281e+00	1.000000e+01	
302	7.004480e-02	-8.99073e+00	8.993281e+00	1.000000e+01	
303	7.007040e-02	-8.99073e+00	8.993281e+00	1.000000e+01	
304	7.012160e-02	-8.99073e+00	8.993281e+00	1.000000e+01	
305	7.022400e-02	-8.99073e+00	8.993281e+00	1.000000e+01	
306	7.042880e-02	-8.99074e+00	8.993281e+00	1.000000e+01	
307	7.083840e-02	-8.99074e+00	8.993281e+00	1.000000e+01	
308	7.165760e-02	-8.99075e+00	8.993281e+00	1.000000e+01	
309	7.265760e-02	-8.99078e+00	8.993281e+00	1.000000e+01	
310	7.365760e-02	-8.99081e+00	8.993281e+00	1.000000e+01	
311	7.465760e-02	-8.99085e+00	8.993281e+00	1.000000e+01	
312	7.502000e-02	-8.99087e+00	8.993281e+00	1.000000e+01	
313	7.502200e-02	-8.99088e+00	8.993281e+00	9.000000e+00	
314	7.502600e-02	-8.99088e+00	8.993281e+00	7.000000e+00	
315	7.503400e-02	-8.99088e+00	8.993281e+00	3.000000e+00	
316	7.504000e-02	-8.99088e+00	8.993281e+00	0.000000e+00	
317	7.504160e-02	-8.99088e+00	8.993281e+00	0.000000e+00	
318	7.504480e-02	-8.99088e+00	8.993281e+00	0.000000e+00	
319	7.505120e-02	-8.99088e+00	8.993281e+00	0.000000e+00	
320	7.506400e-02	-8.99088e+00	8.993281e+00	0.000000e+00	
321	7.508960e-02	-8.99088e+00	8.993281e+00	0.000000e+00	
322	7.514080e-02	-8.99088e+00	8.993281e+00	0.000000e+00	
323	7.524320e-02	-8.99089e+00	8.993281e+00	0.000000e+00	
324	7.544800e-02	-8.99090e+00	8.993281e+00	0.000000e+00	
325	7.585760e-02	-8.99093e+00	8.993281e+00	0.000000e+00	
326	7.667680e-02	-8.99101e+00	8.993281e+00	0.000000e+00	
327	7.767680e-02	-8.99112e+00	8.993281e+00	0.000000e+00	
328	7.867680e-02	-8.99127e+00	8.993281e+00	0.000000e+00	
329	7.967680e-02	-8.99145e+00	8.993281e+00	0.000000e+00	
330	8.001000e-02	-8.99152e+00	8.993281e+00	0.000000e+00	
331	8.001100e-02	-8.99152e+00	8.993281e+00	1.000000e+00	
