Title: kicad schematic
Date: Sun Dec 14 19:36:12  2025
Plotname: Transient Analysis
Flags: real
No. Variables: 49
No. Points: 59      
Variables:
	0	time	time
	1	v(net-_v_oe_n2-pad1_)	voltage
	2	v(net-_v_a1-pad1_)	voltage
	3	v(net-_v_oe_n1-pad1_)	voltage
	4	v(net-_v_a2-pad1_)	voltage
	5	v(x1.net-_m1-pad1_)	voltage
	6	v(x1.net-_m3-pad2_)	voltage
	7	v(x1.net-_m3-pad3_)	voltage
	8	v(x1.net-_m1-pad2_)	voltage
	9	v(x1.net-_m4-pad1_)	voltage
	10	v(x1.net-_m4-pad2_)	voltage
	11	v(x1.net-_m7-pad2_)	voltage
	12	v(x1.net-_m2-pad1_)	voltage
	13	v(x1.net-_m6-pad2_)	voltage
	14	v(x1.net-_m5-pad1_)	voltage
	15	v(x1.net-_m5-pad2_)	voltage
	16	v(x1.net-_m8-pad2_)	voltage
	17	v(x1.net-_m2-pad2_)	voltage
	18	v(net-_x1-pad14_)	voltage
	19	v(net-_v_oe_n3-pad1_)	voltage
	20	v(net-_v_a3-pad1_)	voltage
	21	v(net-_v_a4-pad1_)	voltage
	22	v(net-_v_oe_n4-pad1_)	voltage
	23	v(v_y2)	voltage
	24	v(v_y1)	voltage
	25	v(v_y4)	voltage
	26	v(v_y3)	voltage
	27	i(v_oe_n4)	current
	28	i(v_a4)	current
	29	i(v_a3)	current
	30	i(v_oe_n3)	current
	31	i(v1)	current
	32	i(v.x1.v1)	current
	33	i(v_a2)	current
	34	i(v_oe_n1)	current
	35	i(v_a1)	current
	36	i(v_oe_n2)	current
	37	i(a3)	current
	38	i(a3)	current
	39	i(a3)	current
	40	i(a3)	current
	41	i(a.x1.a20)	current
	42	i(a.x1.a19)	current
	43	i(a.x1.a15)	current
	44	i(a.x1.a13)	current
	45	i(a.x1.a5)	current
	46	i(a.x1.a4)	current
	47	i(a.x1.a2)	current
	48	i(a.x1.a1)	current
Values:
0		0.000000000000000e+00
	0.000000000000000e+00
	0.000000000000000e+00
	0.000000000000000e+00
	5.000000000000000e+00
	2.343353336056366e-08
	5.000000000000000e+00
	5.000000000000000e+00
	5.000000000000000e+00
	4.999999903855423e+00
	0.000000000000000e+00
	0.000000000000000e+00
	4.999999903855423e+00
	0.000000000000000e+00
	4.999999903855423e+00
	0.000000000000000e+00
	0.000000000000000e+00
	0.000000000000000e+00
	5.000000000000000e+00
	0.000000000000000e+00
	5.000000000000000e+00
	5.000000000000000e+00
	0.000000000000000e+00
	5.000000000000000e+00
	0.000000000000000e+00
	5.000000000000000e+00
	5.000000000000000e+00
	0.000000000000000e+00
	0.000000000000000e+00
	0.000000000000000e+00
	0.000000000000000e+00
	0.000000000000000e+00
	-5.141282697411836e-11
	0.000000000000000e+00
	0.000000000000000e+00
	0.000000000000000e+00
	0.000000000000000e+00
	0.000000000000000e+00
	0.000000000000000e+00
	0.000000000000000e+00
	0.000000000000000e+00
	0.000000000000000e+00
	0.000000000000000e+00
	0.000000000000000e+00
	0.000000000000000e+00
	0.000000000000000e+00
	0.000000000000000e+00
	0.000000000000000e+00
	0.000000000000000e+00
1		1.000000000000000e-03
	0.000000000000000e+00
	0.000000000000000e+00
	0.000000000000000e+00
	5.000000000000000e+00
	2.343353425297317e-08
	5.000000000000000e+00
	5.000000000000000e+00
	5.000000000000000e+00
	4.999999903855071e+00
	0.000000000000000e+00
	0.000000000000000e+00
	4.999999903855071e+00
	0.000000000000000e+00
	4.999999903855071e+00
	0.000000000000000e+00
	0.000000000000000e+00
	0.000000000000000e+00
	5.000000000000000e+00
	0.000000000000000e+00
	5.000000000000000e+00
	5.000000000000000e+00
	0.000000000000000e+00
	5.000000000000000e+00
	0.000000000000000e+00
	5.000000000000000e+00
	5.000000000000000e+00
	0.000000000000000e+00
	0.000000000000000e+00
	0.000000000000000e+00
	0.000000000000000e+00
	0.000000000000000e+00
	-5.141262827711044e-11
	0.000000000000000e+00
	0.000000000000000e+00
	0.000000000000000e+00
	0.000000000000000e+00
	0.000000000000000e+00
	0.000000000000000e+00
	0.000000000000000e+00
	0.000000000000000e+00
	-2.497051474144452e-23
	-1.471719745854347e-20
	-1.471719745854347e-20
	-2.497051474144452e-23
	-1.471719745854347e-20
	-2.497051474144452e-23
	3.827005938486965e-23
	3.325211999121331e-24
2		2.000000000000000e-03
	0.000000000000000e+00
	0.000000000000000e+00
	0.000000000000000e+00
	5.000000000000000e+00
	2.343353602916392e-08
	5.000000000000000e+00
	5.000000000000000e+00
	5.000000000000000e+00
	4.999999903854574e+00
	0.000000000000000e+00
	0.000000000000000e+00
	4.999999903854574e+00
	0.000000000000000e+00
	4.999999903854574e+00
	0.000000000000000e+00
	0.000000000000000e+00
	0.000000000000000e+00
	5.000000000000000e+00
	0.000000000000000e+00
	5.000000000000000e+00
	5.000000000000000e+00
	0.000000000000000e+00
	5.000000000000000e+00
	0.000000000000000e+00
	5.000000000000000e+00
	5.000000000000000e+00
	0.000000000000000e+00
	0.000000000000000e+00
	0.000000000000000e+00
	0.000000000000000e+00
	0.000000000000000e+00
	-5.141285034176622e-11
	0.000000000000000e+00
	0.000000000000000e+00
	0.000000000000000e+00
	0.000000000000000e+00
	0.000000000000000e+00
	0.000000000000000e+00
	0.000000000000000e+00
	0.000000000000000e+00
	-3.003699599333182e-23
	-2.080524676693375e-20
	-2.080524676693375e-20
	-3.003699599333182e-23
	-2.080524676693375e-20
	-3.003699599333182e-23
	5.971521331380369e-23
	-9.797433771988709e-24
3		4.000000000000000e-03
	0.000000000000000e+00
	0.000000000000000e+00
	0.000000000000000e+00
	5.000000000000000e+00
	2.343353335669059e-08
	5.000000000000000e+00
	5.000000000000000e+00
	5.000000000000000e+00
	4.999999903854695e+00
	0.000000000000000e+00
	0.000000000000000e+00
	4.999999903854695e+00
	0.000000000000000e+00
	4.999999903854695e+00
	0.000000000000000e+00
	0.000000000000000e+00
	0.000000000000000e+00
	5.000000000000000e+00
	0.000000000000000e+00
	5.000000000000000e+00
	5.000000000000000e+00
	0.000000000000000e+00
	5.000000000000000e+00
	0.000000000000000e+00
	5.000000000000000e+00
	5.000000000000000e+00
	0.000000000000000e+00
	0.000000000000000e+00
	0.000000000000000e+00
	0.000000000000000e+00
	0.000000000000000e+00
	-5.141329444307276e-11
	0.000000000000000e+00
	0.000000000000000e+00
	0.000000000000000e+00
	0.000000000000000e+00
	0.000000000000000e+00
	0.000000000000000e+00
	0.000000000000000e+00
	0.000000000000000e+00
	4.089374153309031e-23
	2.599332356886634e-20
	2.599332356886634e-20
	4.089374153309031e-23
	2.599332356886634e-20
	4.089374153309031e-23
	-1.580837588164441e-22
	-9.966317196586940e-24
4		8.000000000000000e-03
	0.000000000000000e+00
	0.000000000000000e+00
	0.000000000000000e+00
	5.000000000000000e+00
	2.343353603743571e-08
	5.000000000000000e+00
	5.000000000000000e+00
	5.000000000000000e+00
	4.999999903854354e+00
	0.000000000000000e+00
	0.000000000000000e+00
	4.999999903854354e+00
	0.000000000000000e+00
	4.999999903854354e+00
	0.000000000000000e+00
	0.000000000000000e+00
	0.000000000000000e+00
	5.000000000000000e+00
	0.000000000000000e+00
	5.000000000000000e+00
	5.000000000000000e+00
	0.000000000000000e+00
	5.000000000000000e+00
	0.000000000000000e+00
	5.000000000000000e+00
	5.000000000000000e+00
	0.000000000000000e+00
	0.000000000000000e+00
	0.000000000000000e+00
	0.000000000000000e+00
	0.000000000000000e+00
	-5.141283865911062e-11
	0.000000000000000e+00
	0.000000000000000e+00
	0.000000000000000e+00
	0.000000000000000e+00
	0.000000000000000e+00
	0.000000000000000e+00
	0.000000000000000e+00
	0.000000000000000e+00
	-5.045801736573469e-23
	-3.324604317973129e-20
	-3.324604317973129e-20
	-5.045801736573469e-23
	-3.324604317973129e-20
	-5.045801736573469e-23
	1.623796850748465e-22
	1.693139982944030e-24
5		1.600000000000000e-02
	0.000000000000000e+00
	0.000000000000000e+00
	0.000000000000000e+00
	5.000000000000000e+00
	2.343353513295986e-08
	5.000000000000000e+00
	5.000000000000000e+00
	5.000000000000000e+00
	4.999999903855038e+00
	0.000000000000000e+00
	0.000000000000000e+00
	4.999999903855038e+00
	0.000000000000000e+00
	4.999999903855038e+00
	0.000000000000000e+00
	0.000000000000000e+00
	0.000000000000000e+00
	5.000000000000000e+00
	0.000000000000000e+00
	5.000000000000000e+00
	5.000000000000000e+00
	0.000000000000000e+00
	5.000000000000000e+00
	0.000000000000000e+00
	5.000000000000000e+00
	5.000000000000000e+00
	0.000000000000000e+00
	0.000000000000000e+00
	0.000000000000000e+00
	0.000000000000000e+00
	0.000000000000000e+00
	-5.141172259397072e-11
	0.000000000000000e+00
	0.000000000000000e+00
	0.000000000000000e+00
	0.000000000000000e+00
	0.000000000000000e+00
	0.000000000000000e+00
	0.000000000000000e+00
	0.000000000000000e+00
	6.051343168708243e-23
	4.040611856199030e-20
	4.040611856199030e-20
	6.051343168708243e-23
	4.040611856199030e-20
	6.051343168708243e-23
	-1.400379399442080e-22
	-2.561164950539355e-23
6		3.200000000000000e-02
	0.000000000000000e+00
	0.000000000000000e+00
	0.000000000000000e+00
	5.000000000000000e+00
	2.343353425269016e-08
	5.000000000000000e+00
	5.000000000000000e+00
	5.000000000000000e+00
	4.999999903854861e+00
	0.000000000000000e+00
	0.000000000000000e+00
	4.999999903854861e+00
	0.000000000000000e+00
	4.999999903854861e+00
	0.000000000000000e+00
	0.000000000000000e+00
	0.000000000000000e+00
	5.000000000000000e+00
	0.000000000000000e+00
	5.000000000000000e+00
	5.000000000000000e+00
	0.000000000000000e+00
	5.000000000000000e+00
	0.000000000000000e+00
	5.000000000000000e+00
	5.000000000000000e+00
	0.000000000000000e+00
	0.000000000000000e+00
	0.000000000000000e+00
	0.000000000000000e+00
	0.000000000000000e+00
	-5.141238580231236e-11
	0.000000000000000e+00
	0.000000000000000e+00
	0.000000000000000e+00
	0.000000000000000e+00
	0.000000000000000e+00
	0.000000000000000e+00
	0.000000000000000e+00
	0.000000000000000e+00
	-6.210963177536835e-23
	-4.133256084804969e-20
	-4.133256084804969e-20
	-6.210963177536835e-23
	-4.133256084804969e-20
	-6.210963177536835e-23
	1.437486122938311e-22
	2.357024406721989e-23
7		6.400000000000000e-02
	0.000000000000000e+00
	0.000000000000000e+00
	0.000000000000000e+00
	5.000000000000000e+00
	2.343353336504505e-08
	5.000000000000000e+00
	5.000000000000000e+00
	5.000000000000000e+00
	4.999999903854386e+00
	0.000000000000000e+00
	0.000000000000000e+00
	4.999999903854386e+00
	0.000000000000000e+00
	4.999999903854386e+00
	0.000000000000000e+00
	0.000000000000000e+00
	0.000000000000000e+00
	5.000000000000000e+00
	0.000000000000000e+00
	5.000000000000000e+00
	5.000000000000000e+00
	0.000000000000000e+00
	5.000000000000000e+00
	0.000000000000000e+00
	5.000000000000000e+00
	5.000000000000000e+00
	0.000000000000000e+00
	0.000000000000000e+00
	0.000000000000000e+00
	0.000000000000000e+00
	0.000000000000000e+00
	-5.141288394628880e-11
	0.000000000000000e+00
	0.000000000000000e+00
	0.000000000000000e+00
	0.000000000000000e+00
	0.000000000000000e+00
	0.000000000000000e+00
	0.000000000000000e+00
	0.000000000000000e+00
	6.001583084984350e-23
	4.007359195574398e-20
	4.007359195574398e-20
	6.001583084984350e-23
	4.007359195574398e-20
	6.001583084984350e-23
	-1.587508761370392e-22
	-2.626222964287354e-23
8		1.280000000000000e-01
	0.000000000000000e+00
	0.000000000000000e+00
	0.000000000000000e+00
	5.000000000000000e+00
	2.343353603325733e-08
	5.000000000000000e+00
	5.000000000000000e+00
	5.000000000000000e+00
	4.999999903854543e+00
	0.000000000000000e+00
	0.000000000000000e+00
	4.999999903854543e+00
	0.000000000000000e+00
	4.999999903854543e+00
	0.000000000000000e+00
	0.000000000000000e+00
	0.000000000000000e+00
	5.000000000000000e+00
	0.000000000000000e+00
	5.000000000000000e+00
	5.000000000000000e+00
	0.000000000000000e+00
	5.000000000000000e+00
	0.000000000000000e+00
	5.000000000000000e+00
	5.000000000000000e+00
	0.000000000000000e+00
	0.000000000000000e+00
	0.000000000000000e+00
	0.000000000000000e+00
	0.000000000000000e+00
	-5.141329954988610e-11
	0.000000000000000e+00
	0.000000000000000e+00
	0.000000000000000e+00
	0.000000000000000e+00
	0.000000000000000e+00
	0.000000000000000e+00
	0.000000000000000e+00
	0.000000000000000e+00
	-5.972179399147504e-23
	-3.987589578934381e-20
	-3.987589578934381e-20
	-5.972179399147504e-23
	-3.987589578934381e-20
	-5.972179399147504e-23
	1.689619398640390e-22
	2.781959469224387e-23
9		2.560000000000000e-01
	0.000000000000000e+00
	0.000000000000000e+00
	0.000000000000000e+00
	5.000000000000000e+00
	2.343353513297233e-08
	5.000000000000000e+00
	5.000000000000000e+00
	5.000000000000000e+00
	4.999999903854744e+00
	0.000000000000000e+00
	0.000000000000000e+00
	4.999999903854744e+00
	0.000000000000000e+00
	4.999999903854744e+00
	0.000000000000000e+00
	0.000000000000000e+00
	0.000000000000000e+00
	5.000000000000000e+00
	0.000000000000000e+00
	5.000000000000000e+00
	5.000000000000000e+00
	0.000000000000000e+00
	5.000000000000000e+00
	0.000000000000000e+00
	5.000000000000000e+00
	5.000000000000000e+00
	0.000000000000000e+00
	0.000000000000000e+00
	0.000000000000000e+00
	0.000000000000000e+00
	0.000000000000000e+00
	-5.141261917241905e-11
	0.000000000000000e+00
	0.000000000000000e+00
	0.000000000000000e+00
	0.000000000000000e+00
	0.000000000000000e+00
	0.000000000000000e+00
	0.000000000000000e+00
	0.000000000000000e+00
	5.992131900251078e-23
	4.001031263888367e-20
	4.001031263888367e-20
	5.992131900251078e-23
	4.001031263888367e-20
	5.992131900251078e-23
	-1.634351374338525e-22
	-2.786452032390779e-23
10		4.560000000000000e-01
	0.000000000000000e+00
	0.000000000000000e+00
	0.000000000000000e+00
	5.000000000000000e+00
	2.343353425269032e-08
	5.000000000000000e+00
	5.000000000000000e+00
	5.000000000000000e+00
	4.999999903855062e+00
	0.000000000000000e+00
	0.000000000000000e+00
	4.999999903855062e+00
	0.000000000000000e+00
	4.999999903855062e+00
	0.000000000000000e+00
	0.000000000000000e+00
	0.000000000000000e+00
	5.000000000000000e+00
	0.000000000000000e+00
	5.000000000000000e+00
	5.000000000000000e+00
	0.000000000000000e+00
	5.000000000000000e+00
	0.000000000000000e+00
	5.000000000000000e+00
	5.000000000000000e+00
	0.000000000000000e+00
	0.000000000000000e+00
	0.000000000000000e+00
	0.000000000000000e+00
	0.000000000000000e+00
	-5.141194791107399e-11
	0.000000000000000e+00
	0.000000000000000e+00
	0.000000000000000e+00
	0.000000000000000e+00
	0.000000000000000e+00
	0.000000000000000e+00
	0.000000000000000e+00
	0.000000000000000e+00
	-5.975006676631816e-23
	-3.987920451179402e-20
	-3.987920451179402e-20
	-5.975006676631816e-23
	-3.987920451179402e-20
	-5.975006676631816e-23
	1.637011217451558e-22
	2.846298107442655e-23
11		6.560000000000000e-01
	0.000000000000000e+00
	0.000000000000000e+00
	0.000000000000000e+00
	5.000000000000000e+00
	2.343353425323385e-08
	5.000000000000000e+00
	5.000000000000000e+00
	5.000000000000000e+00
	4.999999903855286e+00
	0.000000000000000e+00
	0.000000000000000e+00
	4.999999903855286e+00
	0.000000000000000e+00
	4.999999903855286e+00
	0.000000000000000e+00
	0.000000000000000e+00
	0.000000000000000e+00
	5.000000000000000e+00
	0.000000000000000e+00
	5.000000000000000e+00
	5.000000000000000e+00
	0.000000000000000e+00
	5.000000000000000e+00
	0.000000000000000e+00
	5.000000000000000e+00
	5.000000000000000e+00
	0.000000000000000e+00
	0.000000000000000e+00
	0.000000000000000e+00
	0.000000000000000e+00
	0.000000000000000e+00
	-5.141150382175041e-11
	0.000000000000000e+00
	0.000000000000000e+00
	0.000000000000000e+00
	0.000000000000000e+00
	0.000000000000000e+00
	0.000000000000000e+00
	0.000000000000000e+00
	0.000000000000000e+00
	5.994474501595222e-23
	3.997267592101251e-20
	3.997267592101251e-20
	5.994474501595222e-23
	3.997267592101251e-20
	5.994474501595222e-23
	-1.655165326357149e-22
	-2.819889054197827e-23
12		8.560000000000001e-01
	0.000000000000000e+00
	0.000000000000000e+00
	0.000000000000000e+00
	5.000000000000000e+00
	2.343353514086607e-08
	5.000000000000000e+00
	5.000000000000000e+00
	5.000000000000000e+00
	4.999999903855382e+00
	0.000000000000000e+00
	0.000000000000000e+00
	4.999999903855382e+00
	0.000000000000000e+00
	4.999999903855382e+00
	0.000000000000000e+00
	0.000000000000000e+00
	0.000000000000000e+00
	5.000000000000000e+00
	0.000000000000000e+00
	5.000000000000000e+00
	5.000000000000000e+00
	0.000000000000000e+00
	5.000000000000000e+00
	0.000000000000000e+00
	5.000000000000000e+00
	5.000000000000000e+00
	0.000000000000000e+00
	0.000000000000000e+00
	0.000000000000000e+00
	0.000000000000000e+00
	0.000000000000000e+00
	-5.141150382169871e-11
	0.000000000000000e+00
	0.000000000000000e+00
	0.000000000000000e+00
	0.000000000000000e+00
	0.000000000000000e+00
	0.000000000000000e+00
	0.000000000000000e+00
	0.000000000000000e+00
	-5.990758651187269e-23
	-3.993131689038486e-20
	-3.993131689038486e-20
	-5.990758651187269e-23
	-3.993131689038486e-20
	-5.990758651187269e-23
	1.649002596314586e-22
	2.804995203909104e-23
13		1.056000000000000e+00
	0.000000000000000e+00
	0.000000000000000e+00
	0.000000000000000e+00
	5.000000000000000e+00
	2.343353336084023e-08
	5.000000000000000e+00
	5.000000000000000e+00
	5.000000000000000e+00
	4.999999903855357e+00
	0.000000000000000e+00
	0.000000000000000e+00
	4.999999903855357e+00
	0.000000000000000e+00
	4.999999903855357e+00
	0.000000000000000e+00
	0.000000000000000e+00
	0.000000000000000e+00
	5.000000000000000e+00
	0.000000000000000e+00
	5.000000000000000e+00
	5.000000000000000e+00
	0.000000000000000e+00
	5.000000000000000e+00
	0.000000000000000e+00
	5.000000000000000e+00
	5.000000000000000e+00
	0.000000000000000e+00
	0.000000000000000e+00
	0.000000000000000e+00
	0.000000000000000e+00
	0.000000000000000e+00
	-5.141150382171298e-11
	0.000000000000000e+00
	0.000000000000000e+00
	0.000000000000000e+00
	0.000000000000000e+00
	0.000000000000000e+00
	0.000000000000000e+00
	0.000000000000000e+00
	0.000000000000000e+00
	5.986073448498981e-23
	3.992221790364677e-20
	3.992221790364677e-20
	5.986073448498981e-23
	3.992221790364677e-20
	5.986073448498981e-23
	-1.658902563138614e-22
	-2.819945447834914e-23
14		1.256000000000000e+00
	0.000000000000000e+00
	0.000000000000000e+00
	0.000000000000000e+00
	5.000000000000000e+00
	2.343353603325967e-08
	5.000000000000000e+00
	5.000000000000000e+00
	5.000000000000000e+00
	4.999999903855254e+00
	0.000000000000000e+00
	0.000000000000000e+00
	4.999999903855254e+00
	0.000000000000000e+00
	4.999999903855254e+00
	0.000000000000000e+00
	0.000000000000000e+00
	0.000000000000000e+00
	5.000000000000000e+00
	0.000000000000000e+00
	5.000000000000000e+00
	5.000000000000000e+00
	0.000000000000000e+00
	5.000000000000000e+00
	0.000000000000000e+00
	5.000000000000000e+00
	5.000000000000000e+00
	0.000000000000000e+00
	0.000000000000000e+00
	0.000000000000000e+00
	0.000000000000000e+00
	0.000000000000000e+00
	-5.141172586637043e-11
	0.000000000000000e+00
	0.000000000000000e+00
	0.000000000000000e+00
	0.000000000000000e+00
	0.000000000000000e+00
	0.000000000000000e+00
	0.000000000000000e+00
	0.000000000000000e+00
	-6.000169446242194e-23
	-3.996523129549953e-20
	-3.996523129549953e-20
	-6.000169446242194e-23
	-3.996523129549953e-20
	-6.000169446242194e-23
	1.669283445223852e-22
	2.805051597544987e-23
15		1.456000000000000e+00
	0.000000000000000e+00
	0.000000000000000e+00
	0.000000000000000e+00
	5.000000000000000e+00
	2.343353602537375e-08
	5.000000000000000e+00
	5.000000000000000e+00
	5.000000000000000e+00
	4.999999903855122e+00
	0.000000000000000e+00
	0.000000000000000e+00
	4.999999903855122e+00
	0.000000000000000e+00
	4.999999903855122e+00
	0.000000000000000e+00
	0.000000000000000e+00
	0.000000000000000e+00
	5.000000000000000e+00
	0.000000000000000e+00
	5.000000000000000e+00
	5.000000000000000e+00
	0.000000000000000e+00
	5.000000000000000e+00
	0.000000000000000e+00
	5.000000000000000e+00
	5.000000000000000e+00
	0.000000000000000e+00
	0.000000000000000e+00
	0.000000000000000e+00
	0.000000000000000e+00
	0.000000000000000e+00
	-5.141172586643846e-11
	0.000000000000000e+00
	0.000000000000000e+00
	0.000000000000000e+00
	0.000000000000000e+00
	0.000000000000000e+00
	0.000000000000000e+00
	0.000000000000000e+00
	0.000000000000000e+00
	5.992616576391246e-23
	3.991229173629614e-20
	3.991229173629614e-20
	5.992616576391246e-23
	3.991229173629614e-20
	5.992616576391246e-23
	-1.664287430691794e-22
	-2.819777066155992e-23
16		1.656000000000000e+00
	0.000000000000000e+00
	0.000000000000000e+00
	0.000000000000000e+00
	5.000000000000000e+00
	2.343353336028864e-08
	5.000000000000000e+00
	5.000000000000000e+00
	5.000000000000000e+00
	4.999999903855014e+00
	0.000000000000000e+00
	0.000000000000000e+00
	4.999999903855014e+00
	0.000000000000000e+00
	4.999999903855014e+00
	0.000000000000000e+00
	0.000000000000000e+00
	0.000000000000000e+00
