      * /home/fossee/updatedexamples/series_resonance/series_resonance.cir
      AC Analysis  Thu Mar  3 22:50:03  2016
--------------------------------------------------------------------------------
Index   frequency       in                              
--------------------------------------------------------------------------------
0	1.000000e+00	1.000000e+00,	0.000000e+00	
1	1.410526e+01	1.000000e+00,	0.000000e+00	
2	2.721053e+01	1.000000e+00,	0.000000e+00	
3	4.031579e+01	1.000000e+00,	0.000000e+00	
4	5.342105e+01	1.000000e+00,	0.000000e+00	
5	6.652632e+01	1.000000e+00,	0.000000e+00	
6	7.963158e+01	1.000000e+00,	0.000000e+00	
7	9.273684e+01	1.000000e+00,	0.000000e+00	
8	1.058421e+02	1.000000e+00,	0.000000e+00	
9	1.189474e+02	1.000000e+00,	0.000000e+00	
10	1.320526e+02	1.000000e+00,	0.000000e+00	
11	1.451579e+02	1.000000e+00,	0.000000e+00	
12	1.582632e+02	1.000000e+00,	0.000000e+00	
13	1.713684e+02	1.000000e+00,	0.000000e+00	
14	1.844737e+02	1.000000e+00,	0.000000e+00	
15	1.975789e+02	1.000000e+00,	0.000000e+00	
16	2.106842e+02	1.000000e+00,	0.000000e+00	
17	2.237895e+02	1.000000e+00,	0.000000e+00	
18	2.368947e+02	1.000000e+00,	0.000000e+00	
19	2.500000e+02	1.000000e+00,	0.000000e+00	

      * /home/fossee/updatedexamples/series_resonance/series_resonance.cir
      AC Analysis  Thu Mar  3 22:50:03  2016
--------------------------------------------------------------------------------
Index   frequency       net-_c1-pad2_                   
--------------------------------------------------------------------------------
0	1.000000e+00	1.000000e+00,	-6.28343e-05	
1	1.410526e+01	9.999992e-01,	-8.93275e-04	
2	2.721053e+01	9.999969e-01,	-1.76116e-03	
3	4.031579e+01	9.999927e-01,	-2.70678e-03	
4	5.342105e+01	9.999857e-01,	-3.78267e-03	
5	6.652632e+01	9.999743e-01,	-5.06479e-03	
6	7.963158e+01	9.999555e-01,	-6.67393e-03	
7	9.273684e+01	9.999222e-01,	-8.82141e-03	
8	1.058421e+02	9.998578e-01,	-1.19219e-02	
9	1.189474e+02	9.997134e-01,	-1.69254e-02	
10	1.320526e+02	9.992914e-01,	-2.66103e-02	
11	1.451579e+02	9.970669e-01,	-5.40790e-02	
12	1.582632e+02	5.580977e-01,	-4.96613e-01	
13	1.713684e+02	9.954560e-01,	6.725607e-02	
14	1.844737e+02	9.988625e-01,	3.370768e-02	
15	1.975789e+02	9.994740e-01,	2.292901e-02	
16	2.106842e+02	9.996905e-01,	1.758939e-02	
17	2.237895e+02	9.997930e-01,	1.438698e-02	
18	2.368947e+02	9.998501e-01,	1.224383e-02	
19	2.500000e+02	9.998854e-01,	1.070339e-02	

      * /home/fossee/updatedexamples/series_resonance/series_resonance.cir
      AC Analysis  Thu Mar  3 22:50:03  2016
--------------------------------------------------------------------------------
Index   frequency       out                             
--------------------------------------------------------------------------------
0	1.000000e+00	-3.94800e-05,	2.480698e-09	
1	1.410526e+01	-7.91674e-03,	7.071836e-06	
2	2.721053e+01	-3.01104e-02,	5.302940e-05	
3	4.031579e+01	-6.85659e-02,	1.855945e-04	
4	5.342105e+01	-1.26967e-01,	4.802799e-04	
5	6.652632e+01	-2.11707e-01,	1.072279e-03	
6	7.963158e+01	-3.33923e-01,	2.228680e-03	
7	9.273684e+01	-5.14009e-01,	4.534635e-03	
8	1.058421e+02	-7.92834e-01,	9.453402e-03	
9	1.189474e+02	-1.26495e+00,	2.141585e-02	
10	1.320526e+02	-2.20789e+00,	5.879433e-02	
11	1.451579e+02	-4.93229e+00,	2.675179e-01	
12	1.582632e+02	-4.93831e+01,	4.394262e+01	
13	1.713684e+02	7.241727e+00,	4.892733e-01	
14	1.844737e+02	3.906997e+00,	1.318458e-01	
15	1.975789e+02	2.846465e+00,	6.530097e-02	
16	2.106842e+02	2.328427e+00,	4.096830e-02	
17	2.237895e+02	2.022968e+00,	2.911042e-02	
18	2.368947e+02	1.822438e+00,	2.231697e-02	
19	2.500000e+02	1.681284e+00,	1.799750e-02	
