      * /home/fossee/updatedexamples/series_resonance/series_resonance.cir
      AC Analysis  Thu Mar  3 22:50:03  2016
--------------------------------------------------------------------------------
Index   frequency       l1#branch                       
--------------------------------------------------------------------------------
0	1.000000e+00	3.948153e-09,	6.283433e-05	
1	1.410526e+01	7.979416e-07,	8.932754e-04	
2	2.721053e+01	3.101701e-06,	1.761162e-03	
3	4.031579e+01	7.326726e-06,	2.706783e-03	
4	5.342105e+01	1.430876e-05,	3.782665e-03	
5	6.652632e+01	2.565279e-05,	5.064793e-03	
6	7.963158e+01	4.454331e-05,	6.673929e-03	
7	9.273684e+01	7.782339e-05,	8.821413e-03	
8	1.058421e+02	1.421510e-04,	1.192186e-02	
9	1.189474e+02	2.865501e-04,	1.692536e-02	
10	1.320526e+02	7.086120e-04,	2.661033e-02	
11	1.451579e+02	2.933137e-03,	5.407896e-02	
12	1.582632e+02	4.419023e-01,	4.966132e-01	
13	1.713684e+02	4.544027e-03,	-6.72561e-02	
14	1.844737e+02	1.137501e-03,	-3.37077e-02	
15	1.975789e+02	5.260162e-04,	-2.29290e-02	
16	2.106842e+02	3.094825e-04,	-1.75894e-02	
17	2.237895e+02	2.070279e-04,	-1.43870e-02	
18	2.368947e+02	1.499339e-04,	-1.22438e-02	
19	2.500000e+02	1.145756e-04,	-1.07034e-02	

      * /home/fossee/updatedexamples/series_resonance/series_resonance.cir
      AC Analysis  Thu Mar  3 22:50:03  2016
--------------------------------------------------------------------------------
Index   frequency       v1#branch                       
--------------------------------------------------------------------------------
0	1.000000e+00	-3.94815e-09,	-6.28343e-05	
1	1.410526e+01	-7.97942e-07,	-8.93275e-04	
2	2.721053e+01	-3.10170e-06,	-1.76116e-03	
3	4.031579e+01	-7.32673e-06,	-2.70678e-03	
4	5.342105e+01	-1.43088e-05,	-3.78267e-03	
5	6.652632e+01	-2.56528e-05,	-5.06479e-03	
6	7.963158e+01	-4.45433e-05,	-6.67393e-03	
7	9.273684e+01	-7.78234e-05,	-8.82141e-03	
8	1.058421e+02	-1.42151e-04,	-1.19219e-02	
9	1.189474e+02	-2.86550e-04,	-1.69254e-02	
10	1.320526e+02	-7.08612e-04,	-2.66103e-02	
11	1.451579e+02	-2.93314e-03,	-5.40790e-02	
12	1.582632e+02	-4.41902e-01,	-4.96613e-01	
13	1.713684e+02	-4.54403e-03,	6.725607e-02	
14	1.844737e+02	-1.13750e-03,	3.370768e-02	
15	1.975789e+02	-5.26016e-04,	2.292901e-02	
16	2.106842e+02	-3.09483e-04,	1.758939e-02	
17	2.237895e+02	-2.07028e-04,	1.438698e-02	
18	2.368947e+02	-1.49934e-04,	1.224383e-02	
19	2.500000e+02	-1.14576e-04,	1.070339e-02	
