           * c:\users\aditya\esim-workspace\mc1496_ic1\mc1496_ic1.cir
           Transient Analysis  Mon Jul 29 18:13:07  2024
--------------------------------------------------------------------------------
Index   time            car             net-_c1-pad1_   net-_c2-pad2_   
--------------------------------------------------------------------------------
0	0.000000e+00	0.000000e+00	-1.10544e-04	5.994875e+00	
1	1.000000e-07	1.884955e-03	-1.10543e-04	5.996723e+00	
2	2.000000e-07	3.769910e-03	-1.10542e-04	5.998537e+00	
3	4.000000e-07	7.539814e-03	-1.10539e-04	6.002099e+00	
4	8.000000e-07	1.507958e-02	-1.10528e-04	6.008857e+00	
5	1.600000e-06	3.015878e-02	-1.10483e-04	6.021150e+00	
6	3.200000e-06	6.031451e-02	-1.10302e-04	6.042287e+00	
7	6.400000e-06	1.206046e-01	-1.09583e-04	6.077175e+00	
8	1.280000e-05	2.410143e-01	-1.06711e-04	6.136222e+00	
9	2.280000e-05	4.283014e-01	-9.84110e-05	6.218651e+00	
10	3.280000e-05	6.138982e-01	-8.54757e-05	6.292739e+00	
11	4.280000e-05	7.970722e-01	-6.79254e-05	6.358533e+00	
12	5.280000e-05	9.771005e-01	-4.57797e-05	6.416556e+00	
13	6.280000e-05	1.153273e+00	-1.90585e-05	6.467125e+00	
14	7.280000e-05	1.324893e+00	1.221862e-05	6.510594e+00	
15	8.280000e-05	1.491285e+00	4.803206e-05	6.547272e+00	
16	9.280000e-05	1.651792e+00	8.836219e-05	6.577458e+00	
17	1.028000e-04	1.805780e+00	1.331895e-04	6.601433e+00	
18	1.128000e-04	1.952641e+00	1.824944e-04	6.619465e+00	
19	1.228000e-04	2.091796e+00	2.362574e-04	6.631814e+00	
20	1.328000e-04	2.222695e+00	2.944592e-04	6.638729e+00	
21	1.428000e-04	2.344823e+00	3.570802e-04	6.640454e+00	
22	1.528000e-04	2.457696e+00	4.241012e-04	6.637229e+00	
23	1.628000e-04	2.560871e+00	4.955028e-04	6.629290e+00	
24	1.728000e-04	2.653938e+00	5.712657e-04	6.616871e+00	
25	1.828000e-04	2.736532e+00	6.513706e-04	6.600203e+00	
26	1.928000e-04	2.808326e+00	7.357983e-04	6.579520e+00	
27	2.028000e-04	2.869037e+00	8.245297e-04	6.555055e+00	
28	2.128000e-04	2.918425e+00	9.175456e-04	6.527041e+00	
29	2.228000e-04	2.956295e+00	1.014827e-03	6.495712e+00	
30	2.328000e-04	2.982498e+00	1.116354e-03	6.461307e+00	
31	2.428000e-04	2.996931e+00	1.222109e-03	6.424063e+00	
32	2.528000e-04	2.999536e+00	1.332072e-03	6.384220e+00	
33	2.628000e-04	2.990303e+00	1.446225e-03	6.342020e+00	
34	2.728000e-04	2.969269e+00	1.564548e-03	6.297706e+00	
35	2.828000e-04	2.936516e+00	1.687022e-03	6.251522e+00	
36	2.928000e-04	2.892175e+00	1.813629e-03	6.203714e+00	
37	3.028000e-04	2.836419e+00	1.944350e-03	6.154527e+00	
38	3.128000e-04	2.769470e+00	2.079165e-03	6.104208e+00	
39	3.228000e-04	2.691590e+00	2.218057e-03	6.053002e+00	
40	3.328000e-04	2.603088e+00	2.361007e-03	6.001153e+00	
41	3.428000e-04	2.504313e+00	2.507995e-03	5.948904e+00	
42	3.528000e-04	2.395654e+00	2.659004e-03	5.896497e+00	
43	3.628000e-04	2.277541e+00	2.814014e-03	5.844171e+00	
44	3.728000e-04	2.150440e+00	2.973007e-03	5.792159e+00	
45	3.828000e-04	2.014851e+00	3.135965e-03	5.740694e+00	
46	3.928000e-04	1.871311e+00	3.302868e-03	5.690002e+00	
47	4.028000e-04	1.720386e+00	3.473699e-03	5.640305e+00	
48	4.128000e-04	1.562671e+00	3.648439e-03	5.591817e+00	
49	4.228000e-04	1.398789e+00	3.827069e-03	5.544748e+00	
50	4.328000e-04	1.229387e+00	4.009572e-03	5.499300e+00	
51	4.428000e-04	1.055133e+00	4.195928e-03	5.455666e+00	
52	4.528000e-04	8.767145e-01	4.386120e-03	5.414031e+00	
53	4.628000e-04	6.948362e-01	4.580130e-03	5.374573e+00	
54	4.728000e-04	5.102157e-01	4.777938e-03	5.337457e+00	

Index   time            car             net-_c1-pad1_   net-_c2-pad2_   
--------------------------------------------------------------------------------
55	4.828000e-04	3.235816e-01	4.979527e-03	5.302840e+00	
56	4.928000e-04	1.356705e-01	5.184878e-03	5.270868e+00	
57	5.028000e-04	-5.27760e-02	5.393974e-03	5.241674e+00	
58	5.128000e-04	-2.41014e-01	5.606796e-03	5.215381e+00	
59	5.228000e-04	-4.28301e-01	5.823327e-03	5.192100e+00	
60	5.328000e-04	-6.13898e-01	6.043547e-03	5.171929e+00	
61	5.428000e-04	-7.97072e-01	6.267440e-03	5.154953e+00	
62	5.528000e-04	-9.77101e-01	6.494986e-03	5.141243e+00	
63	5.628000e-04	-1.15327e+00	6.726169e-03	5.130859e+00	
64	5.728000e-04	-1.32489e+00	6.960970e-03	5.123845e+00	
65	5.828000e-04	-1.49129e+00	7.199371e-03	5.120234e+00	
66	5.928000e-04	-1.65179e+00	7.441355e-03	5.120041e+00	
67	6.028000e-04	-1.80578e+00	7.686903e-03	5.123273e+00	
68	6.128000e-04	-1.95264e+00	7.935997e-03	5.129917e+00	
69	6.228000e-04	-2.09180e+00	8.188621e-03	5.139952e+00	
70	6.328000e-04	-2.22270e+00	8.444756e-03	5.153338e+00	
71	6.428000e-04	-2.34482e+00	8.704384e-03	5.170026e+00	
72	6.528000e-04	-2.45770e+00	8.967488e-03	5.189951e+00	
73	6.628000e-04	-2.56087e+00	9.234050e-03	5.213036e+00	
74	6.728000e-04	-2.65394e+00	9.504052e-03	5.239192e+00	
75	6.828000e-04	-2.73653e+00	9.777477e-03	5.268316e+00	
76	6.928000e-04	-2.80833e+00	1.005431e-02	5.300295e+00	
77	7.028000e-04	-2.86904e+00	1.033453e-02	5.335004e+00	
78	7.128000e-04	-2.91842e+00	1.061811e-02	5.372306e+00	
79	7.228000e-04	-2.95629e+00	1.090505e-02	5.412054e+00	
80	7.328000e-04	-2.98250e+00	1.119533e-02	5.454094e+00	
81	7.428000e-04	-2.99693e+00	1.148892e-02	5.498260e+00	
82	7.528000e-04	-2.99954e+00	1.178582e-02	5.544378e+00	
83	7.628000e-04	-2.99030e+00	1.208599e-02	5.592267e+00	
84	7.728000e-04	-2.96927e+00	1.238943e-02	5.641739e+00	
85	7.828000e-04	-2.93652e+00	1.269612e-02	5.692600e+00	
86	7.928000e-04	-2.89217e+00	1.300604e-02	5.744650e+00	
87	8.028000e-04	-2.83642e+00	1.331918e-02	5.797684e+00	
88	8.128000e-04	-2.76947e+00	1.363551e-02	5.851494e+00	
89	8.228000e-04	-2.69159e+00	1.395502e-02	5.905869e+00	
90	8.328000e-04	-2.60309e+00	1.427769e-02	5.960595e+00	
91	8.428000e-04	-2.50431e+00	1.460351e-02	6.015457e+00	
92	8.528000e-04	-2.39565e+00	1.493245e-02	6.070237e+00	
93	8.628000e-04	-2.27754e+00	1.526450e-02	6.124721e+00	
94	8.728000e-04	-2.15044e+00	1.559965e-02	6.178694e+00	
95	8.828000e-04	-2.01485e+00	1.593788e-02	6.231942e+00	
96	8.928000e-04	-1.87131e+00	1.627916e-02	6.284255e+00	
97	9.028000e-04	-1.72039e+00	1.662348e-02	6.335427e+00	
98	9.128000e-04	-1.56267e+00	1.697083e-02	6.385256e+00	
99	9.228000e-04	-1.39879e+00	1.732119e-02	6.433544e+00	
100	9.328000e-04	-1.22939e+00	1.767454e-02	6.480101e+00	
101	9.428000e-04	-1.05513e+00	1.803087e-02	6.524744e+00	
102	9.528000e-04	-8.76715e-01	1.839015e-02	6.567295e+00	
103	9.628000e-04	-6.94836e-01	1.875237e-02	6.607587e+00	
104	9.728000e-04	-5.10216e-01	1.911752e-02	6.645460e+00	
105	9.828000e-04	-3.23582e-01	1.948557e-02	6.680766e+00	
106	9.928000e-04	-1.35671e-01	1.985652e-02	6.713365e+00	
107	1.002800e-03	5.277603e-02	2.023034e-02	6.743127e+00	
108	1.012800e-03	2.410143e-01	2.060701e-02	6.769936e+00	
109	1.022800e-03	4.283014e-01	2.098653e-02	6.793686e+00	
110	1.032800e-03	6.138982e-01	2.136886e-02	6.814283e+00	
111	1.042800e-03	7.970722e-01	2.175401e-02	6.831645e+00	
112	1.052800e-03	9.771005e-01	2.214195e-02	6.845705e+00	

Index   time            car             net-_c1-pad1_   net-_c2-pad2_   
--------------------------------------------------------------------------------
113	1.062800e-03	1.153273e+00	2.253266e-02	6.856406e+00	
114	1.072800e-03	1.324893e+00	2.292612e-02	6.863707e+00	
115	1.082800e-03	1.491285e+00	2.332233e-02	6.867579e+00	
116	1.092800e-03	1.651792e+00	2.372126e-02	6.868006e+00	
117	1.102800e-03	1.805780e+00	2.412290e-02	6.864987e+00	
118	1.112800e-03	1.952641e+00	2.452723e-02	6.858533e+00	
119	1.122800e-03	2.091796e+00	2.493424e-02	6.848671e+00	
120	1.132800e-03	2.222695e+00	2.534390e-02	6.835439e+00	
121	1.142800e-03	2.344823e+00	2.575621e-02	6.818889e+00	
122	1.152800e-03	2.457696e+00	2.617114e-02	6.799087e+00	
123	1.162800e-03	2.560871e+00	2.658868e-02	6.776111e+00	
124	1.172800e-03	2.653938e+00	2.700882e-02	6.750052e+00	
125	1.182800e-03	2.736532e+00	2.743153e-02	6.721012e+00	
126	1.192800e-03	2.808326e+00	2.785680e-02	6.689106e+00	
127	1.202800e-03	2.869037e+00	2.828462e-02	6.654460e+00	
128	1.212800e-03	2.918425e+00	2.871496e-02	6.617212e+00	
129	1.222800e-03	2.956295e+00	2.914782e-02	6.577507e+00	
130	1.232800e-03	2.982498e+00	2.958317e-02	6.535504e+00	
131	1.242800e-03	2.996931e+00	3.002101e-02	6.491368e+00	
132	1.252800e-03	2.999536e+00	3.046130e-02	6.445273e+00	
133	1.262800e-03	2.990303e+00	3.090405e-02	6.397402e+00	
134	1.272800e-03	2.969269e+00	3.134923e-02	6.347944e+00	
135	1.282800e-03	2.936516e+00	3.179682e-02	6.297094e+00	
136	1.292800e-03	2.892175e+00	3.224681e-02	6.245053e+00	
137	1.302800e-03	2.836419e+00	3.269919e-02	6.192027e+00	
138	1.312800e-03	2.769470e+00	3.315393e-02	6.138224e+00	
139	1.322800e-03	2.691590e+00	3.361103e-02	6.083858e+00	
140	1.332800e-03	2.603088e+00	3.407047e-02	6.029143e+00	
141	1.342800e-03	2.504313e+00	3.453222e-02	5.974295e+00	
142	1.352800e-03	2.395654e+00	3.499628e-02	5.919530e+00	
143	1.362800e-03	2.277541e+00	3.546263e-02	5.865064e+00	
144	1.372800e-03	2.150440e+00	3.593125e-02	5.811112e+00	
145	1.382800e-03	2.014851e+00	3.640213e-02	5.757887e+00	
146	1.392800e-03	1.871311e+00	3.687525e-02	5.705598e+00	
147	1.402800e-03	1.720386e+00	3.735059e-02	5.654452e+00	
148	1.412800e-03	1.562671e+00	3.782815e-02	5.604651e+00	
149	1.422800e-03	1.398789e+00	3.830790e-02	5.556390e+00	
150	1.432800e-03	1.229387e+00	3.878983e-02	5.509861e+00	
151	1.442800e-03	1.055133e+00	3.927392e-02	5.465247e+00	
152	1.452800e-03	8.767145e-01	3.976017e-02	5.422723e+00	
153	1.462800e-03	6.948362e-01	4.024854e-02	5.382458e+00	
154	1.472800e-03	5.102157e-01	4.073903e-02	5.344610e+00	
155	1.482800e-03	3.235816e-01	4.123163e-02	5.309329e+00	
156	1.492800e-03	1.356705e-01	4.172631e-02	5.276755e+00	
157	1.502800e-03	-5.27760e-02	4.222306e-02	5.247014e+00	
158	1.512800e-03	-2.41014e-01	4.272186e-02	5.220226e+00	
159	1.522800e-03	-4.28301e-01	4.322271e-02	5.196496e+00	
160	1.532800e-03	-6.13898e-01	4.372558e-02	5.175917e+00	
161	1.542800e-03	-7.97072e-01	4.423045e-02	5.158571e+00	
162	1.552800e-03	-9.77101e-01	4.473733e-02	5.144526e+00	
163	1.562800e-03	-1.15327e+00	4.524618e-02	5.133838e+00	
164	1.572800e-03	-1.32489e+00	4.575699e-02	5.126548e+00	
165	1.582800e-03	-1.49129e+00	4.626975e-02	5.122687e+00	
166	1.592800e-03	-1.65179e+00	4.678445e-02	5.122268e+00	
167	1.602800e-03	-1.80578e+00	4.730106e-02	5.125293e+00	
168	1.612800e-03	-1.95264e+00	4.781958e-02	5.131751e+00	
169	1.622800e-03	-2.09180e+00	4.833998e-02	5.141616e+00	
170	1.632800e-03	-2.22270e+00	4.886225e-02	5.154849e+00	

Index   time            car             net-_c1-pad1_   net-_c2-pad2_   
--------------------------------------------------------------------------------
171	1.642800e-03	-2.34482e+00	4.938639e-02	5.171398e+00	
172	1.652800e-03	-2.45770e+00	4.991236e-02	5.191197e+00	
173	1.662800e-03	-2.56087e+00	5.044016e-02	5.214168e+00	
174	1.672800e-03	-2.65394e+00	5.096977e-02	5.240220e+00	
175	1.682800e-03	-2.73653e+00	5.150118e-02	5.269250e+00	
176	1.692800e-03	-2.80833e+00	5.203438e-02	5.301144e+00	
177	1.702800e-03	-2.86904e+00	5.256933e-02	5.335776e+00	
178	1.712800e-03	-2.91842e+00	5.310604e-02	5.373008e+00	
179	1.722800e-03	-2.95629e+00	5.364449e-02	5.412694e+00	
180	1.732800e-03	-2.98250e+00	5.418466e-02	5.454678e+00	
181	1.742800e-03	-2.99693e+00	5.472654e-02	5.498792e+00	
182	1.752800e-03	-2.99954e+00	5.527011e-02	5.544863e+00	
183	1.762800e-03	-2.99030e+00	5.581536e-02	5.592711e+00	
184	1.772800e-03	-2.96927e+00	5.636227e-02	5.642145e+00	
185	1.782800e-03	-2.93652e+00	5.691083e-02	5.692971e+00	
186	1.792800e-03	-2.89217e+00	5.746102e-02	5.744990e+00	
187	1.802800e-03	-2.83642e+00	5.801283e-02	5.797996e+00	
188	1.812800e-03	-2.76947e+00	5.856624e-02	5.851781e+00	
189	1.822800e-03	-2.69159e+00	5.912125e-02	5.906133e+00	
190	1.832800e-03	-2.60309e+00	5.967782e-02	5.960837e+00	
191	1.842800e-03	-2.50431e+00	6.023596e-02	6.015679e+00	
192	1.852800e-03	-2.39565e+00	6.079564e-02	6.070441e+00	
193	1.862800e-03	-2.27754e+00	6.135686e-02	6.124909e+00	
194	1.872800e-03	-2.15044e+00	6.191959e-02	6.178866e+00	
195	1.882800e-03	-2.01485e+00	6.248382e-02	6.232100e+00	
196	1.892800e-03	-1.87131e+00	6.304954e-02	6.284401e+00	
197	1.902800e-03	-1.72039e+00	6.361673e-02	6.335561e+00	
198	1.912800e-03	-1.56267e+00	6.418538e-02	6.385378e+00	
199	1.922800e-03	-1.39879e+00	6.475547e-02	6.433657e+00	
200	1.932800e-03	-1.22939e+00	6.532699e-02	6.480205e+00	
201	1.942800e-03	-1.05513e+00	6.589993e-02	6.524839e+00	
202	1.952800e-03	-8.76715e-01	6.647426e-02	6.567383e+00	
203	1.962800e-03	-6.94836e-01	6.704998e-02	6.607668e+00	
204	1.972800e-03	-5.10216e-01	6.762708e-02	6.645535e+00	
205	1.982800e-03	-3.23582e-01	6.820553e-02	6.680835e+00	
206	1.992800e-03	-1.35671e-01	6.878532e-02	6.713428e+00	
207	2.002800e-03	5.277603e-02	6.936645e-02	6.743186e+00	
208	2.012800e-03	2.410143e-01	6.994888e-02	6.769991e+00	
209	2.022800e-03	4.283014e-01	7.053262e-02	6.793737e+00	
210	2.032800e-03	6.138982e-01	7.111764e-02	6.814330e+00	
211	2.042800e-03	7.970722e-01	7.170394e-02	6.831689e+00	
212	2.052800e-03	9.771005e-01	7.229149e-02	6.845746e+00	
213	2.062800e-03	1.153273e+00	7.288028e-02	6.856445e+00	
214	2.072800e-03	1.324893e+00	7.347031e-02	6.863744e+00	
215	2.082800e-03	1.491285e+00	7.406155e-02	6.867614e+00	
216	2.092800e-03	1.651792e+00	7.465399e-02	6.868039e+00	
217	2.102800e-03	1.805780e+00	7.524762e-02	6.865019e+00	
218	2.112800e-03	1.952641e+00	7.584242e-02	6.858564e+00	
219	2.122800e-03	2.091796e+00	7.643838e-02	6.848701e+00	
220	2.132800e-03	2.222695e+00	7.703549e-02	6.835469e+00	
221	2.142800e-03	2.344823e+00	7.763373e-02	6.818918e+00	
222	2.152800e-03	2.457696e+00	7.823308e-02	6.799116e+00	
223	2.162800e-03	2.560871e+00	7.883354e-02	6.776140e+00	
224	2.172800e-03	2.653938e+00	7.943508e-02	6.750080e+00	
225	2.182800e-03	2.736532e+00	8.003771e-02	6.721041e+00	
226	2.192800e-03	2.808326e+00	8.064139e-02	6.689135e+00	
227	2.202800e-03	2.869037e+00	8.124612e-02	6.654490e+00	
228	2.212800e-03	2.918425e+00	8.185189e-02	6.617243e+00	

Index   time            car             net-_c1-pad1_   net-_c2-pad2_   
--------------------------------------------------------------------------------
229	2.222800e-03	2.956295e+00	8.245868e-02	6.577539e+00	
230	2.232800e-03	2.982498e+00	8.306647e-02	6.535537e+00	
231	2.242800e-03	2.996931e+00	8.367526e-02	6.491402e+00	
232	2.252800e-03	2.999536e+00	8.428503e-02	6.445308e+00	
233	2.262800e-03	2.990303e+00	8.489576e-02	6.397439e+00	
234	2.272800e-03	2.969269e+00	8.550744e-02	6.347981e+00	
235	2.282800e-03	2.936516e+00	8.612006e-02	6.297132e+00	
236	2.292800e-03	2.892175e+00	8.673361e-02	6.245092e+00	
237	2.302800e-03	2.836419e+00	8.734807e-02	6.192067e+00	
238	2.312800e-03	2.769470e+00	8.796342e-02	6.138265e+00	
239	2.322800e-03	2.691590e+00	8.857966e-02	6.083899e+00	
240	2.332800e-03	2.603088e+00	8.919677e-02	6.029184e+00	
241	2.342800e-03	2.504313e+00	8.981474e-02	5.974335e+00	
242	2.352800e-03	2.395654e+00	9.043355e-02	5.919569e+00	
243	2.362800e-03	2.277541e+00	9.105320e-02	5.865103e+00	
244	2.372800e-03	2.150440e+00	9.167365e-02	5.811150e+00	
245	2.382800e-03	2.014851e+00	9.229492e-02	5.757924e+00	
246	2.392800e-03	1.871311e+00	9.291697e-02	5.705634e+00	
247	2.402800e-03	1.720386e+00	9.353980e-02	5.654487e+00	
248	2.412800e-03	1.562671e+00	9.416339e-02	5.604685e+00	
249	2.422800e-03	1.398789e+00	9.478773e-02	5.556423e+00	
250	2.432800e-03	1.229387e+00	9.541281e-02	5.509893e+00	
251	2.442800e-03	1.055133e+00	9.603862e-02	5.465277e+00	
252	2.452800e-03	8.767145e-01	9.666513e-02	5.422753e+00	
253	2.462800e-03	6.948362e-01	9.729234e-02	5.382487e+00	
254	2.472800e-03	5.102157e-01	9.792023e-02	5.344638e+00	
255	2.482800e-03	3.235816e-01	9.854880e-02	5.309357e+00	
256	2.492800e-03	1.356705e-01	9.917802e-02	5.276781e+00	
257	2.502800e-03	-5.27760e-02	9.980789e-02	5.247040e+00	
258	2.512800e-03	-2.41014e-01	1.004384e-01	5.220252e+00	
259	2.522800e-03	-4.28301e-01	1.010695e-01	5.196521e+00	
260	2.532800e-03	-6.13898e-01	1.017012e-01	5.175942e+00	
261	2.542800e-03	-7.97072e-01	1.023335e-01	5.158595e+00	
262	2.552800e-03	-9.77101e-01	1.029664e-01	5.144550e+00	
263	2.562800e-03	-1.15327e+00	1.035999e-01	5.133861e+00	
264	2.572800e-03	-1.32489e+00	1.042339e-01	5.126571e+00	
265	2.582800e-03	-1.49129e+00	1.048685e-01	5.122709e+00	
266	2.592800e-03	-1.65179e+00	1.055036e-01	5.122290e+00	
267	2.602800e-03	-1.80578e+00	1.061392e-01	5.125315e+00	
268	2.612800e-03	-1.95264e+00	1.067753e-01	5.131773e+00	
269	2.622800e-03	-2.09180e+00	1.074119e-01	5.141638e+00	
270	2.632800e-03	-2.22270e+00	1.080489e-01	5.154871e+00	
271	2.642800e-03	-2.34482e+00	1.086864e-01	5.171420e+00	
272	2.652800e-03	-2.45770e+00	1.093244e-01	5.191219e+00	
273	2.662800e-03	-2.56087e+00	1.099628e-01	5.214191e+00	
274	2.672800e-03	-2.65394e+00	1.106017e-01	5.240244e+00	
275	2.682800e-03	-2.73653e+00	1.112409e-01	5.269275e+00	
276	2.692800e-03	-2.80833e+00	1.118806e-01	5.301170e+00	
277	2.702800e-03	-2.86904e+00	1.125206e-01	5.335802e+00	
278	2.712800e-03	-2.91842e+00	1.131611e-01	5.373036e+00	
279	2.722800e-03	-2.95629e+00	1.138018e-01	5.412723e+00	
280	2.732800e-03	-2.98250e+00	1.144430e-01	5.454708e+00	
281	2.742800e-03	-2.99693e+00	1.150844e-01	5.498824e+00	
282	2.752800e-03	-2.99954e+00	1.157262e-01	5.544897e+00	
283	2.762800e-03	-2.99030e+00	1.163683e-01	5.592746e+00	
284	2.772800e-03	-2.96927e+00	1.170107e-01	5.642182e+00	
285	2.782800e-03	-2.93652e+00	1.176534e-01	5.693010e+00	
286	2.792800e-03	-2.89217e+00	1.182964e-01	5.745030e+00	

Index   time            car             net-_c1-pad1_   net-_c2-pad2_   
--------------------------------------------------------------------------------
287	2.802800e-03	-2.83642e+00	1.189396e-01	5.798038e+00	
288	2.812800e-03	-2.76947e+00	1.195831e-01	5.851824e+00	
289	2.822800e-03	-2.69159e+00	1.202268e-01	5.906176e+00	
290	2.832800e-03	-2.60309e+00	1.208707e-01	5.960881e+00	
291	2.842800e-03	-2.50431e+00	1.215149e-01	6.015722e+00	
292	2.852800e-03	-2.39565e+00	1.221592e-01	6.070485e+00	
293	2.862800e-03	-2.27754e+00	1.228038e-01	6.124952e+00	
294	2.872800e-03	-2.15044e+00	1.234485e-01	6.178908e+00	
295	2.882800e-03	-2.01485e+00	1.240933e-01	6.232141e+00	
296	2.892800e-03	-1.87131e+00	1.247384e-01	6.284441e+00	
297	2.902800e-03	-1.72039e+00	1.253835e-01	6.335600e+00	
298	2.912800e-03	-1.56267e+00	1.260288e-01	6.385416e+00	
299	2.922800e-03	-1.39879e+00	1.266742e-01	6.433693e+00	
300	2.932800e-03	-1.22939e+00	1.273197e-01	6.480240e+00	
301	2.942800e-03	-1.05513e+00	1.279653e-01	6.524873e+00	
302	2.952800e-03	-8.76715e-01	1.286110e-01	6.567415e+00	
303	2.962800e-03	-6.94836e-01	1.292567e-01	6.607699e+00	
304	2.972800e-03	-5.10216e-01	1.299025e-01	6.645566e+00	
305	2.982800e-03	-3.23582e-01	1.305484e-01	6.680865e+00	
306	2.992800e-03	-1.35671e-01	1.311942e-01	6.713457e+00	
307	3.002800e-03	5.277603e-02	1.318401e-01	6.743214e+00	
308	3.012800e-03	2.410143e-01	1.324860e-01	6.770018e+00	
309	3.022800e-03	4.283014e-01	1.331319e-01	6.793763e+00	
310	3.032800e-03	6.138982e-01	1.337778e-01	6.814356e+00	
311	3.042800e-03	7.970722e-01	1.344236e-01	6.831715e+00	
312	3.052800e-03	9.771005e-01	1.350694e-01	6.845772e+00	
313	3.062800e-03	1.153273e+00	1.357151e-01	6.856470e+00	
314	3.072800e-03	1.324893e+00	1.363608e-01	6.863769e+00	
315	3.082800e-03	1.491285e+00	1.370064e-01	6.867639e+00	
316	3.092800e-03	1.651792e+00	1.376519e-01	6.868065e+00	
317	3.102800e-03	1.805780e+00	1.382973e-01	6.865044e+00	
318	3.112800e-03	1.952641e+00	1.389426e-01	6.858590e+00	
319	3.122800e-03	2.091796e+00	1.395878e-01	6.848727e+00	
320	3.132800e-03	2.222695e+00	1.402329e-01	6.835495e+00	
321	3.142800e-03	2.344823e+00	1.408778e-01	6.818946e+00	
322	3.152800e-03	2.457696e+00	1.415225e-01	6.799144e+00	
323	3.162800e-03	2.560871e+00	1.421670e-01	6.776169e+00	
324	3.172800e-03	2.653938e+00	1.428114e-01	6.750111e+00	
325	3.182800e-03	2.736532e+00	1.434556e-01	6.721072e+00	
