                                kicad schematic
                                Transient Analysis  Thu Jan 15 12:30:47  2026
--------------------------------------------------------------------------------
Index   time            net-_r1-pad1_   net-_r2-pad2_   q.x1.q1#collCX  
--------------------------------------------------------------------------------
0	0.000000e+00	0.000000e+00	2.803600e-27	1.883356e-26	
1	1.000000e-07	6.283185e-04	7.200263e-05	4.066566e-04	
2	1.322031e-07	8.306565e-04	9.919611e-05	5.592409e-04	
3	1.966093e-07	1.235332e-03	1.582230e-04	8.872567e-04	
4	3.254217e-07	2.044683e-03	2.883003e-04	1.594718e-03	
5	5.830465e-07	3.663381e-03	5.526813e-04	3.025092e-03	
6	1.020720e-06	6.413327e-03	9.951736e-04	5.474278e-03	
7	1.896066e-06	1.191305e-02	1.862216e-03	1.042591e-02	
8	2.939781e-06	1.847014e-02	2.879672e-03	1.638398e-02	
9	4.358686e-06	2.738301e-02	4.252784e-03	2.452585e-02	
10	6.080369e-06	3.819479e-02	5.914461e-03	3.442823e-02	
11	9.031365e-06	5.671529e-02	8.759853e-03	5.140907e-02	
12	1.297292e-05	8.142100e-02	1.255565e-02	7.406806e-02	
13	1.981942e-05	1.242075e-01	1.912948e-02	1.133117e-01	
14	2.981942e-05	1.862667e-01	2.866436e-02	1.702336e-01	
15	3.981942e-05	2.475908e-01	3.808627e-02	2.264838e-01	
16	4.981942e-05	3.079377e-01	4.735802e-02	2.818396e-01	
17	5.981942e-05	3.670694e-01	5.644303e-02	3.360831e-01	
18	6.981942e-05	4.247524e-01	6.530543e-02	3.889997e-01	
19	7.981942e-05	4.807591e-01	7.391028e-02	4.403808e-01	
20	8.981942e-05	5.348685e-01	8.222354e-02	4.900225e-01	
21	9.981942e-05	5.868669e-01	9.021233e-02	5.377270e-01	
22	1.098194e-04	6.365493e-01	9.784488e-02	5.833003e-01	
23	1.198194e-04	6.837196e-01	1.050906e-01	6.265540e-01	
24	1.298194e-04	7.281915e-01	1.119201e-01	6.673112e-01	
25	1.398194e-04	7.697895e-01	1.183056e-01	7.054158e-01	
26	1.498194e-04	8.083496e-01	1.242199e-01	7.407391e-01	
27	1.598194e-04	8.437194e-01	1.296338e-01	7.731450e-01	
28	1.685049e-04	8.717426e-01	1.339035e-01	7.988012e-01	
29	1.763685e-04	8.948773e-01	1.374031e-01	8.199489e-01	
30	1.863685e-04	9.211357e-01	1.413379e-01	8.438842e-01	
31	1.963685e-04	9.437587e-01	1.447038e-01	8.644326e-01	
32	2.063685e-04	9.626571e-01	1.475066e-01	8.815476e-01	
33	2.163685e-04	9.777564e-01	1.497320e-01	8.951886e-01	
34	2.263685e-04	9.889970e-01	1.513834e-01	9.053295e-01	
35	2.363685e-04	9.963344e-01	1.524564e-01	9.119500e-01	
36	2.463685e-04	9.997397e-01	1.529508e-01	9.150340e-01	
37	2.563685e-04	9.991995e-01	1.528670e-01	9.145759e-01	
38	2.663685e-04	9.947159e-01	1.522059e-01	9.105771e-01	
39	2.763685e-04	9.863067e-01	1.509717e-01	9.030496e-01	
40	2.863685e-04	9.740049e-01	1.491698e-01	8.920132e-01	
41	2.963685e-04	9.578592e-01	1.468054e-01	8.774959e-01	
42	3.063685e-04	9.379333e-01	1.438724e-01	8.595335e-01	
43	3.163685e-04	9.143057e-01	1.403586e-01	8.381695e-01	
44	3.263685e-04	8.870698e-01	1.362608e-01	8.134614e-01	
45	3.363685e-04	8.563331e-01	1.315944e-01	7.854908e-01	
46	3.463685e-04	8.222168e-01	1.263837e-01	7.543630e-01	
47	3.563685e-04	7.848556e-01	1.206577e-01	7.202075e-01	
48	3.663685e-04	7.443969e-01	1.144447e-01	6.831723e-01	
49	3.763685e-04	7.010004e-01	1.077744e-01	6.434185e-01	
50	3.863685e-04	6.548374e-01	1.006757e-01	6.011124e-01	
51	3.963685e-04	6.060901e-01	9.317870e-02	5.564278e-01	
52	4.063685e-04	5.549508e-01	8.531337e-02	5.095440e-01	
53	4.163685e-04	5.016213e-01	7.711160e-02	4.606480e-01	
54	4.263685e-04	4.463122e-01	6.860556e-02	4.099334e-01	

Index   time            net-_r1-pad1_   net-_r2-pad2_   q.x1.q1#collCX  
--------------------------------------------------------------------------------
55	4.363685e-04	3.892417e-01	5.982925e-02	3.576010e-01	
56	4.463685e-04	3.306350e-01	5.081694e-02	3.038571e-01	
57	4.563685e-04	2.707235e-01	4.160450e-02	2.489145e-01	
58	4.663685e-04	2.097435e-01	3.222791e-02	1.929897e-01	
59	4.763685e-04	1.479358e-01	2.272448e-02	1.363037e-01	
60	4.863685e-04	8.554428e-02	1.313136e-02	7.907995e-02	
61	4.963685e-04	2.281512e-02	3.486674e-03	2.154472e-02	
62	5.063685e-04	-4.00041e-02	-6.17181e-03	-3.60753e-02	
63	5.163685e-04	-1.02665e-01	-1.58057e-02	-9.35523e-02	
64	5.263685e-04	-1.64922e-01	-2.53773e-02	-1.50660e-01	
65	5.363685e-04	-2.26527e-01	-3.48485e-02	-2.07172e-01	
66	5.463685e-04	-2.87238e-01	-4.41823e-02	-2.62866e-01	
67	5.563685e-04	-3.46816e-01	-5.33415e-02	-3.17523e-01	
68	5.663685e-04	-4.05025e-01	-6.22907e-02	-3.70925e-01	
69	5.763685e-04	-4.61635e-01	-7.09950e-02	-4.22863e-01	
70	5.863685e-04	-5.16424e-01	-7.94237e-02	-4.73128e-01	
71	5.963685e-04	-5.69174e-01	-8.75531e-02	-5.21515e-01	
72	6.063685e-04	-6.19679e-01	-9.53790e-02	-5.67815e-01	
73	6.163685e-04	-6.67737e-01	-1.02929e-01	-6.11803e-01	
74	6.263685e-04	-7.13161e-01	-1.10233e-01	-6.53231e-01	
75	6.363685e-04	-7.55770e-01	-1.17085e-01	-6.91833e-01	
76	6.463685e-04	-7.95396e-01	-1.22926e-01	-7.27323e-01	
77	6.563685e-04	-8.31883e-01	-1.28430e-01	-7.59854e-01	
78	6.663685e-04	-8.65087e-01	-1.33772e-01	-7.89521e-01	
79	6.763685e-04	-8.94877e-01	-1.38694e-01	-8.16356e-01	
80	6.863685e-04	-9.21136e-01	-1.43442e-01	-8.40347e-01	
81	6.963685e-04	-9.43759e-01	-1.47849e-01	-8.61145e-01	
82	7.063685e-04	-9.62657e-01	-1.51682e-01	-8.78509e-01	
83	7.163685e-04	-9.77756e-01	-1.54781e-01	-8.92369e-01	
84	7.263685e-04	-9.88997e-01	-1.57114e-01	-9.02705e-01	
85	7.363685e-04	-9.96334e-01	-1.58674e-01	-9.09499e-01	
86	7.463685e-04	-9.99740e-01	-1.59463e-01	-9.12735e-01	
87	7.563685e-04	-9.99200e-01	-1.59477e-01	-9.12411e-01	
88	7.663685e-04	-9.94716e-01	-1.58727e-01	-9.08530e-01	
89	7.763685e-04	-9.86307e-01	-1.57218e-01	-9.01107e-01	
90	7.863685e-04	-9.74005e-01	-1.54969e-01	-8.90170e-01	
91	7.963685e-04	-9.57859e-01	-1.51994e-01	-8.75759e-01	
92	8.063685e-04	-9.37933e-01	-1.48324e-01	-8.57925e-01	
93	8.163685e-04	-9.14306e-01	-1.43990e-01	-8.36730e-01	
94	8.263685e-04	-8.87070e-01	-1.39041e-01	-8.12246e-01	
95	8.363685e-04	-8.56333e-01	-1.33536e-01	-7.84550e-01	
96	8.463685e-04	-8.22217e-01	-1.27555e-01	-7.53724e-01	
97	8.563685e-04	-7.84856e-01	-1.21184e-01	-7.19854e-01	
98	8.663685e-04	-7.44397e-01	-1.14511e-01	-6.83044e-01	
99	8.763685e-04	-7.01000e-01	-1.07583e-01	-6.43422e-01	
100	8.863685e-04	-6.54837e-01	-1.00396e-01	-6.01165e-01	
101	8.963685e-04	-6.06090e-01	-9.29077e-02	-5.56476e-01	
102	9.063685e-04	-5.54951e-01	-8.50791e-02	-5.09575e-01	
103	9.163685e-04	-5.01621e-01	-7.69156e-02	-4.60662e-01	
104	9.263685e-04	-4.46312e-01	-6.84400e-02	-4.09936e-01	
105	9.363685e-04	-3.89242e-01	-5.96883e-02	-3.57597e-01	
106	9.463685e-04	-3.30635e-01	-5.06948e-02	-3.03851e-01	
107	9.563685e-04	-2.70723e-01	-4.14985e-02	-2.48907e-01	
108	9.663685e-04	-2.09744e-01	-3.21351e-02	-1.92984e-01	
109	9.763685e-04	-1.47936e-01	-2.26440e-02	-1.36300e-01	
110	9.863685e-04	-8.55443e-02	-1.30614e-02	-7.90797e-02	
111	9.963685e-04	-2.28151e-02	-3.42700e-03	-2.15478e-02	
112	1.006369e-03	4.000407e-02	6.222462e-03	3.606785e-02	

Index   time            net-_r1-pad1_   net-_r2-pad2_   q.x1.q1#collCX  
--------------------------------------------------------------------------------
113	1.016369e-03	1.026654e-01	1.584732e-02	9.354084e-02	
114	1.026369e-03	1.649215e-01	2.541091e-02	1.506436e-01	
115	1.036369e-03	2.265268e-01	3.487404e-02	2.071517e-01	
116	1.046369e-03	2.872381e-01	4.420066e-02	2.628413e-01	
117	1.056369e-03	3.468158e-01	5.335263e-02	3.174932e-01	
118	1.066369e-03	4.050247e-01	6.229504e-02	3.708901e-01	
119	1.076369e-03	4.616352e-01	7.099138e-02	4.228196e-01	
120	1.086369e-03	5.164239e-01	7.940844e-02	4.730694e-01	
121	1.096369e-03	5.691744e-01	8.751174e-02	5.214309e-01	
122	1.106369e-03	6.196787e-01	9.527011e-02	5.677051e-01	
123	1.116369e-03	6.677374e-01	1.026516e-01	6.117302e-01	
124	1.126369e-03	7.131609e-01	1.096286e-01	6.533593e-01	
125	1.136369e-03	7.557698e-01	1.161739e-01	6.924342e-01	
126	1.146369e-03	7.953960e-01	1.222635e-01	7.287867e-01	
127	1.156369e-03	8.318832e-01	1.278701e-01	7.622626e-01	
128	1.166369e-03	8.650873e-01	1.329627e-01	7.927117e-01	
129	1.176369e-03	8.948773e-01	1.374998e-01	8.199820e-01	
130	1.186369e-03	9.211357e-01	1.414568e-01	8.439428e-01	
131	1.196369e-03	9.437587e-01	1.448437e-01	8.645113e-01	
132	1.206369e-03	9.626571e-01	1.476775e-01	8.816446e-01	
133	1.216369e-03	9.777564e-01	1.499554e-01	8.953164e-01	
134	1.226369e-03	9.889970e-01	1.516699e-01	9.055074e-01	
135	1.236369e-03	9.963344e-01	1.528089e-01	9.122026e-01	
136	1.246369e-03	9.997397e-01	1.533625e-01	9.153836e-01	
137	1.256369e-03	9.991995e-01	1.533129e-01	9.149856e-01	
138	1.266369e-03	9.947159e-01	1.526503e-01	9.109406e-01	
139	1.276369e-03	9.863067e-01	1.513838e-01	9.033051e-01	
140	1.286369e-03	9.740049e-01	1.495270e-01	8.921737e-01	
141	1.296369e-03	9.578592e-01	1.470904e-01	8.775974e-01	
142	1.306369e-03	9.379333e-01	1.440789e-01	8.595940e-01	
143	1.316369e-03	9.143057e-01	1.404968e-01	8.381970e-01	
144	1.326369e-03	8.870698e-01	1.363529e-01	8.134639e-01	
145	1.336369e-03	8.563331e-01	1.316603e-01	7.854799e-01	
146	1.346369e-03	8.222168e-01	1.264371e-01	7.543515e-01	
147	1.356369e-03	7.848556e-01	1.207040e-01	7.202055e-01	
148	1.366369e-03	7.443969e-01	1.144868e-01	6.831842e-01	
149	1.376369e-03	7.010004e-01	1.078121e-01	6.434430e-01	
150	1.386369e-03	6.548374e-01	1.007090e-01	6.011455e-01	
151	1.396369e-03	6.060901e-01	9.320690e-02	5.564650e-01	
152	1.406369e-03	5.549508e-01	8.533700e-02	5.095813e-01	
153	1.416369e-03	5.016213e-01	7.713077e-02	4.606829e-01	
154	1.426369e-03	4.463122e-01	6.862117e-02	4.099644e-01	
155	1.436369e-03	3.892417e-01	5.984162e-02	3.576278e-01	
156	1.446369e-03	3.306350e-01	5.082695e-02	3.038799e-01	
157	1.456369e-03	2.707235e-01	4.161238e-02	2.489338e-01	
158	1.466369e-03	2.097435e-01	3.223435e-02	1.930060e-01	
159	1.476369e-03	1.479358e-01	2.272953e-02	1.363178e-01	
160	1.486369e-03	8.554428e-02	1.313554e-02	7.909214e-02	
161	1.496369e-03	2.281512e-02	3.489952e-03	2.155556e-02	
162	1.506369e-03	-4.00041e-02	-6.16902e-03	-3.60655e-02	
163	1.516369e-03	-1.02665e-01	-1.58035e-02	-9.35430e-02	
164	1.526369e-03	-1.64922e-01	-2.53752e-02	-1.50651e-01	
165	1.536369e-03	-2.26527e-01	-3.48467e-02	-2.07163e-01	
166	1.546369e-03	-2.87238e-01	-4.41804e-02	-2.62856e-01	
167	1.556369e-03	-3.46816e-01	-5.33396e-02	-3.17511e-01	
168	1.566369e-03	-4.05025e-01	-6.22883e-02	-3.70912e-01	
169	1.576369e-03	-4.61635e-01	-7.09923e-02	-4.22848e-01	
170	1.586369e-03	-5.16424e-01	-7.94203e-02	-4.73111e-01	

Index   time            net-_r1-pad1_   net-_r2-pad2_   q.x1.q1#collCX  
--------------------------------------------------------------------------------
171	1.596369e-03	-5.69174e-01	-8.75494e-02	-5.21497e-01	
172	1.606369e-03	-6.19679e-01	-9.53750e-02	-5.67799e-01	
173	1.616369e-03	-6.67737e-01	-1.02925e-01	-6.11794e-01	
174	1.626369e-03	-7.13161e-01	-1.10228e-01	-6.53241e-01	
175	1.636369e-03	-7.55770e-01	-1.17067e-01	-6.91880e-01	
176	1.646369e-03	-7.95396e-01	-1.22906e-01	-7.27431e-01	
177	1.656369e-03	-8.31883e-01	-1.28446e-01	-7.60057e-01	
178	1.666369e-03	-8.65087e-01	-1.33767e-01	-7.89773e-01	
179	1.676369e-03	-8.94877e-01	-1.38599e-01	-8.16549e-01	
180	1.686369e-03	-9.21136e-01	-1.43199e-01	-8.40516e-01	
181	1.696369e-03	-9.43759e-01	-1.47608e-01	-8.61426e-01	
182	1.706369e-03	-9.62657e-01	-1.51535e-01	-8.78874e-01	
183	1.716369e-03	-9.77756e-01	-1.54713e-01	-8.92737e-01	
184	1.726369e-03	-9.88997e-01	-1.57088e-01	-9.03031e-01	
185	1.736369e-03	-9.96334e-01	-1.58667e-01	-9.09764e-01	
186	1.746369e-03	-9.99740e-01	-1.59466e-01	-9.12941e-01	
187	1.756369e-03	-9.99200e-01	-1.59480e-01	-9.12564e-01	
188	1.766369e-03	-9.94716e-01	-1.58731e-01	-9.08639e-01	
189	1.776369e-03	-9.86307e-01	-1.57219e-01	-9.01182e-01	
190	1.786369e-03	-9.74005e-01	-1.54970e-01	-8.90221e-01	
191	1.796369e-03	-9.57859e-01	-1.51992e-01	-8.75790e-01	
192	1.806369e-03	-9.37933e-01	-1.48323e-01	-8.57944e-01	
193	1.816369e-03	-9.14306e-01	-1.43987e-01	-8.36740e-01	
194	1.826369e-03	-8.87070e-01	-1.39039e-01	-8.12251e-01	
195	1.836369e-03	-8.56333e-01	-1.33533e-01	-7.84552e-01	
196	1.846369e-03	-8.22217e-01	-1.27553e-01	-7.53724e-01	
197	1.856369e-03	-7.84856e-01	-1.21182e-01	-7.19853e-01	
198	1.866369e-03	-7.44397e-01	-1.14511e-01	-6.83043e-01	
199	1.876369e-03	-7.01000e-01	-1.07582e-01	-6.43421e-01	
200	1.886369e-03	-6.54837e-01	-1.00397e-01	-6.01164e-01	
201	1.896369e-03	-6.06090e-01	-9.29068e-02	-5.56475e-01	
202	1.906369e-03	-5.54951e-01	-8.50794e-02	-5.09574e-01	
203	1.916369e-03	-5.01621e-01	-7.69148e-02	-4.60661e-01	
204	1.926369e-03	-4.46312e-01	-6.84403e-02	-4.09936e-01	
205	1.936369e-03	-3.89242e-01	-5.96875e-02	-3.57597e-01	
206	1.946369e-03	-3.30635e-01	-5.06950e-02	-3.03851e-01	
207	1.956369e-03	-2.70723e-01	-4.14978e-02	-2.48908e-01	
208	1.966369e-03	-2.09744e-01	-3.21354e-02	-1.92985e-01	
209	1.976369e-03	-1.47936e-01	-2.26433e-02	-1.36301e-01	
210	1.986369e-03	-8.55443e-02	-1.30616e-02	-7.90807e-02	
211	1.996369e-03	-2.28151e-02	-3.42641e-03	-2.15488e-02	
212	2.006369e-03	4.000407e-02	6.222202e-03	3.606644e-02	
213	2.016369e-03	1.026654e-01	1.584781e-02	9.353933e-02	
214	2.026369e-03	1.649215e-01	2.541055e-02	1.506413e-01	
215	2.036369e-03	2.265268e-01	3.487424e-02	2.071481e-01	
216	2.046369e-03	2.872381e-01	4.419968e-02	2.628340e-01	
217	2.056369e-03	3.468158e-01	5.335124e-02	3.174776e-01	
218	2.066369e-03	4.050247e-01	6.229066e-02	3.708565e-01	
219	2.076369e-03	4.616352e-01	7.098393e-02	4.227583e-01	
220	2.086369e-03	5.164239e-01	7.939643e-02	4.729812e-01	
221	2.096369e-03	5.691744e-01	8.749810e-02	5.213359e-01	
222	2.106369e-03	6.196787e-01	9.525606e-02	5.676313e-01	
223	2.116369e-03	6.677374e-01	1.026399e-01	6.116793e-01	
224	2.126369e-03	7.131609e-01	1.096194e-01	6.533281e-01	
225	2.136369e-03	7.557698e-01	1.161690e-01	6.924145e-01	
226	2.146369e-03	7.953960e-01	1.222621e-01	7.287795e-01	
227	2.156369e-03	8.318832e-01	1.278744e-01	7.622754e-01	
228	2.166369e-03	8.650873e-01	1.329734e-01	7.927490e-01	

Index   time            net-_r1-pad1_   net-_r2-pad2_   q.x1.q1#collCX  
--------------------------------------------------------------------------------
229	2.176369e-03	8.948773e-01	1.375179e-01	8.200553e-01	
230	2.186369e-03	9.211357e-01	1.414691e-01	8.440535e-01	
231	2.196369e-03	9.437587e-01	1.448336e-01	8.646474e-01	
232	2.206369e-03	9.626571e-01	1.476601e-01	8.817883e-01	
233	2.216369e-03	9.777564e-01	1.499675e-01	8.954447e-01	
234	2.226369e-03	9.889970e-01	1.516990e-01	9.055580e-01	
235	2.236369e-03	9.963344e-01	1.528149e-01	9.121024e-01	
236	2.246369e-03	9.997397e-01	1.533296e-01	9.151090e-01	
237	2.256369e-03	9.991995e-01	1.532562e-01	9.146034e-01	
238	2.266369e-03	9.947159e-01	1.525950e-01	9.105919e-01	
239	2.276369e-03	9.863067e-01	1.513438e-01	9.030692e-01	
240	2.286369e-03	9.740049e-01	1.495047e-01	8.920401e-01	
241	2.296369e-03	9.578592e-01	1.470798e-01	8.775262e-01	
242	2.306369e-03	9.379333e-01	1.440736e-01	8.595522e-01	
243	2.316369e-03	9.143057e-01	1.404942e-01	8.381714e-01	
244	2.326369e-03	8.870698e-01	1.363513e-01	8.134472e-01	
245	2.336369e-03	8.563331e-01	1.316596e-01	7.854689e-01	
246	2.346369e-03	8.222168e-01	1.264366e-01	7.543442e-01	
247	2.356369e-03	7.848556e-01	1.207043e-01	7.202010e-01	
248	2.366369e-03	7.443969e-01	1.144870e-01	6.831813e-01	
249	2.376369e-03	7.010004e-01	1.078127e-01	6.434415e-01	
250	2.386369e-03	6.548374e-01	1.007093e-01	6.011446e-01	
251	2.396369e-03	6.060901e-01	9.320752e-02	5.564648e-01	
252	2.406369e-03	5.549508e-01	8.533728e-02	5.095812e-01	
253	2.416369e-03	5.016213e-01	7.713124e-02	4.606831e-01	
254	2.426369e-03	4.463122e-01	6.862130e-02	4.099644e-01	
255	2.436369e-03	3.892417e-01	5.984194e-02	3.576279e-01	
256	2.446369e-03	3.306350e-01	5.082697e-02	3.038798e-01	
257	2.456369e-03	2.707235e-01	4.161258e-02	2.489338e-01	
258	2.466369e-03	2.097435e-01	3.223428e-02	1.930058e-01	
259	2.476369e-03	1.479358e-01	2.272966e-02	1.363176e-01	
260	2.486369e-03	8.554428e-02	1.313543e-02	7.909180e-02	
261	2.496369e-03	2.281512e-02	3.490039e-03	2.155531e-02	
262	2.506369e-03	-4.00041e-02	-6.16913e-03	-3.60658e-02	
263	2.516369e-03	-1.02665e-01	-1.58034e-02	-9.35432e-02	
264	2.526369e-03	-1.64922e-01	-2.53753e-02	-1.50651e-01	
265	2.536369e-03	-2.26527e-01	-3.48466e-02	-2.07163e-01	
266	2.546369e-03	-2.87238e-01	-4.41804e-02	-2.62856e-01	
267	2.556369e-03	-3.46816e-01	-5.33394e-02	-3.17511e-01	
268	2.566369e-03	-4.05025e-01	-6.22882e-02	-3.70912e-01	
269	2.576369e-03	-4.61635e-01	-7.09920e-02	-4.22847e-01	
270	2.586369e-03	-5.16424e-01	-7.94201e-02	-4.73110e-01	
271	2.596369e-03	-5.69174e-01	-8.75490e-02	-5.21496e-01	
272	2.606369e-03	-6.19679e-01	-9.53748e-02	-5.67798e-01	
273	2.616369e-03	-6.67737e-01	-1.02925e-01	-6.11793e-01	
274	2.626369e-03	-7.13161e-01	-1.10228e-01	-6.53240e-01	
275	2.636369e-03	-7.55770e-01	-1.17065e-01	-6.91879e-01	
276	2.646369e-03	-7.95396e-01	-1.22904e-01	-7.27431e-01	
277	2.656369e-03	-8.31883e-01	-1.28446e-01	-7.60058e-01	
278	2.666369e-03	-8.65087e-01	-1.33767e-01	-7.89776e-01	
279	2.676369e-03	-8.94877e-01	-1.38596e-01	-8.16550e-01	
280	2.686369e-03	-9.21136e-01	-1.43193e-01	-8.40520e-01	
281	2.696369e-03	-9.43759e-01	-1.47601e-01	-8.61441e-01	
282	2.706369e-03	-9.62657e-01	-1.51534e-01	-8.78901e-01	
283	2.716369e-03	-9.77756e-01	-1.54716e-01	-8.92774e-01	
284	2.726369e-03	-9.88997e-01	-1.57093e-01	-9.03073e-01	
285	2.736369e-03	-9.96334e-01	-1.58674e-01	-9.09806e-01	
286	2.746369e-03	-9.99740e-01	-1.59473e-01	-9.12980e-01	

Index   time            net-_r1-pad1_   net-_r2-pad2_   q.x1.q1#collCX  
--------------------------------------------------------------------------------
287	2.756369e-03	-9.99200e-01	-1.59486e-01	-9.12597e-01	
288	2.766369e-03	-9.94716e-01	-1.58736e-01	-9.08667e-01	
289	2.776369e-03	-9.86307e-01	-1.57223e-01	-9.01203e-01	
290	2.786369e-03	-9.74005e-01	-1.54973e-01	-8.90235e-01	
291	2.796369e-03	-9.57859e-01	-1.51994e-01	-8.75800e-01	
292	2.806369e-03	-9.37933e-01	-1.48324e-01	-8.57950e-01	
293	2.816369e-03	-9.14306e-01	-1.43987e-01	-8.36744e-01	
294	2.826369e-03	-8.87070e-01	-1.39040e-01	-8.12253e-01	
295	2.836369e-03	-8.56333e-01	-1.33534e-01	-7.84552e-01	
296	2.846369e-03	-8.22217e-01	-1.27553e-01	-7.53724e-01	
297	2.856369e-03	-7.84856e-01	-1.21182e-01	-7.19853e-01	
298	2.866369e-03	-7.44397e-01	-1.14510e-01	-6.83043e-01	
299	2.876369e-03	-7.01000e-01	-1.07582e-01	-6.43421e-01	
300	2.886369e-03	-6.54837e-01	-1.00397e-01	-6.01163e-01	
301	2.896369e-03	-6.06090e-01	-9.29067e-02	-5.56475e-01	
302	2.906369e-03	-5.54951e-01	-8.50794e-02	-5.09574e-01	
303	2.916369e-03	-5.01621e-01	-7.69147e-02	-4.60661e-01	
304	2.926369e-03	-4.46312e-01	-6.84402e-02	-4.09936e-01	
305	2.936369e-03	-3.89242e-01	-5.96875e-02	-3.57596e-01	
306	2.946369e-03	-3.30635e-01	-5.06950e-02	-3.03851e-01	
307	2.956369e-03	-2.70723e-01	-4.14977e-02	-2.48907e-01	
308	2.966369e-03	-2.09744e-01	-3.21353e-02	-1.92984e-01	
309	2.976369e-03	-1.47936e-01	-2.26433e-02	-1.36300e-01	
310	2.986369e-03	-8.55443e-02	-1.30615e-02	-7.90802e-02	
311	2.996369e-03	-2.28151e-02	-3.42634e-03	-2.15483e-02	
312	3.006369e-03	4.000407e-02	6.222279e-03	3.606687e-02	
313	3.016369e-03	1.026654e-01	1.584788e-02	9.353980e-02	
314	3.026369e-03	1.649215e-01	2.541062e-02	1.506417e-01	
315	3.036369e-03	2.265268e-01	3.487431e-02	2.071486e-01	
316	3.046369e-03	2.872381e-01	4.419974e-02	2.628343e-01	
317	3.056369e-03	3.468158e-01	5.335128e-02	3.174778e-01	
318	3.066369e-03	4.050247e-01	6.229067e-02	3.708565e-01	
319	3.076369e-03	4.616352e-01	7.098392e-02	4.227582e-01	
320	3.086369e-03	5.164239e-01	7.939643e-02	4.729811e-01	
321	3.096369e-03	5.691744e-01	8.749812e-02	5.213361e-01	
322	3.106369e-03	6.196787e-01	9.525611e-02	5.676316e-01	
323	3.116369e-03	6.677374e-01	1.026399e-01	6.116799e-01	
324	3.126369e-03	7.131609e-01	1.096195e-01	6.533286e-01	
325	3.136369e-03	7.557698e-01	1.161690e-01	6.924151e-01	
