    * /home/fossee/updatedexamples/parallel_resonance/parallel_resonance.cir
    AC Analysis  Fri Sep  1 14:47:46  2017
--------------------------------------------------------------------------------
Index   frequency       l1#branch                       
--------------------------------------------------------------------------------
0	1.000000e+00	9.999917e-03,	-6.91172e-05	
1	3.778947e+01	9.843346e-03,	-2.72450e-03	
2	7.457895e+01	8.921666e-03,	-5.89259e-03	
3	1.113684e+02	5.983495e-03,	-9.02443e-03	
4	1.481579e+02	1.251155e-03,	-9.60267e-03	
5	1.849474e+02	-1.99451e-03,	-7.27640e-03	
6	2.217368e+02	-2.90964e-03,	-4.73849e-03	
7	2.585263e+02	-2.78783e-03,	-3.04003e-03	
8	2.953158e+02	-2.41064e-03,	-2.01407e-03	
9	3.321053e+02	-2.03047e-03,	-1.38948e-03	
10	3.688947e+02	-1.70675e-03,	-9.95243e-04	
11	4.056842e+02	-1.44353e-03,	-7.36265e-04	
12	4.424737e+02	-1.23168e-03,	-5.59749e-04	
13	4.792632e+02	-1.06068e-03,	-4.35482e-04	
14	5.160526e+02	-9.21600e-04,	-3.45516e-04	
15	5.528421e+02	-8.07408e-04,	-2.78790e-04	
16	5.896316e+02	-7.12740e-04,	-2.28253e-04	
17	6.264211e+02	-6.33514e-04,	-1.89271e-04	
18	6.632105e+02	-5.66622e-04,	-1.58714e-04	
19	7.000000e+02	-5.09674e-04,	-1.34418e-04	

    * /home/fossee/updatedexamples/parallel_resonance/parallel_resonance.cir
    AC Analysis  Fri Sep  1 14:47:46  2017
--------------------------------------------------------------------------------
Index   frequency       v1#branch                       
--------------------------------------------------------------------------------
0	1.000000e+00	-9.99996e-03,	6.283133e-06	
1	3.778947e+01	-9.93531e-03,	2.337187e-04	
2	7.457895e+01	-9.72388e-03,	4.180633e-04	
3	1.113684e+02	-9.36852e-03,	4.186941e-04	
4	1.481579e+02	-9.10608e-03,	1.164705e-04	
5	1.849474e+02	-9.15444e-03,	-2.31773e-04	
6	2.217368e+02	-9.33983e-03,	-4.05375e-04	
7	2.585263e+02	-9.50619e-03,	-4.52846e-04	
8	2.953158e+02	-9.62628e-03,	-4.47301e-04	
9	3.321053e+02	-9.71006e-03,	-4.23694e-04	
10	3.688947e+02	-9.76932e-03,	-3.95596e-04	
11	4.056842e+02	-9.81233e-03,	-3.67955e-04	
12	4.424737e+02	-9.84438e-03,	-3.42424e-04	
13	4.792632e+02	-9.86886e-03,	-3.19403e-04	
14	5.160526e+02	-9.88797e-03,	-2.98825e-04	
15	5.528421e+02	-9.90316e-03,	-2.80462e-04	
16	5.896316e+02	-9.91544e-03,	-2.64053e-04	
17	6.264211e+02	-9.92550e-03,	-2.49346e-04	
18	6.632105e+02	-9.93386e-03,	-2.36116e-04	
19	7.000000e+02	-9.94088e-03,	-2.24166e-04	
