    * /home/fossee/updatedexamples/parallel_resonance/parallel_resonance.cir
    AC Analysis  Thu Mar  3 22:48:11  2016
--------------------------------------------------------------------------------
Index   frequency       in                              
--------------------------------------------------------------------------------
0	1.000000e+00	1.000000e+00,	0.000000e+00	
1	3.778947e+01	1.000000e+00,	0.000000e+00	
2	7.457895e+01	1.000000e+00,	0.000000e+00	
3	1.113684e+02	1.000000e+00,	0.000000e+00	
4	1.481579e+02	1.000000e+00,	0.000000e+00	
5	1.849474e+02	1.000000e+00,	0.000000e+00	
6	2.217368e+02	1.000000e+00,	0.000000e+00	
7	2.585263e+02	1.000000e+00,	0.000000e+00	
8	2.953158e+02	1.000000e+00,	0.000000e+00	
9	3.321053e+02	1.000000e+00,	0.000000e+00	
10	3.688947e+02	1.000000e+00,	0.000000e+00	
11	4.056842e+02	1.000000e+00,	0.000000e+00	
12	4.424737e+02	1.000000e+00,	0.000000e+00	
13	4.792632e+02	1.000000e+00,	0.000000e+00	
14	5.160526e+02	1.000000e+00,	0.000000e+00	
15	5.528421e+02	1.000000e+00,	0.000000e+00	
16	5.896316e+02	1.000000e+00,	0.000000e+00	
17	6.264211e+02	1.000000e+00,	0.000000e+00	
18	6.632105e+02	1.000000e+00,	0.000000e+00	
19	7.000000e+02	1.000000e+00,	0.000000e+00	

    * /home/fossee/updatedexamples/parallel_resonance/parallel_resonance.cir
    AC Analysis  Thu Mar  3 22:48:11  2016
--------------------------------------------------------------------------------
Index   frequency       out                             
--------------------------------------------------------------------------------
0	1.000000e+00	4.342761e-06,	6.283133e-04	
1	3.778947e+01	6.469017e-03,	2.337187e-02	
2	7.457895e+01	2.761228e-02,	4.180633e-02	
3	1.113684e+02	6.314828e-02,	4.186941e-02	
4	1.481579e+02	8.939157e-02,	1.164705e-02	
5	1.849474e+02	8.455604e-02,	-2.31773e-02	
6	2.217368e+02	6.601726e-02,	-4.05375e-02	
7	2.585263e+02	4.938124e-02,	-4.52846e-02	
8	2.953158e+02	3.737155e-02,	-4.47301e-02	
9	3.321053e+02	2.899398e-02,	-4.23694e-02	
10	3.688947e+02	2.306809e-02,	-3.95596e-02	
11	4.056842e+02	1.876731e-02,	-3.67955e-02	
12	4.424737e+02	1.556182e-02,	-3.42424e-02	
13	4.792632e+02	1.311366e-02,	-3.19403e-02	
14	5.160526e+02	1.120320e-02,	-2.98825e-02	
15	5.528421e+02	9.684087e-03,	-2.80462e-02	
16	5.896316e+02	8.456245e-03,	-2.64053e-02	
17	6.264211e+02	7.449539e-03,	-2.49346e-02	
18	6.632105e+02	6.613717e-03,	-2.36116e-02	
19	7.000000e+02	5.912034e-03,	-2.24166e-02	
