    * /home/fossee/updatedexamples/parallel_resonance/parallel_resonance.cir
    AC Analysis  Fri Sep  1 14:47:46  2017
--------------------------------------------------------------------------------
Index   frequency       in                              
--------------------------------------------------------------------------------
0	1.000000e+00	1.000000e+01,	0.000000e+00	
1	3.778947e+01	1.000000e+01,	0.000000e+00	
2	7.457895e+01	1.000000e+01,	0.000000e+00	
3	1.113684e+02	1.000000e+01,	0.000000e+00	
4	1.481579e+02	1.000000e+01,	0.000000e+00	
5	1.849474e+02	1.000000e+01,	0.000000e+00	
6	2.217368e+02	1.000000e+01,	0.000000e+00	
7	2.585263e+02	1.000000e+01,	0.000000e+00	
8	2.953158e+02	1.000000e+01,	0.000000e+00	
9	3.321053e+02	1.000000e+01,	0.000000e+00	
10	3.688947e+02	1.000000e+01,	0.000000e+00	
11	4.056842e+02	1.000000e+01,	0.000000e+00	
12	4.424737e+02	1.000000e+01,	0.000000e+00	
13	4.792632e+02	1.000000e+01,	0.000000e+00	
14	5.160526e+02	1.000000e+01,	0.000000e+00	
15	5.528421e+02	1.000000e+01,	0.000000e+00	
16	5.896316e+02	1.000000e+01,	0.000000e+00	
17	6.264211e+02	1.000000e+01,	0.000000e+00	
18	6.632105e+02	1.000000e+01,	0.000000e+00	
19	7.000000e+02	1.000000e+01,	0.000000e+00	

    * /home/fossee/updatedexamples/parallel_resonance/parallel_resonance.cir
    AC Analysis  Fri Sep  1 14:47:46  2017
--------------------------------------------------------------------------------
Index   frequency       out                             
--------------------------------------------------------------------------------
0	1.000000e+00	4.342761e-05,	6.283133e-03	
1	3.778947e+01	6.469017e-02,	2.337187e-01	
2	7.457895e+01	2.761228e-01,	4.180633e-01	
3	1.113684e+02	6.314828e-01,	4.186941e-01	
4	1.481579e+02	8.939157e-01,	1.164705e-01	
5	1.849474e+02	8.455604e-01,	-2.31773e-01	
6	2.217368e+02	6.601726e-01,	-4.05375e-01	
7	2.585263e+02	4.938124e-01,	-4.52846e-01	
8	2.953158e+02	3.737155e-01,	-4.47301e-01	
9	3.321053e+02	2.899398e-01,	-4.23694e-01	
10	3.688947e+02	2.306809e-01,	-3.95596e-01	
11	4.056842e+02	1.876731e-01,	-3.67955e-01	
12	4.424737e+02	1.556182e-01,	-3.42424e-01	
13	4.792632e+02	1.311366e-01,	-3.19403e-01	
14	5.160526e+02	1.120320e-01,	-2.98825e-01	
15	5.528421e+02	9.684087e-02,	-2.80462e-01	
16	5.896316e+02	8.456245e-02,	-2.64053e-01	
17	6.264211e+02	7.449539e-02,	-2.49346e-01	
18	6.632105e+02	6.613717e-02,	-2.36116e-01	
19	7.000000e+02	5.912034e-02,	-2.24166e-01	
