    * /home/fossee/updatedexamples/parallel_resonance/parallel_resonance.cir
    AC Analysis  Thu Mar  3 22:48:11  2016
--------------------------------------------------------------------------------
Index   frequency       l1#branch                       
--------------------------------------------------------------------------------
0	1.000000e+00	9.999917e-04,	-6.91172e-06	
1	3.778947e+01	9.843346e-04,	-2.72450e-04	
2	7.457895e+01	8.921666e-04,	-5.89259e-04	
3	1.113684e+02	5.983495e-04,	-9.02443e-04	
4	1.481579e+02	1.251155e-04,	-9.60267e-04	
5	1.849474e+02	-1.99451e-04,	-7.27640e-04	
6	2.217368e+02	-2.90964e-04,	-4.73849e-04	
7	2.585263e+02	-2.78783e-04,	-3.04003e-04	
8	2.953158e+02	-2.41064e-04,	-2.01407e-04	
9	3.321053e+02	-2.03047e-04,	-1.38948e-04	
10	3.688947e+02	-1.70675e-04,	-9.95243e-05	
11	4.056842e+02	-1.44353e-04,	-7.36265e-05	
12	4.424737e+02	-1.23168e-04,	-5.59749e-05	
13	4.792632e+02	-1.06068e-04,	-4.35482e-05	
14	5.160526e+02	-9.21600e-05,	-3.45516e-05	
15	5.528421e+02	-8.07408e-05,	-2.78790e-05	
16	5.896316e+02	-7.12740e-05,	-2.28253e-05	
17	6.264211e+02	-6.33514e-05,	-1.89271e-05	
18	6.632105e+02	-5.66622e-05,	-1.58714e-05	
19	7.000000e+02	-5.09674e-05,	-1.34418e-05	

    * /home/fossee/updatedexamples/parallel_resonance/parallel_resonance.cir
    AC Analysis  Thu Mar  3 22:48:11  2016
--------------------------------------------------------------------------------
Index   frequency       v1#branch                       
--------------------------------------------------------------------------------
0	1.000000e+00	-9.99996e-04,	6.283133e-07	
1	3.778947e+01	-9.93531e-04,	2.337187e-05	
2	7.457895e+01	-9.72388e-04,	4.180633e-05	
3	1.113684e+02	-9.36852e-04,	4.186941e-05	
4	1.481579e+02	-9.10608e-04,	1.164705e-05	
5	1.849474e+02	-9.15444e-04,	-2.31773e-05	
6	2.217368e+02	-9.33983e-04,	-4.05375e-05	
7	2.585263e+02	-9.50619e-04,	-4.52846e-05	
8	2.953158e+02	-9.62628e-04,	-4.47301e-05	
9	3.321053e+02	-9.71006e-04,	-4.23694e-05	
10	3.688947e+02	-9.76932e-04,	-3.95596e-05	
11	4.056842e+02	-9.81233e-04,	-3.67955e-05	
12	4.424737e+02	-9.84438e-04,	-3.42424e-05	
13	4.792632e+02	-9.86886e-04,	-3.19403e-05	
14	5.160526e+02	-9.88797e-04,	-2.98825e-05	
15	5.528421e+02	-9.90316e-04,	-2.80462e-05	
16	5.896316e+02	-9.91544e-04,	-2.64053e-05	
17	6.264211e+02	-9.92550e-04,	-2.49346e-05	
18	6.632105e+02	-9.93386e-04,	-2.36116e-05	
19	7.000000e+02	-9.94088e-04,	-2.24166e-05	
