Title: kicad schematic
Date: Sun Dec 14 19:27:14  2025
Plotname: Transient Analysis
Flags: real
No. Variables: 31
No. Points: 59      
Variables:
	0	time	time
	1	v(net-_x1-pad16_)	voltage
	2	v(v_y6)	voltage
	3	v(v_y4)	voltage
	4	v(v_y5)	voltage
	5	v(v_y3)	voltage
	6	v(v_y0)	voltage
	7	v(v_y2)	voltage
	8	v(v_y1)	voltage
	9	v(v_c)	voltage
	10	v(v_y8)	voltage
	11	v(v_y9)	voltage
	12	v(v_b)	voltage
	13	v(v_y7)	voltage
	14	v(v_d)	voltage
	15	v(v_a)	voltage
	16	i(v_a1)	current
	17	i(v_d1)	current
	18	i(v_b1)	current
	19	i(v_c1)	current
	20	i(v1)	current
	21	i(a3)	current
	22	i(a3)	current
	23	i(a3)	current
	24	i(a2)	current
	25	i(a2)	current
	26	i(a2)	current
	27	i(a2)	current
	28	i(a2)	current
	29	i(a2)	current
	30	i(a2)	current
Values:
0		0.000000000000000e+00
	5.000000000000000e+00
	5.000000000000000e+00
	5.000000000000000e+00
	5.000000000000000e+00
	5.000000000000000e+00
	5.000000000000000e+00
	5.000000000000000e+00
	5.000000000000000e+00
	5.000000000000000e+00
	5.000000000000000e+00
	5.000000000000000e+00
	5.000000000000000e+00
	0.000000000000000e+00
	0.000000000000000e+00
	5.000000000000000e+00
	0.000000000000000e+00
	0.000000000000000e+00
	0.000000000000000e+00
	0.000000000000000e+00
	0.000000000000000e+00
	-5.000000000000000e-03
	-5.000000000000000e-03
	0.000000000000000e+00
	-5.000000000000000e-03
	-5.000000000000000e-03
	-5.000000000000000e-03
	-5.000000000000000e-03
	-5.000000000000000e-03
	-5.000000000000000e-03
	-5.000000000000000e-03
1		1.000000000000000e-02
	5.000000000000000e+00
	5.000000000000000e+00
	5.000000000000000e+00
	5.000000000000000e+00
	5.000000000000000e+00
	5.000000000000000e+00
	5.000000000000000e+00
	5.000000000000000e+00
	5.000000000000000e+00
	5.000000000000000e+00
	5.000000000000000e+00
	5.000000000000000e+00
	0.000000000000000e+00
	0.000000000000000e+00
	5.000000000000000e+00
	0.000000000000000e+00
	0.000000000000000e+00
	0.000000000000000e+00
	0.000000000000000e+00
	0.000000000000000e+00
	-5.000000000000000e-03
	-5.000000000000000e-03
	0.000000000000000e+00
	-5.000000000000000e-03
	-5.000000000000000e-03
	-5.000000000000000e-03
	-5.000000000000000e-03
	-5.000000000000000e-03
	-5.000000000000000e-03
	-5.000000000000000e-03
2		2.000000000000000e-02
	5.000000000000000e+00
	5.000000000000000e+00
	5.000000000000000e+00
	5.000000000000000e+00
	5.000000000000000e+00
	5.000000000000000e+00
	5.000000000000000e+00
	5.000000000000000e+00
	5.000000000000000e+00
	5.000000000000000e+00
	5.000000000000000e+00
	5.000000000000000e+00
	0.000000000000000e+00
	0.000000000000000e+00
	5.000000000000000e+00
	0.000000000000000e+00
	0.000000000000000e+00
	0.000000000000000e+00
	0.000000000000000e+00
	0.000000000000000e+00
	-5.000000000000000e-03
	-5.000000000000000e-03
	0.000000000000000e+00
	-5.000000000000000e-03
	-5.000000000000000e-03
	-5.000000000000000e-03
	-5.000000000000000e-03
	-5.000000000000000e-03
	-5.000000000000000e-03
	-5.000000000000000e-03
3		4.000000000000000e-02
	5.000000000000000e+00
	5.000000000000000e+00
	5.000000000000000e+00
	5.000000000000000e+00
	5.000000000000000e+00
	5.000000000000000e+00
	5.000000000000000e+00
	5.000000000000000e+00
	5.000000000000000e+00
	5.000000000000000e+00
	5.000000000000000e+00
	5.000000000000000e+00
	0.000000000000000e+00
	0.000000000000000e+00
	5.000000000000000e+00
	0.000000000000000e+00
	0.000000000000000e+00
	0.000000000000000e+00
	0.000000000000000e+00
	0.000000000000000e+00
	-5.000000000000000e-03
	-5.000000000000000e-03
	0.000000000000000e+00
	-5.000000000000000e-03
	-5.000000000000000e-03
	-5.000000000000000e-03
	-5.000000000000000e-03
	-5.000000000000000e-03
	-5.000000000000000e-03
	-5.000000000000000e-03
4		8.000000000000000e-02
	5.000000000000000e+00
	5.000000000000000e+00
	5.000000000000000e+00
	5.000000000000000e+00
	5.000000000000000e+00
	5.000000000000000e+00
	5.000000000000000e+00
	5.000000000000000e+00
	5.000000000000000e+00
	5.000000000000000e+00
	5.000000000000000e+00
	5.000000000000000e+00
	0.000000000000000e+00
	0.000000000000000e+00
	5.000000000000000e+00
	0.000000000000000e+00
	0.000000000000000e+00
	0.000000000000000e+00
	0.000000000000000e+00
	0.000000000000000e+00
	-5.000000000000000e-03
	-5.000000000000000e-03
	0.000000000000000e+00
	-5.000000000000000e-03
	-5.000000000000000e-03
	-5.000000000000000e-03
	-5.000000000000000e-03
	-5.000000000000000e-03
	-5.000000000000000e-03
	-5.000000000000000e-03
5		1.600000000000000e-01
	5.000000000000000e+00
	5.000000000000000e+00
	5.000000000000000e+00
	5.000000000000000e+00
	5.000000000000000e+00
	5.000000000000000e+00
	5.000000000000000e+00
	5.000000000000000e+00
	5.000000000000000e+00
	5.000000000000000e+00
	5.000000000000000e+00
	5.000000000000000e+00
	0.000000000000000e+00
	0.000000000000000e+00
	5.000000000000000e+00
	0.000000000000000e+00
	0.000000000000000e+00
	0.000000000000000e+00
	0.000000000000000e+00
	0.000000000000000e+00
	-5.000000000000000e-03
	-5.000000000000000e-03
	0.000000000000000e+00
	-5.000000000000000e-03
	-5.000000000000000e-03
	-5.000000000000000e-03
	-5.000000000000000e-03
	-5.000000000000000e-03
	-5.000000000000000e-03
	-5.000000000000000e-03
6		3.200000000000000e-01
	5.000000000000000e+00
	5.000000000000000e+00
	5.000000000000000e+00
	5.000000000000000e+00
	5.000000000000000e+00
	5.000000000000000e+00
	5.000000000000000e+00
	5.000000000000000e+00
	5.000000000000000e+00
	5.000000000000000e+00
	5.000000000000000e+00
	5.000000000000000e+00
	0.000000000000000e+00
	0.000000000000000e+00
	5.000000000000000e+00
	0.000000000000000e+00
	0.000000000000000e+00
	0.000000000000000e+00
	0.000000000000000e+00
	0.000000000000000e+00
	-5.000000000000000e-03
	-5.000000000000000e-03
	0.000000000000000e+00
	-5.000000000000000e-03
	-5.000000000000000e-03
	-5.000000000000000e-03
	-5.000000000000000e-03
	-5.000000000000000e-03
	-5.000000000000000e-03
	-5.000000000000000e-03
7		6.400000000000000e-01
	5.000000000000000e+00
	5.000000000000000e+00
	5.000000000000000e+00
	5.000000000000000e+00
	5.000000000000000e+00
	5.000000000000000e+00
	5.000000000000000e+00
	5.000000000000000e+00
	5.000000000000000e+00
	5.000000000000000e+00
	5.000000000000000e+00
	5.000000000000000e+00
	0.000000000000000e+00
	0.000000000000000e+00
	5.000000000000000e+00
	0.000000000000000e+00
	0.000000000000000e+00
	0.000000000000000e+00
	0.000000000000000e+00
	0.000000000000000e+00
	-5.000000000000000e-03
	-5.000000000000000e-03
	0.000000000000000e+00
	-5.000000000000000e-03
	-5.000000000000000e-03
	-5.000000000000000e-03
	-5.000000000000000e-03
	-5.000000000000000e-03
	-5.000000000000000e-03
	-5.000000000000000e-03
8		1.280000000000000e+00
	5.000000000000000e+00
	5.000000000000000e+00
	5.000000000000000e+00
	5.000000000000000e+00
	5.000000000000000e+00
	5.000000000000000e+00
	5.000000000000000e+00
	5.000000000000000e+00
	5.000000000000000e+00
	5.000000000000000e+00
	5.000000000000000e+00
	5.000000000000000e+00
	0.000000000000000e+00
	0.000000000000000e+00
	5.000000000000000e+00
	0.000000000000000e+00
	0.000000000000000e+00
	0.000000000000000e+00
	0.000000000000000e+00
	0.000000000000000e+00
	-5.000000000000000e-03
	-5.000000000000000e-03
	0.000000000000000e+00
	-5.000000000000000e-03
	-5.000000000000000e-03
	-5.000000000000000e-03
	-5.000000000000000e-03
	-5.000000000000000e-03
	-5.000000000000000e-03
	-5.000000000000000e-03
9		2.560000000000000e+00
	5.000000000000000e+00
	5.000000000000000e+00
	5.000000000000000e+00
	5.000000000000000e+00
	5.000000000000000e+00
	5.000000000000000e+00
	5.000000000000000e+00
	5.000000000000000e+00
	5.000000000000000e+00
	5.000000000000000e+00
	5.000000000000000e+00
	5.000000000000000e+00
	0.000000000000000e+00
	0.000000000000000e+00
	5.000000000000000e+00
	0.000000000000000e+00
	0.000000000000000e+00
	0.000000000000000e+00
	0.000000000000000e+00
	0.000000000000000e+00
	-5.000000000000000e-03
	-5.000000000000000e-03
	0.000000000000000e+00
	-5.000000000000000e-03
	-5.000000000000000e-03
	-5.000000000000000e-03
	-5.000000000000000e-03
	-5.000000000000000e-03
	-5.000000000000000e-03
	-5.000000000000000e-03
10		4.560000000000000e+00
	5.000000000000000e+00
	5.000000000000000e+00
	5.000000000000000e+00
	5.000000000000000e+00
	5.000000000000000e+00
	5.000000000000000e+00
	5.000000000000000e+00
	5.000000000000000e+00
	5.000000000000000e+00
	5.000000000000000e+00
	5.000000000000000e+00
	5.000000000000000e+00
	0.000000000000000e+00
	0.000000000000000e+00
	5.000000000000000e+00
	0.000000000000000e+00
	0.000000000000000e+00
	0.000000000000000e+00
	0.000000000000000e+00
	0.000000000000000e+00
	-5.000000000000000e-03
	-5.000000000000000e-03
	0.000000000000000e+00
	-5.000000000000000e-03
	-5.000000000000000e-03
	-5.000000000000000e-03
	-5.000000000000000e-03
	-5.000000000000000e-03
	-5.000000000000000e-03
	-5.000000000000000e-03
11		6.560000000000000e+00
	5.000000000000000e+00
	5.000000000000000e+00
	5.000000000000000e+00
	5.000000000000000e+00
	5.000000000000000e+00
	5.000000000000000e+00
	5.000000000000000e+00
	5.000000000000000e+00
	5.000000000000000e+00
	5.000000000000000e+00
	5.000000000000000e+00
	5.000000000000000e+00
	0.000000000000000e+00
	0.000000000000000e+00
	5.000000000000000e+00
	0.000000000000000e+00
	0.000000000000000e+00
	0.000000000000000e+00
	0.000000000000000e+00
	0.000000000000000e+00
	-5.000000000000000e-03
	-5.000000000000000e-03
	0.000000000000000e+00
	-5.000000000000000e-03
	-5.000000000000000e-03
	-5.000000000000000e-03
	-5.000000000000000e-03
	-5.000000000000000e-03
	-5.000000000000000e-03
	-5.000000000000000e-03
12		8.560000000000000e+00
	5.000000000000000e+00
	5.000000000000000e+00
	5.000000000000000e+00
	5.000000000000000e+00
	5.000000000000000e+00
	5.000000000000000e+00
	5.000000000000000e+00
	5.000000000000000e+00
	5.000000000000000e+00
	5.000000000000000e+00
	5.000000000000000e+00
	5.000000000000000e+00
	0.000000000000000e+00
	0.000000000000000e+00
	5.000000000000000e+00
	0.000000000000000e+00
	0.000000000000000e+00
	0.000000000000000e+00
	0.000000000000000e+00
	0.000000000000000e+00
	-5.000000000000000e-03
	-5.000000000000000e-03
	0.000000000000000e+00
	-5.000000000000000e-03
	-5.000000000000000e-03
	-5.000000000000000e-03
	-5.000000000000000e-03
	-5.000000000000000e-03
	-5.000000000000000e-03
	-5.000000000000000e-03
13		1.056000000000000e+01
	5.000000000000000e+00
	5.000000000000000e+00
	5.000000000000000e+00
	5.000000000000000e+00
	5.000000000000000e+00
	5.000000000000000e+00
	5.000000000000000e+00
	5.000000000000000e+00
	5.000000000000000e+00
	5.000000000000000e+00
	5.000000000000000e+00
	5.000000000000000e+00
	0.000000000000000e+00
	0.000000000000000e+00
	5.000000000000000e+00
	0.000000000000000e+00
	0.000000000000000e+00
	0.000000000000000e+00
	0.000000000000000e+00
	0.000000000000000e+00
	-5.000000000000000e-03
	-5.000000000000000e-03
	0.000000000000000e+00
	-5.000000000000000e-03
	-5.000000000000000e-03
	-5.000000000000000e-03
	-5.000000000000000e-03
	-5.000000000000000e-03
	-5.000000000000000e-03
	-5.000000000000000e-03
14		1.256000000000000e+01
	5.000000000000000e+00
	5.000000000000000e+00
	5.000000000000000e+00
	5.000000000000000e+00
	5.000000000000000e+00
	5.000000000000000e+00
	5.000000000000000e+00
	5.000000000000000e+00
	5.000000000000000e+00
	5.000000000000000e+00
	5.000000000000000e+00
	5.000000000000000e+00
	0.000000000000000e+00
	0.000000000000000e+00
	5.000000000000000e+00
	0.000000000000000e+00
	0.000000000000000e+00
	0.000000000000000e+00
	0.000000000000000e+00
	0.000000000000000e+00
	-5.000000000000000e-03
	-5.000000000000000e-03
	0.000000000000000e+00
	-5.000000000000000e-03
	-5.000000000000000e-03
	-5.000000000000000e-03
	-5.000000000000000e-03
	-5.000000000000000e-03
	-5.000000000000000e-03
	-5.000000000000000e-03
15		1.456000000000000e+01
	5.000000000000000e+00
	5.000000000000000e+00
	5.000000000000000e+00
	5.000000000000000e+00
	5.000000000000000e+00
	5.000000000000000e+00
	5.000000000000000e+00
	5.000000000000000e+00
	5.000000000000000e+00
	5.000000000000000e+00
	5.000000000000000e+00
	5.000000000000000e+00
	0.000000000000000e+00
	0.000000000000000e+00
	5.000000000000000e+00
	0.000000000000000e+00
	0.000000000000000e+00
	0.000000000000000e+00
	0.000000000000000e+00
	0.000000000000000e+00
	-5.000000000000000e-03
	-5.000000000000000e-03
	0.000000000000000e+00
	-5.000000000000000e-03
	-5.000000000000000e-03
	-5.000000000000000e-03
	-5.000000000000000e-03
	-5.000000000000000e-03
	-5.000000000000000e-03
	-5.000000000000000e-03
16		1.656000000000000e+01
	5.000000000000000e+00
	5.000000000000000e+00
	5.000000000000000e+00
	5.000000000000000e+00
	5.000000000000000e+00
	5.000000000000000e+00
	5.000000000000000e+00
	5.000000000000000e+00
	5.000000000000000e+00
	5.000000000000000e+00
	5.000000000000000e+00
	5.000000000000000e+00
	0.000000000000000e+00
	0.000000000000000e+00
	5.000000000000000e+00
	0.000000000000000e+00
	0.000000000000000e+00
	0.000000000000000e+00
	0.000000000000000e+00
	0.000000000000000e+00
	-5.000000000000000e-03
	-5.000000000000000e-03
	0.000000000000000e+00
	-5.000000000000000e-03
	-5.000000000000000e-03
	-5.000000000000000e-03
	-5.000000000000000e-03
	-5.000000000000000e-03
	-5.000000000000000e-03
	-5.000000000000000e-03
17		1.856000000000000e+01
	5.000000000000000e+00
	5.000000000000000e+00
	5.000000000000000e+00
	5.000000000000000e+00
	5.000000000000000e+00
	5.000000000000000e+00
	5.000000000000000e+00
	5.000000000000000e+00
	5.000000000000000e+00
	5.000000000000000e+00
	5.000000000000000e+00
	5.000000000000000e+00
	0.000000000000000e+00
	0.000000000000000e+00
	5.000000000000000e+00
	0.000000000000000e+00
	0.000000000000000e+00
	0.000000000000000e+00
	0.000000000000000e+00
	0.000000000000000e+00
	-5.000000000000000e-03
	-5.000000000000000e-03
	0.000000000000000e+00
	-5.000000000000000e-03
	-5.000000000000000e-03
	-5.000000000000000e-03
	-5.000000000000000e-03
	-5.000000000000000e-03
	-5.000000000000000e-03
	-5.000000000000000e-03
18		2.056000000000000e+01
	5.000000000000000e+00
	5.000000000000000e+00
	5.000000000000000e+00
	5.000000000000000e+00
	5.000000000000000e+00
	5.000000000000000e+00
	5.000000000000000e+00
	5.000000000000000e+00
	5.000000000000000e+00
	5.000000000000000e+00
	5.000000000000000e+00
	5.000000000000000e+00
	0.000000000000000e+00
	0.000000000000000e+00
	5.000000000000000e+00
	0.000000000000000e+00
	0.000000000000000e+00
	0.000000000000000e+00
	0.000000000000000e+00
	0.000000000000000e+00
	-5.000000000000000e-03
	-5.000000000000000e-03
	0.000000000000000e+00
	-5.000000000000000e-03
	-5.000000000000000e-03
	-5.000000000000000e-03
	-5.000000000000000e-03
	-5.000000000000000e-03
	-5.000000000000000e-03
	-5.000000000000000e-03
19		2.256000000000000e+01
	5.000000000000000e+00
	5.000000000000000e+00
	5.000000000000000e+00
	5.000000000000000e+00
	5.000000000000000e+00
	5.000000000000000e+00
	5.000000000000000e+00
	5.000000000000000e+00
	5.000000000000000e+00
	5.000000000000000e+00
	5.000000000000000e+00
	5.000000000000000e+00
	0.000000000000000e+00
	0.000000000000000e+00
	5.000000000000000e+00
	0.000000000000000e+00
	0.000000000000000e+00
	0.000000000000000e+00
	0.000000000000000e+00
	0.000000000000000e+00
	-5.000000000000000e-03
	-5.000000000000000e-03
	0.000000000000000e+00
	-5.000000000000000e-03
	-5.000000000000000e-03
	-5.000000000000000e-03
	-5.000000000000000e-03
	-5.000000000000000e-03
	-5.000000000000000e-03
	-5.000000000000000e-03
20		2.456000000000000e+01
	5.000000000000000e+00
	5.000000000000000e+00
	5.000000000000000e+00
	5.000000000000000e+00
	5.000000000000000e+00
	5.000000000000000e+00
	5.000000000000000e+00
	5.000000000000000e+00
	5.000000000000000e+00
	5.000000000000000e+00
	5.000000000000000e+00
	5.000000000000000e+00
	0.000000000000000e+00
	0.000000000000000e+00
	5.000000000000000e+00
	0.000000000000000e+00
	0.000000000000000e+00
	0.000000000000000e+00
	0.000000000000000e+00
	0.000000000000000e+00
	-5.000000000000000e-03
	-5.000000000000000e-03
	0.000000000000000e+00
	-5.000000000000000e-03
	-5.000000000000000e-03
	-5.000000000000000e-03
	-5.000000000000000e-03
	-5.000000000000000e-03
	-5.000000000000000e-03
	-5.000000000000000e-03
21		2.656000000000000e+01
	5.000000000000000e+00
	5.000000000000000e+00
	5.000000000000000e+00
	5.000000000000000e+00
	5.000000000000000e+00
	5.000000000000000e+00
	5.000000000000000e+00
	5.000000000000000e+00
	5.000000000000000e+00
	5.000000000000000e+00
	5.000000000000000e+00
	5.000000000000000e+00
	0.000000000000000e+00
	0.000000000000000e+00
	5.000000000000000e+00
	0.000000000000000e+00
	0.000000000000000e+00
	0.000000000000000e+00
	0.000000000000000e+00
	0.000000000000000e+00
	-5.000000000000000e-03
	-5.000000000000000e-03
	0.000000000000000e+00
	-5.000000000000000e-03
	-5.000000000000000e-03
	-5.000000000000000e-03
	-5.000000000000000e-03
	-5.000000000000000e-03
	-5.000000000000000e-03
	-5.000000000000000e-03
22		2.856000000000000e+01
	5.000000000000000e+00
	5.000000000000000e+00
	5.000000000000000e+00
	5.000000000000000e+00
	5.000000000000000e+00
	5.000000000000000e+00
	5.000000000000000e+00
	5.000000000000000e+00
	5.000000000000000e+00
	5.000000000000000e+00
	5.000000000000000e+00
	5.000000000000000e+00
	0.000000000000000e+00
	0.000000000000000e+00
	5.000000000000000e+00
	0.000000000000000e+00
	0.000000000000000e+00
	0.000000000000000e+00
	0.000000000000000e+00
	0.000000000000000e+00
	-5.000000000000000e-03
	-5.000000000000000e-03
	0.000000000000000e+00
	-5.000000000000000e-03
	-5.000000000000000e-03
	-5.000000000000000e-03
	-5.000000000000000e-03
	-5.000000000000000e-03
	-5.000000000000000e-03
	-5.000000000000000e-03
23		3.056000000000000e+01
	5.000000000000000e+00
	5.000000000000000e+00
	5.000000000000000e+00
	5.000000000000000e+00
	5.000000000000000e+00
	5.000000000000000e+00
	5.000000000000000e+00
	5.000000000000000e+00
	5.000000000000000e+00
	5.000000000000000e+00
	5.000000000000000e+00
	5.000000000000000e+00
	0.000000000000000e+00
	0.000000000000000e+00
	5.000000000000000e+00
	0.000000000000000e+00
	0.000000000000000e+00
	0.000000000000000e+00
	0.000000000000000e+00
	0.000000000000000e+00
	-5.000000000000000e-03
	-5.000000000000000e-03
	0.000000000000000e+00
	-5.000000000000000e-03
	-5.000000000000000e-03
	-5.000000000000000e-03
	-5.000000000000000e-03
	-5.000000000000000e-03
	-5.000000000000000e-03
	-5.000000000000000e-03
24		3.256000000000000e+01
	5.000000000000000e+00
	5.000000000000000e+00
	5.000000000000000e+00
	5.000000000000000e+00
	5.000000000000000e+00
	5.000000000000000e+00
	5.000000000000000e+00
	5.000000000000000e+00
	5.000000000000000e+00
	5.000000000000000e+00
	5.000000000000000e+00
	5.000000000000000e+00
	0.000000000000000e+00
	0.000000000000000e+00
	5.000000000000000e+00
	0.000000000000000e+00
	0.000000000000000e+00
	0.000000000000000e+00
	0.000000000000000e+00
	0.000000000000000e+00
	-5.000000000000000e-03
	-5.000000000000000e-03
	0.000000000000000e+00
	-5.000000000000000e-03
	-5.000000000000000e-03
	-5.000000000000000e-03
	-5.000000000000000e-03
	-5.000000000000000e-03
	-5.000000000000000e-03
	-5.000000000000000e-03
25		3.456000000000000e+01
	5.000000000000000e+00
	5.000000000000000e+00
	5.000000000000000e+00
	5.000000000000000e+00
	5.000000000000000e+00
	5.000000000000000e+00
	5.000000000000000e+00
	5.000000000000000e+00
	5.000000000000000e+00
	5.000000000000000e+00
	5.000000000000000e+00
	5.000000000000000e+00
	0.000000000000000e+00
	0.000000000000000e+00
	5.000000000000000e+00
	0.000000000000000e+00
	0.000000000000000e+00
	0.000000000000000e+00
	0.000000000000000e+00
	0.000000000000000e+00
	-5.000000000000000e-03
	-5.000000000000000e-03
	0.000000000000000e+00
	-5.000000000000000e-03
	-5.000000000000000e-03
	-5.000000000000000e-03
	-5.000000000000000e-03
	-5.000000000000000e-03
	-5.000000000000000e-03
	-5.000000000000000e-03
26		3.656000000000000e+01
	5.000000000000000e+00
	5.000000000000000e+00
	5.000000000000000e+00
	5.000000000000000e+00
	5.000000000000000e+00
	5.000000000000000e+00
	5.000000000000000e+00
	5.000000000000000e+00
	5.000000000000000e+00
	5.000000000000000e+00
	5.000000000000000e+00
	5.000000000000000e+00
	0.000000000000000e+00
	0.000000000000000e+00
	5.000000000000000e+00
	0.000000000000000e+00
	0.000000000000000e+00
