Title: kicad schematic
Date: Tue Dec 30 22:00:48  2025
Plotname: Transient Analysis
Flags: real
No. Variables: 20
No. Points: 1947    
Variables:
	0	time	time
	1	v(net-_u3-pad1_)	voltage
	2	v(net-_u3-pad3_)	voltage
	3	v(net-_u1-pad1_)	voltage
	4	v(clk)	voltage
	5	v(net-_u5-pad2_)	voltage
	6	v(net-_u5-pad4_)	voltage
	7	v(net-_u5-pad7_)	voltage
	8	v(net-_u5-pad6_)	voltage
	9	v(out)	voltage
	10	v(gnd)	voltage
	11	i(v7)	current
	12	i(v8)	current
	13	i(v6)	current
	14	i(v5)	current
	15	i(v4)	current
	16	i(v1)	current
	17	i(v3)	current
	18	i(v2)	current
	19	i(a2)	current
Values:
0		0.000000000000000e+00
	5.000000000000000e+00
	5.000000000000000e+00
	5.000000000000000e+00
	0.000000000000000e+00
	5.000000000000000e+00
	5.000000000000000e+00
	5.000000000000000e+00
	5.000000000000000e+00
	0.000000000000000e+00
	0.000000000000000e+00
	0.000000000000000e+00
	0.000000000000000e+00
	0.000000000000000e+00
	0.000000000000000e+00
	0.000000000000000e+00
	0.000000000000000e+00
	0.000000000000000e+00
	0.000000000000000e+00
	0.000000000000000e+00
1		1.000000000000001e-14
	5.000000000000000e+00
	5.000000000000000e+00
	4.999999999950000e+00
	5.000000000000000e-02
	5.000000000000000e+00
	5.000000000000000e+00
	5.000000000000000e+00
	5.000000000000000e+00
	0.000000000000000e+00
	0.000000000000000e+00
	0.000000000000000e+00
	0.000000000000000e+00
	0.000000000000000e+00
	0.000000000000000e+00
	0.000000000000000e+00
	0.000000000000000e+00
	0.000000000000000e+00
	0.000000000000000e+00
	0.000000000000000e+00
2		2.000000000000003e-14
	5.000000000000000e+00
	5.000000000000000e+00
	4.999999999900000e+00
	1.000000000000000e-01
	5.000000000000000e+00
	5.000000000000000e+00
	5.000000000000000e+00
	5.000000000000000e+00
	0.000000000000000e+00
	0.000000000000000e+00
	0.000000000000000e+00
	0.000000000000000e+00
	0.000000000000000e+00
	0.000000000000000e+00
	0.000000000000000e+00
	0.000000000000000e+00
	0.000000000000000e+00
	0.000000000000000e+00
	0.000000000000000e+00
3		4.000000000000006e-14
	5.000000000000000e+00
	5.000000000000000e+00
	4.999999999800000e+00
	2.000000000000000e-01
	5.000000000000000e+00
	5.000000000000000e+00
	5.000000000000000e+00
	5.000000000000000e+00
	0.000000000000000e+00
	0.000000000000000e+00
	0.000000000000000e+00
	0.000000000000000e+00
	0.000000000000000e+00
	0.000000000000000e+00
	0.000000000000000e+00
	0.000000000000000e+00
	0.000000000000000e+00
	0.000000000000000e+00
	0.000000000000000e+00
4		8.000000000000011e-14
	5.000000000000000e+00
	5.000000000000000e+00
	4.999999999600000e+00
	4.000000000000000e-01
	5.000000000000000e+00
	5.000000000000000e+00
	5.000000000000000e+00
	5.000000000000000e+00
	0.000000000000000e+00
	0.000000000000000e+00
	0.000000000000000e+00
	0.000000000000000e+00
	0.000000000000000e+00
	0.000000000000000e+00
	0.000000000000000e+00
	0.000000000000000e+00
	0.000000000000000e+00
	0.000000000000000e+00
	0.000000000000000e+00
5		1.600000000000002e-13
	5.000000000000000e+00
	5.000000000000000e+00
	4.999999999200000e+00
	8.000000000000000e-01
	5.000000000000000e+00
	5.000000000000000e+00
	5.000000000000000e+00
	5.000000000000000e+00
	0.000000000000000e+00
	0.000000000000000e+00
	0.000000000000000e+00
	0.000000000000000e+00
	0.000000000000000e+00
	0.000000000000000e+00
	0.000000000000000e+00
	0.000000000000000e+00
	0.000000000000000e+00
	0.000000000000000e+00
	0.000000000000000e+00
6		3.200000000000005e-13
	5.000000000000000e+00
	5.000000000000000e+00
	4.999999998400000e+00
	1.600000000000000e+00
	5.000000000000000e+00
	5.000000000000000e+00
	5.000000000000000e+00
	5.000000000000000e+00
	0.000000000000000e+00
	0.000000000000000e+00
	0.000000000000000e+00
	0.000000000000000e+00
	0.000000000000000e+00
	0.000000000000000e+00
	0.000000000000000e+00
	0.000000000000000e+00
	0.000000000000000e+00
	0.000000000000000e+00
	0.000000000000000e+00
7		6.400000000000009e-13
	5.000000000000000e+00
	5.000000000000000e+00
	4.999999996800000e+00
	3.200000000000000e+00
	5.000000000000000e+00
	5.000000000000000e+00
	5.000000000000000e+00
	5.000000000000000e+00
	0.000000000000000e+00
	0.000000000000000e+00
	0.000000000000000e+00
	0.000000000000000e+00
	0.000000000000000e+00
	0.000000000000000e+00
	0.000000000000000e+00
	0.000000000000000e+00
	0.000000000000000e+00
	0.000000000000000e+00
	0.000000000000000e+00
8		1.000000000000001e-12
	5.000000000000000e+00
	5.000000000000000e+00
	4.999999995000000e+00
	5.000000000000000e+00
	5.000000000000000e+00
	5.000000000000000e+00
	5.000000000000000e+00
	5.000000000000000e+00
	0.000000000000000e+00
	0.000000000000000e+00
	0.000000000000000e+00
	0.000000000000000e+00
	0.000000000000000e+00
	0.000000000000000e+00
	0.000000000000000e+00
	0.000000000000000e+00
	0.000000000000000e+00
	0.000000000000000e+00
	0.000000000000000e+00
9		1.064000000000002e-12
	5.000000000000000e+00
	5.000000000000000e+00
	4.999999994680000e+00
	5.000000000000000e+00
	5.000000000000000e+00
	5.000000000000000e+00
	5.000000000000000e+00
	5.000000000000000e+00
	0.000000000000000e+00
	0.000000000000000e+00
	0.000000000000000e+00
	0.000000000000000e+00
	0.000000000000000e+00
	0.000000000000000e+00
	0.000000000000000e+00
	0.000000000000000e+00
	0.000000000000000e+00
	0.000000000000000e+00
	0.000000000000000e+00
10		1.192000000000002e-12
	5.000000000000000e+00
	5.000000000000000e+00
	4.999999994040000e+00
	5.000000000000000e+00
	5.000000000000000e+00
	5.000000000000000e+00
	5.000000000000000e+00
	5.000000000000000e+00
	0.000000000000000e+00
	0.000000000000000e+00
	0.000000000000000e+00
	0.000000000000000e+00
	0.000000000000000e+00
	0.000000000000000e+00
	0.000000000000000e+00
	0.000000000000000e+00
	0.000000000000000e+00
	0.000000000000000e+00
	0.000000000000000e+00
11		1.448000000000002e-12
	5.000000000000000e+00
	5.000000000000000e+00
	4.999999992760000e+00
	5.000000000000000e+00
	5.000000000000000e+00
	5.000000000000000e+00
	5.000000000000000e+00
	5.000000000000000e+00
	0.000000000000000e+00
	0.000000000000000e+00
	0.000000000000000e+00
	0.000000000000000e+00
	0.000000000000000e+00
	0.000000000000000e+00
	0.000000000000000e+00
	0.000000000000000e+00
	0.000000000000000e+00
	0.000000000000000e+00
	0.000000000000000e+00
12		1.960000000000003e-12
	5.000000000000000e+00
	5.000000000000000e+00
	4.999999990200000e+00
	5.000000000000000e+00
	5.000000000000000e+00
	5.000000000000000e+00
	5.000000000000000e+00
	5.000000000000000e+00
	0.000000000000000e+00
	0.000000000000000e+00
	0.000000000000000e+00
	0.000000000000000e+00
	0.000000000000000e+00
	0.000000000000000e+00
	0.000000000000000e+00
	0.000000000000000e+00
	0.000000000000000e+00
	0.000000000000000e+00
	0.000000000000000e+00
13		2.984000000000004e-12
	5.000000000000000e+00
	5.000000000000000e+00
	4.999999985080000e+00
	5.000000000000000e+00
	5.000000000000000e+00
	5.000000000000000e+00
	5.000000000000000e+00
	5.000000000000000e+00
	0.000000000000000e+00
	0.000000000000000e+00
	0.000000000000000e+00
	0.000000000000000e+00
	0.000000000000000e+00
	0.000000000000000e+00
	0.000000000000000e+00
	0.000000000000000e+00
	0.000000000000000e+00
	0.000000000000000e+00
	0.000000000000000e+00
14		5.032000000000007e-12
	5.000000000000000e+00
	5.000000000000000e+00
	4.999999974840000e+00
	5.000000000000000e+00
	5.000000000000000e+00
	5.000000000000000e+00
	5.000000000000000e+00
	5.000000000000000e+00
	0.000000000000000e+00
	0.000000000000000e+00
	0.000000000000000e+00
	0.000000000000000e+00
	0.000000000000000e+00
	0.000000000000000e+00
	0.000000000000000e+00
	0.000000000000000e+00
	0.000000000000000e+00
	0.000000000000000e+00
	0.000000000000000e+00
15		9.128000000000014e-12
	5.000000000000000e+00
	5.000000000000000e+00
	4.999999954360000e+00
	5.000000000000000e+00
	5.000000000000000e+00
	5.000000000000000e+00
	5.000000000000000e+00
	5.000000000000000e+00
	0.000000000000000e+00
	0.000000000000000e+00
	0.000000000000000e+00
	0.000000000000000e+00
	0.000000000000000e+00
	0.000000000000000e+00
	0.000000000000000e+00
	0.000000000000000e+00
	0.000000000000000e+00
	0.000000000000000e+00
	0.000000000000000e+00
16		1.732000000000002e-11
	5.000000000000000e+00
	5.000000000000000e+00
	4.999999913400000e+00
	5.000000000000000e+00
	5.000000000000000e+00
	5.000000000000000e+00
	5.000000000000000e+00
	5.000000000000000e+00
	0.000000000000000e+00
	0.000000000000000e+00
	0.000000000000000e+00
	0.000000000000000e+00
	0.000000000000000e+00
	0.000000000000000e+00
	0.000000000000000e+00
	0.000000000000000e+00
	0.000000000000000e+00
	0.000000000000000e+00
	0.000000000000000e+00
17		3.370400000000004e-11
	5.000000000000000e+00
	5.000000000000000e+00
	4.999999831480000e+00
	5.000000000000000e+00
	5.000000000000000e+00
	5.000000000000000e+00
	5.000000000000000e+00
	5.000000000000000e+00
	0.000000000000000e+00
	0.000000000000000e+00
	0.000000000000000e+00
	0.000000000000000e+00
	0.000000000000000e+00
	0.000000000000000e+00
	0.000000000000000e+00
	0.000000000000000e+00
	0.000000000000000e+00
	0.000000000000000e+00
	0.000000000000000e+00
18		6.647200000000010e-11
	5.000000000000000e+00
	5.000000000000000e+00
	4.999999667640000e+00
	5.000000000000000e+00
	5.000000000000000e+00
	5.000000000000000e+00
	5.000000000000000e+00
	5.000000000000000e+00
	0.000000000000000e+00
	0.000000000000000e+00
	0.000000000000000e+00
	0.000000000000000e+00
	0.000000000000000e+00
	0.000000000000000e+00
	0.000000000000000e+00
	0.000000000000000e+00
	0.000000000000000e+00
	0.000000000000000e+00
	0.000000000000000e+00
19		1.320080000000002e-10
	5.000000000000000e+00
	5.000000000000000e+00
	4.999999339960000e+00
	5.000000000000000e+00
	5.000000000000000e+00
	5.000000000000000e+00
	5.000000000000000e+00
	5.000000000000000e+00
	0.000000000000000e+00
	0.000000000000000e+00
	0.000000000000000e+00
	0.000000000000000e+00
	0.000000000000000e+00
	0.000000000000000e+00
	0.000000000000000e+00
	0.000000000000000e+00
	0.000000000000000e+00
	0.000000000000000e+00
	0.000000000000000e+00
20		2.630800000000004e-10
	5.000000000000000e+00
	5.000000000000000e+00
	4.999998684600000e+00
	5.000000000000000e+00
	5.000000000000000e+00
	5.000000000000000e+00
	5.000000000000000e+00
	5.000000000000000e+00
	0.000000000000000e+00
	0.000000000000000e+00
	0.000000000000000e+00
	0.000000000000000e+00
	0.000000000000000e+00
	0.000000000000000e+00
	0.000000000000000e+00
	0.000000000000000e+00
	0.000000000000000e+00
	0.000000000000000e+00
	0.000000000000000e+00
21		5.252240000000008e-10
	5.000000000000000e+00
	5.000000000000000e+00
	4.999997373880000e+00
	5.000000000000000e+00
	5.000000000000000e+00
	5.000000000000000e+00
	5.000000000000000e+00
	5.000000000000000e+00
	0.000000000000000e+00
	0.000000000000000e+00
	0.000000000000000e+00
	0.000000000000000e+00
	0.000000000000000e+00
	0.000000000000000e+00
	0.000000000000000e+00
	0.000000000000000e+00
	0.000000000000000e+00
	0.000000000000000e+00
	0.000000000000000e+00
22		1.049512000000001e-09
	5.000000000000000e+00
	5.000000000000000e+00
	4.999994752440000e+00
	5.000000000000000e+00
	5.000000000000000e+00
	5.000000000000000e+00
	5.000000000000000e+00
	5.000000000000000e+00
	0.000000000000000e+00
	0.000000000000000e+00
	0.000000000000000e+00
	0.000000000000000e+00
	0.000000000000000e+00
	0.000000000000000e+00
	0.000000000000000e+00
	0.000000000000000e+00
	0.000000000000000e+00
	0.000000000000000e+00
	0.000000000000000e+00
23		2.098088000000003e-09
	5.000000000000000e+00
	5.000000000000000e+00
	4.999989509560000e+00
	5.000000000000000e+00
	5.000000000000000e+00
	5.000000000000000e+00
	5.000000000000000e+00
	5.000000000000000e+00
	0.000000000000000e+00
	0.000000000000000e+00
	0.000000000000000e+00
	0.000000000000000e+00
	0.000000000000000e+00
	0.000000000000000e+00
	0.000000000000000e+00
	0.000000000000000e+00
	0.000000000000000e+00
	0.000000000000000e+00
	0.000000000000000e+00
24		4.195240000000006e-09
	5.000000000000000e+00
	5.000000000000000e+00
	4.999979023800000e+00
	5.000000000000000e+00
	5.000000000000000e+00
	5.000000000000000e+00
	5.000000000000000e+00
	5.000000000000000e+00
	0.000000000000000e+00
	0.000000000000000e+00
	0.000000000000000e+00
	0.000000000000000e+00
	0.000000000000000e+00
	0.000000000000000e+00
	0.000000000000000e+00
	0.000000000000000e+00
	0.000000000000000e+00
	0.000000000000000e+00
	0.000000000000000e+00
25		8.389544000000011e-09
	5.000000000000000e+00
	5.000000000000000e+00
	4.999958052280000e+00
	5.000000000000000e+00
	5.000000000000000e+00
	5.000000000000000e+00
	5.000000000000000e+00
	5.000000000000000e+00
	0.000000000000000e+00
	0.000000000000000e+00
	0.000000000000000e+00
	0.000000000000000e+00
	0.000000000000000e+00
	0.000000000000000e+00
	0.000000000000000e+00
	0.000000000000000e+00
	0.000000000000000e+00
	0.000000000000000e+00
	0.000000000000000e+00
26		1.677815200000002e-08
	5.000000000000000e+00
	5.000000000000000e+00
	4.999916109240000e+00
	5.000000000000000e+00
	5.000000000000000e+00
	5.000000000000000e+00
	5.000000000000000e+00
	5.000000000000000e+00
	0.000000000000000e+00
	0.000000000000000e+00
	0.000000000000000e+00
	0.000000000000000e+00
	0.000000000000000e+00
	0.000000000000000e+00
	0.000000000000000e+00
	0.000000000000000e+00
	0.000000000000000e+00
	0.000000000000000e+00
	0.000000000000000e+00
27		3.355536800000005e-08
	5.000000000000000e+00
	5.000000000000000e+00
	4.999832223160000e+00
	5.000000000000000e+00
	5.000000000000000e+00
	5.000000000000000e+00
	5.000000000000000e+00
	5.000000000000000e+00
	0.000000000000000e+00
	0.000000000000000e+00
	0.000000000000000e+00
	0.000000000000000e+00
	0.000000000000000e+00
	0.000000000000000e+00
	0.000000000000000e+00
	0.000000000000000e+00
	0.000000000000000e+00
	0.000000000000000e+00
	0.000000000000000e+00
28		6.710980000000009e-08
	5.000000000000000e+00
	5.000000000000000e+00
	4.999664451000000e+00
	5.000000000000000e+00
	5.000000000000000e+00
	5.000000000000000e+00
	5.000000000000000e+00
	5.000000000000000e+00
	0.000000000000000e+00
	0.000000000000000e+00
	0.000000000000000e+00
	0.000000000000000e+00
	0.000000000000000e+00
	0.000000000000000e+00
	0.000000000000000e+00
	0.000000000000000e+00
	0.000000000000000e+00
	0.000000000000000e+00
	0.000000000000000e+00
29		1.342186640000002e-07
	5.000000000000000e+00
	5.000000000000000e+00
	4.999328906680000e+00
	5.000000000000000e+00
	5.000000000000000e+00
	5.000000000000000e+00
	5.000000000000000e+00
	5.000000000000000e+00
	0.000000000000000e+00
	0.000000000000000e+00
	0.000000000000000e+00
	0.000000000000000e+00
	0.000000000000000e+00
	0.000000000000000e+00
	0.000000000000000e+00
	0.000000000000000e+00
	0.000000000000000e+00
	0.000000000000000e+00
	0.000000000000000e+00
30		2.684363920000003e-07
	5.000000000000000e+00
	5.000000000000000e+00
	4.998657818040000e+00
	5.000000000000000e+00
	5.000000000000000e+00
	5.000000000000000e+00
	5.000000000000000e+00
	5.000000000000000e+00
	0.000000000000000e+00
	0.000000000000000e+00
	0.000000000000000e+00
	0.000000000000000e+00
	0.000000000000000e+00
	0.000000000000000e+00
	0.000000000000000e+00
	0.000000000000000e+00
	0.000000000000000e+00
	0.000000000000000e+00
	0.000000000000000e+00
31		5.368718480000007e-07
	5.000000000000000e+00
	5.000000000000000e+00
	4.997315640760000e+00
	5.000000000000000e+00
	5.000000000000000e+00
	5.000000000000000e+00
	5.000000000000000e+00
	5.000000000000000e+00
	0.000000000000000e+00
	0.000000000000000e+00
	0.000000000000000e+00
	0.000000000000000e+00
	0.000000000000000e+00
	0.000000000000000e+00
	0.000000000000000e+00
	0.000000000000000e+00
	0.000000000000000e+00
	0.000000000000000e+00
	0.000000000000000e+00
32		1.073742760000001e-06
	5.000000000000000e+00
	5.000000000000000e+00
	4.994631286200000e+00
	5.000000000000000e+00
	5.000000000000000e+00
	5.000000000000000e+00
	5.000000000000000e+00
	5.000000000000000e+00
	0.000000000000000e+00
	0.000000000000000e+00
	0.000000000000000e+00
	0.000000000000000e+00
	0.000000000000000e+00
	0.000000000000000e+00
	0.000000000000000e+00
	0.000000000000000e+00
	0.000000000000000e+00
	0.000000000000000e+00
	0.000000000000000e+00
33		2.147484584000003e-06
	5.000000000000000e+00
	5.000000000000000e+00
	4.989262577080000e+00
	5.000000000000000e+00
	5.000000000000000e+00
	5.000000000000000e+00
	5.000000000000000e+00
	5.000000000000000e+00
	0.000000000000000e+00
	0.000000000000000e+00
	0.000000000000000e+00
	0.000000000000000e+00
	0.000000000000000e+00
	0.000000000000000e+00
	0.000000000000000e+00
	0.000000000000000e+00
	0.000000000000000e+00
	0.000000000000000e+00
	0.000000000000000e+00
34		4.294968232000006e-06
	5.000000000000000e+00
	5.000000000000000e+00
	4.978525158840000e+00
	5.000000000000000e+00
	5.000000000000000e+00
	5.000000000000000e+00
	5.000000000000000e+00
	5.000000000000000e+00
	0.000000000000000e+00
	0.000000000000000e+00
	0.000000000000000e+00
	0.000000000000000e+00
	0.000000000000000e+00
	0.000000000000000e+00
	0.000000000000000e+00
	0.000000000000000e+00
	0.000000000000000e+00
	0.000000000000000e+00
	0.000000000000000e+00
35		8.589935528000013e-06
	5.000000000000000e+00
	5.000000000000000e+00
	4.957050322360000e+00
	5.000000000000000e+00
	5.000000000000000e+00
	5.000000000000000e+00
	5.000000000000000e+00
	5.000000000000000e+00
	0.000000000000000e+00
	0.000000000000000e+00
	0.000000000000000e+00
	0.000000000000000e+00
	0.000000000000000e+00
	0.000000000000000e+00
	0.000000000000000e+00
	0.000000000000000e+00
	0.000000000000000e+00
	0.000000000000000e+00
	0.000000000000000e+00
36		1.717987012000002e-05
	5.000000000000000e+00
	5.000000000000000e+00
	4.914100649400000e+00
	5.000000000000000e+00
	5.000000000000000e+00
	5.000000000000000e+00
	5.000000000000000e+00
	5.000000000000000e+00
	0.000000000000000e+00
	0.000000000000000e+00
	0.000000000000000e+00
	0.000000000000000e+00
	0.000000000000000e+00
	0.000000000000000e+00
	0.000000000000000e+00
	0.000000000000000e+00
	0.000000000000000e+00
	0.000000000000000e+00
	0.000000000000000e+00
37		3.435973930400005e-05
	5.000000000000000e+00
	5.000000000000000e+00
	4.828201303480000e+00
	5.000000000000000e+00
	5.000000000000000e+00
	5.000000000000000e+00
	5.000000000000000e+00
	5.000000000000000e+00
	0.000000000000000e+00
	0.000000000000000e+00
	0.000000000000000e+00
	0.000000000000000e+00
	0.000000000000000e+00
	0.000000000000000e+00
	0.000000000000000e+00
	0.000000000000000e+00
	0.000000000000000e+00
	0.000000000000000e+00
	0.000000000000000e+00
38		6.871947767200009e-05
	5.000000000000000e+00
	5.000000000000000e+00
	4.656402611640000e+00
	5.000000000000000e+00
	5.000000000000000e+00
	5.000000000000000e+00
	5.000000000000000e+00
	5.000000000000000e+00
	0.000000000000000e+00
	0.000000000000000e+00
	0.000000000000000e+00
	0.000000000000000e+00
	0.000000000000000e+00
	0.000000000000000e+00
	0.000000000000000e+00
	0.000000000000000e+00
	0.000000000000000e+00
	0.000000000000000e+00
	0.000000000000000e+00
39		1.374389544080002e-04
	5.000000000000000e+00
	5.000000000000000e+00
	4.312805227959999e+00
	5.000000000000000e+00
	5.000000000000000e+00
	5.000000000000000e+00
	5.000000000000000e+00
	5.000000000000000e+00
	0.000000000000000e+00
	0.000000000000000e+00
	0.000000000000000e+00
	0.000000000000000e+00
	0.000000000000000e+00
	0.000000000000000e+00
	0.000000000000000e+00
	0.000000000000000e+00
	0.000000000000000e+00
	0.000000000000000e+00
	0.000000000000000e+00
40		2.748779078800004e-04
	5.000000000000000e+00
	5.000000000000000e+00
