           * /home/fossee/esim-workspace/transformer/transformer.cir
           Transient Analysis  Thu Mar  3 23:14:49  2016
--------------------------------------------------------------------------------
Index   time            in              internode_1     internode_2     
--------------------------------------------------------------------------------
0	0.000000e+00	0.000000e+00	0.000000e+00	0.000000e+00	
1	1.000000e-05	6.282845e-03	7.791239e-03	7.790728e-03	
2	2.000000e-05	1.256530e-02	1.558250e-02	1.558097e-02	
3	4.000000e-05	2.512846e-02	3.116490e-02	3.115928e-02	
4	8.000000e-05	5.024603e-02	6.232703e-02	6.230507e-02	
5	1.600000e-04	1.004323e-01	1.246234e-01	1.245361e-01	
6	3.200000e-04	2.004989e-01	2.489667e-01	2.486186e-01	
7	6.400000e-04	3.985266e-01	4.955577e-01	4.941730e-01	
8	1.280000e-03	7.792384e-01	9.716944e-01	9.662557e-01	
9	2.560000e-03	1.427526e+00	1.790425e+00	1.770132e+00	
10	4.560000e-03	1.947404e+00	2.466735e+00	2.414782e+00	
11	6.560000e-03	1.713095e+00	2.204043e+00	2.124238e+00	
12	8.560000e-03	8.142041e-01	1.102656e+00	1.009613e+00	
13	1.056000e-02	-4.05817e-01	-4.16768e-01	-5.03213e-01	
14	1.256000e-02	-1.48086e+00	-1.77389e+00	-1.83626e+00	
15	1.456000e-02	-2.00018e+00	-2.45037e+00	-2.48022e+00	
16	1.656000e-02	-1.76532e+00	-2.18785e+00	-2.18900e+00	
17	1.856000e-02	-8.65890e-01	-1.08663e+00	-1.07370e+00	
18	2.056000e-02	3.546671e-01	4.326247e-01	4.397872e-01	
19	2.256000e-02	1.430237e+00	1.789584e+00	1.773494e+00	
20	2.456000e-02	1.950087e+00	2.465903e+00	2.418108e+00	
21	2.656000e-02	1.715750e+00	2.203220e+00	2.127530e+00	
22	2.856000e-02	8.168316e-01	1.101841e+00	1.012871e+00	
23	3.056000e-02	-4.03217e-01	-4.17574e-01	-4.99989e-01	
24	3.256000e-02	-1.47828e+00	-1.77469e+00	-1.83307e+00	
25	3.456000e-02	-1.99763e+00	-2.45116e+00	-2.47707e+00	
26	3.656000e-02	-1.76280e+00	-2.18863e+00	-2.18588e+00	
27	3.856000e-02	-8.63397e-01	-1.08741e+00	-1.07061e+00	
28	4.056000e-02	3.571351e-01	4.318596e-01	4.428475e-01	
29	4.256000e-02	1.432680e+00	1.788827e+00	1.776523e+00	
30	4.456000e-02	1.952504e+00	2.465154e+00	2.421105e+00	
31	4.656000e-02	1.718142e+00	2.202479e+00	2.130496e+00	
32	4.856000e-02	8.191987e-01	1.101107e+00	1.015806e+00	
33	5.056000e-02	-4.00874e-01	-4.18300e-01	-4.97084e-01	
34	5.256000e-02	-1.47596e+00	-1.77541e+00	-1.83020e+00	
35	5.456000e-02	-1.99534e+00	-2.45187e+00	-2.47422e+00	
36	5.656000e-02	-1.76053e+00	-2.18934e+00	-2.18306e+00	
37	5.856000e-02	-8.61150e-01	-1.08810e+00	-1.06783e+00	
38	6.056000e-02	3.593586e-01	4.311703e-01	4.456046e-01	
39	6.256000e-02	1.434880e+00	1.788145e+00	1.779251e+00	
40	6.456000e-02	1.954682e+00	2.464479e+00	2.423806e+00	
41	6.656000e-02	1.720297e+00	2.201811e+00	2.133169e+00	
42	6.856000e-02	8.213313e-01	1.100446e+00	1.018451e+00	
43	7.056000e-02	-3.98764e-01	-4.18955e-01	-4.94467e-01	
44	7.256000e-02	-1.47388e+00	-1.77606e+00	-1.82761e+00	
45	7.456000e-02	-1.99327e+00	-2.45252e+00	-2.47166e+00	
46	7.656000e-02	-1.75849e+00	-2.18997e+00	-2.18053e+00	
47	7.856000e-02	-8.59126e-01	-1.08873e+00	-1.06532e+00	
48	8.056000e-02	3.613617e-01	4.305494e-01	4.480885e-01	
49	8.256000e-02	1.436862e+00	1.787531e+00	1.781709e+00	
50	8.456000e-02	1.956644e+00	2.463871e+00	2.426238e+00	
51	8.656000e-02	1.722239e+00	2.201209e+00	2.135576e+00	
52	8.856000e-02	8.232525e-01	1.099851e+00	1.020833e+00	
53	9.056000e-02	-3.96862e-01	-4.19544e-01	-4.92109e-01	
54	9.256000e-02	-1.47199e+00	-1.77664e+00	-1.82527e+00	

Index   time            in              internode_1     internode_2     
--------------------------------------------------------------------------------
55	9.456000e-02	-1.99141e+00	-2.45309e+00	-2.46935e+00	
56	9.656000e-02	-1.75665e+00	-2.19054e+00	-2.17824e+00	
57	9.856000e-02	-8.57302e-01	-1.08930e+00	-1.06305e+00	
58	1.000000e-01	1.680263e-02	-5.20882e-03	2.083526e-02	

           * /home/fossee/esim-workspace/transformer/transformer.cir
           Transient Analysis  Thu Mar  3 23:14:49  2016
--------------------------------------------------------------------------------
Index   time            net-_r2-pad2_   out             
--------------------------------------------------------------------------------
0	0.000000e+00	0.000000e+00	0.000000e+00	
1	1.000000e-05	3.141587e-02	-1.25657e-02	
2	2.000000e-05	6.283144e-02	-2.51306e-02	
3	4.000000e-05	1.256604e-01	-5.02569e-02	
4	8.000000e-05	2.513010e-01	-1.00492e-01	
5	1.600000e-04	5.024432e-01	-2.00865e-01	
6	3.200000e-04	1.003617e+00	-4.00998e-01	
7	6.400000e-04	1.997100e+00	-7.97053e-01	
8	1.280000e-03	3.913737e+00	-1.55848e+00	
9	2.560000e-03	7.203090e+00	-2.85505e+00	
10	4.560000e-03	9.904614e+00	-3.89481e+00	
11	6.560000e-03	8.822912e+00	-3.42619e+00	
12	8.560000e-03	4.371158e+00	-1.62841e+00	
13	1.056000e-02	-1.75023e+00	8.116337e-01	
14	1.256000e-02	-7.20309e+00	2.961712e+00	
15	1.456000e-02	-9.90461e+00	4.000361e+00	
16	1.656000e-02	-8.82291e+00	3.530647e+00	
17	1.856000e-02	-4.37116e+00	1.731781e+00	
18	2.056000e-02	1.750231e+00	-7.09334e-01	
19	2.256000e-02	7.203090e+00	-2.86047e+00	
20	2.456000e-02	9.904614e+00	-3.90017e+00	
21	2.656000e-02	8.822912e+00	-3.43150e+00	
22	2.856000e-02	4.371158e+00	-1.63366e+00	
23	3.056000e-02	-1.75023e+00	8.064334e-01	
24	3.256000e-02	-7.20309e+00	2.956566e+00	
25	3.456000e-02	-9.90461e+00	3.995269e+00	
26	3.656000e-02	-8.82291e+00	3.525607e+00	
27	3.856000e-02	-4.37116e+00	1.726793e+00	
28	4.056000e-02	1.750231e+00	-7.14270e-01	
29	4.256000e-02	7.203090e+00	-2.86536e+00	
30	4.456000e-02	9.904614e+00	-3.90501e+00	
31	4.656000e-02	8.822912e+00	-3.43628e+00	
32	4.856000e-02	4.371158e+00	-1.63840e+00	
33	5.056000e-02	-1.75023e+00	8.017483e-01	
34	5.256000e-02	-7.20309e+00	2.951929e+00	
35	5.456000e-02	-9.90461e+00	3.990680e+00	
36	5.656000e-02	-8.82291e+00	3.521067e+00	
37	5.856000e-02	-4.37116e+00	1.722300e+00	
38	6.056000e-02	1.750231e+00	-7.18717e-01	
39	6.256000e-02	7.203090e+00	-2.86976e+00	
40	6.456000e-02	9.904614e+00	-3.90936e+00	
41	6.656000e-02	8.822912e+00	-3.44059e+00	
42	6.856000e-02	4.371158e+00	-1.64266e+00	
43	7.056000e-02	-1.75023e+00	7.975274e-01	
44	7.256000e-02	-7.20309e+00	2.947752e+00	
45	7.456000e-02	-9.90461e+00	3.986547e+00	
46	7.656000e-02	-8.82291e+00	3.516976e+00	
47	7.856000e-02	-4.37116e+00	1.718251e+00	
48	8.056000e-02	1.750231e+00	-7.22723e-01	
49	8.256000e-02	7.203090e+00	-2.87372e+00	
50	8.456000e-02	9.904614e+00	-3.91329e+00	
51	8.656000e-02	8.822912e+00	-3.44448e+00	
52	8.856000e-02	4.371158e+00	-1.64651e+00	
53	9.056000e-02	-1.75023e+00	7.937248e-01	
54	9.256000e-02	-7.20309e+00	2.943989e+00	

Index   time            net-_r2-pad2_   out             
--------------------------------------------------------------------------------
55	9.456000e-02	-9.90461e+00	3.982822e+00	
56	9.656000e-02	-8.82291e+00	3.513290e+00	
57	9.856000e-02	-4.37116e+00	1.714604e+00	
58	1.000000e-01	-1.22465e-14	-3.36053e-02	
