   * /home/mallikarjuna/esim-workspace/741_7_integrator/741_7_integrator.cir
   Transient Analysis  Wed Jun 26 10:42:22  2019
--------------------------------------------------------------------------------
Index   time            in              net-_c1-pad2_   net-_r3-pad1_   
--------------------------------------------------------------------------------
0	0.000000e+00	0.000000e+00	-1.22855e-03	-1.49957e+01	
1	1.000000e-06	6.283185e-04	-1.22821e-03	-1.49957e+01	
2	2.000000e-06	1.256637e-03	-1.22812e-03	-1.49957e+01	
3	4.000000e-06	2.513273e-03	-1.22803e-03	-1.49957e+01	
4	8.000000e-06	5.026543e-03	-1.22790e-03	-1.49957e+01	
5	1.600000e-05	1.005305e-02	-1.22762e-03	-1.49957e+01	
6	3.200000e-05	2.010585e-02	-1.22707e-03	-1.49957e+01	
7	6.400000e-05	4.020968e-02	-1.22594e-03	-1.49957e+01	
8	1.280000e-04	8.040310e-02	-1.22366e-03	-1.49957e+01	
9	2.280000e-04	1.431342e-01	-1.21995e-03	-1.49957e+01	
10	3.280000e-04	2.057240e-01	-1.21612e-03	-1.49957e+01	
11	4.280000e-04	2.681107e-01	-1.21214e-03	-1.49957e+01	
12	5.280000e-04	3.302329e-01	-1.20804e-03	-1.49957e+01	
13	6.280000e-04	3.920292e-01	-1.20380e-03	-1.49957e+01	
14	7.280000e-04	4.534386e-01	-1.19945e-03	-1.49957e+01	
15	8.280000e-04	5.144005e-01	-1.19496e-03	-1.49957e+01	
16	9.280000e-04	5.748548e-01	-1.19038e-03	-1.49957e+01	
17	1.028000e-03	6.347417e-01	-1.18567e-03	-1.49957e+01	
18	1.128000e-03	6.940023e-01	-1.18087e-03	-1.49957e+01	
19	1.228000e-03	7.525779e-01	-1.17594e-03	-1.49957e+01	
20	1.328000e-03	8.104108e-01	-1.17094e-03	-1.49957e+01	
21	1.428000e-03	8.674440e-01	-1.16583e-03	-1.49957e+01	
22	1.528000e-03	9.236211e-01	-1.16065e-03	-1.49957e+01	
23	1.628000e-03	9.788867e-01	-1.15537e-03	-1.49957e+01	
24	1.728000e-03	1.033186e+00	-1.15003e-03	-1.49957e+01	
25	1.828000e-03	1.086466e+00	-1.14460e-03	-1.49957e+01	
26	1.928000e-03	1.138674e+00	-1.13912e-03	-1.49957e+01	
27	2.028000e-03	1.189758e+00	-1.13356e-03	-1.49957e+01	
28	2.128000e-03	1.239668e+00	-1.12796e-03	-1.49957e+01	
29	2.228000e-03	1.288354e+00	-1.12228e-03	-1.49957e+01	
30	2.328000e-03	1.335769e+00	-1.11658e-03	-1.49957e+01	
31	2.428000e-03	1.381866e+00	-1.11082e-03	-1.49957e+01	
32	2.528000e-03	1.426599e+00	-1.10504e-03	-1.49957e+01	
33	2.628000e-03	1.469924e+00	-1.09920e-03	-1.49957e+01	
34	2.728000e-03	1.511798e+00	-1.09335e-03	-1.49957e+01	
35	2.828000e-03	1.552181e+00	-1.08746e-03	-1.49957e+01	
36	2.928000e-03	1.591032e+00	-1.08157e-03	-1.49957e+01	
37	3.028000e-03	1.628312e+00	-1.07564e-03	-1.49957e+01	
38	3.128000e-03	1.663986e+00	-1.06971e-03	-1.49957e+01	
39	3.228000e-03	1.698017e+00	-1.06376e-03	-1.49957e+01	
40	3.328000e-03	1.730373e+00	-1.05781e-03	-1.49957e+01	
41	3.428000e-03	1.761021e+00	-1.05183e-03	-1.49957e+01	
42	3.528000e-03	1.789931e+00	-1.04586e-03	-1.49957e+01	
43	3.628000e-03	1.817075e+00	-1.03987e-03	-1.49957e+01	
44	3.728000e-03	1.842425e+00	-1.03386e-03	-1.49957e+01	
45	3.828000e-03	1.865957e+00	-1.02782e-03	-1.49957e+01	
46	3.928000e-03	1.887648e+00	-1.02175e-03	-1.49957e+01	
47	4.028000e-03	1.907476e+00	-1.01560e-03	-1.49957e+01	
48	4.128000e-03	1.925421e+00	-1.00937e-03	-1.49957e+01	
49	4.228000e-03	1.941467e+00	-1.00296e-03	-1.49957e+01	
50	4.328000e-03	1.955596e+00	-9.96313e-04	-1.49957e+01	
51	4.428000e-03	1.967795e+00	-9.89217e-04	-1.49957e+01	
52	4.528000e-03	1.978052e+00	-9.81354e-04	-1.49957e+01	
53	4.628000e-03	1.986358e+00	-9.71924e-04	-1.49957e+01	
54	4.728000e-03	1.992703e+00	-9.58865e-04	-1.49957e+01	

Index   time            in              net-_c1-pad2_   net-_r3-pad1_   
--------------------------------------------------------------------------------
55	4.828000e-03	1.997081e+00	-9.30138e-04	-1.49957e+01	
56	4.928000e-03	1.999488e+00	-6.50646e-04	-1.49957e+01	
57	5.028000e-03	1.999923e+00	-9.02412e-04	-1.49957e+01	
58	5.123721e-03	1.998489e+00	-8.65117e-04	-1.49957e+01	
59	5.223721e-03	1.995062e+00	-9.00677e-04	-1.49957e+01	
60	5.323721e-03	1.989666e+00	-8.48766e-04	-1.49957e+01	
61	5.423721e-03	1.982306e+00	-8.77883e-04	-1.49957e+01	
62	5.523721e-03	1.972990e+00	-8.25785e-04	-1.49957e+01	
63	5.623721e-03	1.961727e+00	-8.52338e-04	-1.49957e+01	
64	5.723721e-03	1.948528e+00	-8.01223e-04	-1.49957e+01	
65	5.823721e-03	1.933406e+00	-8.26648e-04	-1.49957e+01	
66	5.923721e-03	1.916376e+00	-7.76647e-04	-1.49957e+01	
67	6.023721e-03	1.897454e+00	-8.01313e-04	-1.49957e+01	
68	6.123721e-03	1.876661e+00	-7.52596e-04	-1.49957e+01	
69	6.223721e-03	1.854015e+00	-7.76678e-04	-1.49957e+01	
70	6.323721e-03	1.829539e+00	-7.29332e-04	-1.49957e+01	
71	6.423721e-03	1.803258e+00	-7.52953e-04	-1.49957e+01	
72	6.523721e-03	1.775197e+00	-7.07036e-04	-1.49957e+01	
73	6.623721e-03	1.745384e+00	-7.30296e-04	-1.49957e+01	
74	6.723721e-03	1.713849e+00	-6.85851e-04	-1.49957e+01	
75	6.823721e-03	1.680623e+00	-7.08840e-04	-1.49957e+01	
76	6.923721e-03	1.645738e+00	-6.65902e-04	-1.49957e+01	
77	7.023721e-03	1.609228e+00	-6.88699e-04	-1.49957e+01	
78	7.123721e-03	1.571131e+00	-6.47300e-04	-1.49957e+01	
79	7.223721e-03	1.531483e+00	-6.69979e-04	-1.49957e+01	
80	7.323721e-03	1.490324e+00	-6.30147e-04	-1.49957e+01	
81	7.423721e-03	1.447694e+00	-6.52779e-04	-1.49957e+01	
82	7.523721e-03	1.403635e+00	-6.14538e-04	-1.49957e+01	
83	7.623721e-03	1.358191e+00	-6.37188e-04	-1.49957e+01	
84	7.723721e-03	1.311407e+00	-6.00561e-04	-1.49957e+01	
85	7.823721e-03	1.263329e+00	-6.23289e-04	-1.49957e+01	
86	7.923721e-03	1.214003e+00	-5.88294e-04	-1.49957e+01	
87	8.023721e-03	1.163480e+00	-6.11157e-04	-1.49957e+01	
88	8.123721e-03	1.111808e+00	-5.77811e-04	-1.49957e+01	
89	8.223721e-03	1.059040e+00	-6.00860e-04	-1.49957e+01	
90	8.323721e-03	1.005226e+00	-5.69172e-04	-1.49957e+01	
91	8.423721e-03	9.504198e-01	-5.92454e-04	-1.49957e+01	
92	8.523721e-03	8.946759e-01	-5.62432e-04	-1.49957e+01	
93	8.623721e-03	8.380490e-01	-5.85986e-04	-1.49957e+01	
94	8.723721e-03	7.805951e-01	-5.57631e-04	-1.49957e+01	
95	8.823721e-03	7.223709e-01	-5.81490e-04	-1.49957e+01	
96	8.923721e-03	6.634337e-01	-5.54799e-04	-1.49957e+01	
97	9.023721e-03	6.038419e-01	-5.78993e-04	-1.49957e+01	
98	9.123721e-03	5.436541e-01	-5.53959e-04	-1.49957e+01	
99	9.223721e-03	4.829298e-01	-5.78513e-04	-1.49957e+01	
100	9.323721e-03	4.217289e-01	-5.55129e-04	-1.49957e+01	
101	9.423721e-03	3.601118e-01	-5.80071e-04	-1.49957e+01	
102	9.523721e-03	2.981393e-01	-5.58333e-04	-1.49957e+01	
103	9.623721e-03	2.358726e-01	-5.83690e-04	-1.49957e+01	
104	9.723721e-03	1.733731e-01	-5.63592e-04	-1.49957e+01	
105	9.823721e-03	1.107025e-01	-5.89388e-04	-1.49957e+01	
106	9.923721e-03	4.792271e-02	-5.70920e-04	-1.49957e+01	
107	1.002372e-02	-1.49044e-02	-5.97167e-04	-1.49957e+01	
108	1.012372e-02	-7.77168e-02	-5.80306e-04	-1.49957e+01	
109	1.022372e-02	-1.40453e-01	-6.07004e-04	-1.49957e+01	
110	1.032372e-02	-2.03050e-01	-5.91710e-04	-1.49957e+01	
111	1.042372e-02	-2.65446e-01	-6.18840e-04	-1.49957e+01	
112	1.052372e-02	-3.27581e-01	-6.05062e-04	-1.49957e+01	

Index   time            in              net-_c1-pad2_   net-_r3-pad1_   
--------------------------------------------------------------------------------
113	1.062372e-02	-3.89393e-01	-6.32596e-04	-1.49957e+01	
114	1.072372e-02	-4.50820e-01	-6.20277e-04	-1.49957e+01	
115	1.082372e-02	-5.11802e-01	-6.48184e-04	-1.49957e+01	
116	1.092372e-02	-5.72279e-01	-6.37268e-04	-1.49957e+01	
117	1.102372e-02	-6.32192e-01	-6.65519e-04	-1.49957e+01	
118	1.112372e-02	-6.91480e-01	-6.55950e-04	-1.49957e+01	
119	1.122372e-02	-7.50086e-01	-6.84517e-04	-1.49957e+01	
120	1.132372e-02	-8.07952e-01	-6.76243e-04	-1.49957e+01	
121	1.142372e-02	-8.65021e-01	-7.05096e-04	-1.49957e+01	
122	1.152372e-02	-9.21236e-01	-6.98060e-04	-1.49957e+01	
123	1.162372e-02	-9.76541e-01	-7.27166e-04	-1.49957e+01	
124	1.172372e-02	-1.03088e+00	-7.21310e-04	-1.49957e+01	
125	1.182372e-02	-1.08421e+00	-7.50632e-04	-1.49957e+01	
126	1.192372e-02	-1.13646e+00	-7.45892e-04	-1.49957e+01	
127	1.202372e-02	-1.18760e+00	-7.75387e-04	-1.49957e+01	
128	1.212372e-02	-1.23756e+00	-7.71698e-04	-1.49957e+01	
129	1.222372e-02	-1.28630e+00	-8.01321e-04	-1.49957e+01	
130	1.232372e-02	-1.33377e+00	-7.98613e-04	-1.49957e+01	
131	1.242372e-02	-1.37992e+00	-8.28317e-04	-1.49957e+01	
132	1.252372e-02	-1.42471e+00	-8.26521e-04	-1.49957e+01	
133	1.262372e-02	-1.46810e+00	-8.56256e-04	-1.49957e+01	
134	1.272372e-02	-1.51004e+00	-8.55302e-04	-1.49957e+01	
135	1.282372e-02	-1.55048e+00	-8.85019e-04	-1.49957e+01	
136	1.292372e-02	-1.58940e+00	-8.84837e-04	-1.49957e+01	
137	1.302372e-02	-1.62675e+00	-9.14488e-04	-1.49957e+01	
138	1.312372e-02	-1.66249e+00	-9.15011e-04	-1.49957e+01	
139	1.322372e-02	-1.69660e+00	-9.44548e-04	-1.49957e+01	
140	1.332372e-02	-1.72902e+00	-9.45713e-04	-1.49957e+01	
141	1.342372e-02	-1.75974e+00	-9.75094e-04	-1.49957e+01	
142	1.352372e-02	-1.78873e+00	-9.76843e-04	-1.49957e+01	
143	1.362372e-02	-1.81595e+00	-1.00603e-03	-1.49957e+01	
144	1.372372e-02	-1.84138e+00	-1.00832e-03	-1.49957e+01	
145	1.382372e-02	-1.86499e+00	-1.03730e-03	-1.49957e+01	
146	1.392372e-02	-1.88676e+00	-1.04011e-03	-1.49957e+01	
147	1.402372e-02	-1.90667e+00	-1.06889e-03	-1.49957e+01	
148	1.412372e-02	-1.92469e+00	-1.07223e-03	-1.49957e+01	
149	1.422372e-02	-1.94082e+00	-1.10089e-03	-1.49957e+01	
150	1.432372e-02	-1.95503e+00	-1.10491e-03	-1.49957e+01	
151	1.442372e-02	-1.96731e+00	-1.13376e-03	-1.49957e+01	
152	1.452372e-02	-1.97765e+00	-1.13888e-03	-1.49957e+01	
153	1.462372e-02	-1.98604e+00	-1.16898e-03	-1.49957e+01	
154	1.472372e-02	-1.99247e+00	-1.17755e-03	-1.49957e+01	
155	1.482372e-02	-1.99693e+00	-1.21637e-03	-1.49957e+01	
156	1.492372e-02	-1.99943e+00	-1.26111e-03	-1.49957e+01	
157	1.502372e-02	-1.99994e+00	-1.65780e-03	-1.49957e+01	
158	1.510782e-02	-1.99885e+00	-8.49322e-04	-1.49957e+01	
159	1.518161e-02	-1.99675e+00	-1.58906e-03	-1.49957e+01	
160	1.525900e-02	-1.99338e+00	-8.48952e-04	-1.49957e+01	
161	1.535900e-02	-1.98729e+00	-1.57517e-03	-1.49957e+01	
162	1.545900e-02	-1.97924e+00	-8.59749e-04	-1.49957e+01	
163	1.555900e-02	-1.96924e+00	-1.57082e-03	-1.49957e+01	
164	1.565900e-02	-1.95729e+00	-8.72662e-04	-1.49957e+01	
165	1.575900e-02	-1.94341e+00	-1.56962e-03	-1.49957e+01	
166	1.585900e-02	-1.92762e+00	-8.85781e-04	-1.49957e+01	
167	1.595900e-02	-1.90992e+00	-1.56870e-03	-1.49957e+01	
168	1.605900e-02	-1.89033e+00	-8.98655e-04	-1.49957e+01	
169	1.615900e-02	-1.86888e+00	-1.56777e-03	-1.49957e+01	
170	1.625900e-02	-1.84559e+00	-9.11032e-04	-1.49957e+01	

Index   time            in              net-_c1-pad2_   net-_r3-pad1_   
--------------------------------------------------------------------------------
171	1.635900e-02	-1.82047e+00	-1.56661e-03	-1.49957e+01	
172	1.645900e-02	-1.79356e+00	-9.22788e-04	-1.49957e+01	
173	1.655900e-02	-1.76488e+00	-1.56512e-03	-1.49957e+01	
174	1.665900e-02	-1.73446e+00	-9.33855e-04	-1.49957e+01	
175	1.675900e-02	-1.70232e+00	-1.56321e-03	-1.49957e+01	
176	1.685900e-02	-1.66850e+00	-9.44189e-04	-1.49957e+01	
177	1.695900e-02	-1.63304e+00	-1.56083e-03	-1.49957e+01	
178	1.705900e-02	-1.59597e+00	-9.53759e-04	-1.49957e+01	
179	1.715900e-02	-1.55732e+00	-1.55794e-03	-1.49957e+01	
180	1.725900e-02	-1.51714e+00	-9.62544e-04	-1.49957e+01	
181	1.735900e-02	-1.47545e+00	-1.55451e-03	-1.49957e+01	
182	1.745900e-02	-1.43231e+00	-9.70529e-04	-1.49957e+01	
183	1.755900e-02	-1.38776e+00	-1.55052e-03	-1.49957e+01	
184	1.765900e-02	-1.34184e+00	-9.77701e-04	-1.49957e+01	
185	1.775900e-02	-1.29459e+00	-1.54596e-03	-1.49957e+01	
186	1.785900e-02	-1.24607e+00	-9.84055e-04	-1.49957e+01	
187	1.795900e-02	-1.19632e+00	-1.54080e-03	-1.49957e+01	
188	1.805900e-02	-1.14538e+00	-9.89585e-04	-1.49957e+01	
189	1.815900e-02	-1.09332e+00	-1.53505e-03	-1.49957e+01	
190	1.825900e-02	-1.04017e+00	-9.94290e-04	-1.49957e+01	
191	1.835900e-02	-9.86004e-01	-1.52869e-03	-1.49957e+01	
192	1.845900e-02	-9.30861e-01	-9.98175e-04	-1.49957e+01	
193	1.855900e-02	-8.74799e-01	-1.52172e-03	-1.49957e+01	
194	1.865900e-02	-8.17874e-01	-1.00124e-03	-1.49957e+01	
195	1.875900e-02	-7.60142e-01	-1.51415e-03	-1.49957e+01	
196	1.885900e-02	-7.01660e-01	-1.00350e-03	-1.49957e+01	
197	1.895900e-02	-6.42485e-01	-1.50598e-03	-1.49957e+01	
198	1.905900e-02	-5.82676e-01	-1.00497e-03	-1.49957e+01	
199	1.915900e-02	-5.22292e-01	-1.49721e-03	-1.49957e+01	
200	1.925900e-02	-4.61393e-01	-1.00565e-03	-1.49957e+01	
201	1.935900e-02	-4.00038e-01	-1.48786e-03	-1.49957e+01	
202	1.945900e-02	-3.38289e-01	-1.00556e-03	-1.49957e+01	
203	1.955900e-02	-2.76206e-01	-1.47795e-03	-1.49957e+01	
204	1.965900e-02	-2.13850e-01	-1.00474e-03	-1.49957e+01	
205	1.975900e-02	-1.51283e-01	-1.46749e-03	-1.49957e+01	
206	1.985900e-02	-8.85666e-02	-1.00318e-03	-1.49957e+01	
207	1.995900e-02	-2.57631e-02	-1.45649e-03	-1.49957e+01	
208	2.005900e-02	3.706596e-02	-1.00093e-03	-1.49957e+01	
209	2.015900e-02	9.985840e-02	-1.44499e-03	-1.49957e+01	
210	2.025900e-02	1.625523e-01	-9.98013e-04	-1.49957e+01	
211	2.035900e-02	2.250858e-01	-1.43301e-03	-1.49957e+01	
212	2.045900e-02	2.873971e-01	-9.94454e-04	-1.49957e+01	
213	2.055900e-02	3.494248e-01	-1.42057e-03	-1.49957e+01	
214	2.065900e-02	4.111077e-01	-9.90287e-04	-1.49957e+01	
215	2.075900e-02	4.723848e-01	-1.40771e-03	-1.49957e+01	
216	2.085900e-02	5.331958e-01	-9.85547e-04	-1.49957e+01	
217	2.095900e-02	5.934806e-01	-1.39445e-03	-1.49957e+01	
218	2.105900e-02	6.531797e-01	-9.80271e-04	-1.49957e+01	
219	2.115900e-02	7.122341e-01	-1.38083e-03	-1.49957e+01	
220	2.125900e-02	7.705857e-01	-9.74497e-04	-1.49957e+01	
221	2.135900e-02	8.281768e-01	-1.36689e-03	-1.49957e+01	
222	2.145900e-02	8.849506e-01	-9.68264e-04	-1.49957e+01	
223	2.155900e-02	9.408511e-01	-1.35266e-03	-1.49957e+01	
224	2.165900e-02	9.958230e-01	-9.61611e-04	-1.49957e+01	
225	2.175900e-02	1.049812e+00	-1.33819e-03	-1.49957e+01	
226	2.185900e-02	1.102765e+00	-9.54582e-04	-1.49957e+01	
227	2.195900e-02	1.154630e+00	-1.32349e-03	-1.49957e+01	
228	2.205900e-02	1.205356e+00	-9.47217e-04	-1.49957e+01	

Index   time            in              net-_c1-pad2_   net-_r3-pad1_   
--------------------------------------------------------------------------------
229	2.215900e-02	1.254891e+00	-1.30863e-03	-1.49957e+01	
230	2.225900e-02	1.303189e+00	-9.39557e-04	-1.49957e+01	
231	2.235900e-02	1.350200e+00	-1.29362e-03	-1.49957e+01	
232	2.245900e-02	1.395879e+00	-9.31645e-04	-1.49957e+01	
233	2.255900e-02	1.440180e+00	-1.27852e-03	-1.49957e+01	
234	2.265900e-02	1.483060e+00	-9.23519e-04	-1.49957e+01	
235	2.275900e-02	1.524477e+00	-1.26335e-03	-1.49957e+01	
236	2.285900e-02	1.564389e+00	-9.15217e-04	-1.49957e+01	
237	2.295900e-02	1.602757e+00	-1.24815e-03	-1.49957e+01	
238	2.305900e-02	1.639543e+00	-9.06773e-04	-1.49957e+01	
239	2.315900e-02	1.674711e+00	-1.23294e-03	-1.49957e+01	
240	2.325900e-02	1.708227e+00	-8.98214e-04	-1.49957e+01	
241	2.335900e-02	1.740056e+00	-1.21774e-03	-1.49957e+01	
242	2.345900e-02	1.770169e+00	-8.89558e-04	-1.49957e+01	
243	2.355900e-02	1.798535e+00	-1.20255e-03	-1.49957e+01	
244	2.365900e-02	1.825125e+00	-8.80804e-04	-1.49957e+01	
245	2.375900e-02	1.849915e+00	-1.18735e-03	-1.49957e+01	
246	2.385900e-02	1.872878e+00	-8.71919e-04	-1.49957e+01	
247	2.395900e-02	1.893994e+00	-1.17207e-03	-1.49957e+01	
248	2.405900e-02	1.913240e+00	-8.62798e-04	-1.49957e+01	
249	2.415900e-02	1.930599e+00	-1.15653e-03	-1.49957e+01	
250	2.425900e-02	1.946052e+00	-8.53169e-04	-1.49957e+01	
251	2.435900e-02	1.959584e+00	-1.14023e-03	-1.49957e+01	
252	2.445900e-02	1.971183e+00	-8.42250e-04	-1.49957e+01	
253	2.455900e-02	1.980836e+00	-1.12167e-03	-1.49957e+01	
254	2.465900e-02	1.988534e+00	-8.27046e-04	-1.49957e+01	
255	2.475900e-02	1.994270e+00	-1.09337e-03	-1.49957e+01	
256	2.485900e-02	1.998038e+00	-7.75270e-04	-1.49957e+01	
257	2.495900e-02	1.999834e+00	-6.23903e-04	-1.49957e+01	
258	2.505900e-02	1.999656e+00	-1.08531e-03	-1.49957e+01	
259	2.515900e-02	1.997506e+00	-6.87914e-04	-1.49957e+01	
260	2.525900e-02	1.993383e+00	-1.07089e-03	-1.49957e+01	
261	2.535900e-02	1.987294e+00	-6.73635e-04	-1.49957e+01	
262	2.545900e-02	1.979243e+00	-1.04376e-03	-1.49957e+01	
263	2.555900e-02	1.969239e+00	-6.54182e-04	-1.49957e+01	
264	2.565900e-02	1.957292e+00	-1.01377e-03	-1.49957e+01	
265	2.575900e-02	1.943413e+00	-6.33993e-04	-1.49957e+01	
266	2.585900e-02	1.927616e+00	-9.83877e-04	-1.49957e+01	
267	2.595900e-02	1.909916e+00	-6.13608e-04	-1.49957e+01	
268	2.605900e-02	1.890332e+00	-9.54579e-04	-1.49957e+01	
269	2.615900e-02	1.868883e+00	-5.93694e-04	-1.49957e+01	
270	2.625900e-02	1.845589e+00	-9.26142e-04	-1.49957e+01	
271	2.635900e-02	1.820473e+00	-5.74485e-04	-1.49957e+01	
272	2.645900e-02	1.793561e+00	-8.98758e-04	-1.49957e+01	
273	2.655900e-02	1.764879e+00	-5.56162e-04	-1.49957e+01	
274	2.665900e-02	1.734456e+00	-8.72573e-04	-1.49957e+01	
275	2.675900e-02	1.702320e+00	-5.38871e-04	-1.49957e+01	
276	2.685900e-02	1.668505e+00	-8.47708e-04	-1.49957e+01	
277	2.695900e-02	1.633043e+00	-5.22737e-04	-1.49957e+01	
278	2.705900e-02	1.595969e+00	-8.24274e-04	-1.49957e+01	
279	2.715900e-02	1.557321e+00	-5.07875e-04	-1.49957e+01	
280	2.725900e-02	1.517135e+00	-8.02371e-04	-1.49957e+01	
281	2.735900e-02	1.475452e+00	-4.94390e-04	-1.49957e+01	
282	2.745900e-02	1.432313e+00	-7.82091e-04	-1.49957e+01	
283	2.755900e-02	1.387761e+00	-4.82376e-04	-1.49957e+01	
284	2.765900e-02	1.341839e+00	-7.63522e-04	-1.49957e+01	
285	2.775900e-02	1.294593e+00	-4.71925e-04	-1.49957e+01	
286	2.785900e-02	1.246069e+00	-7.46742e-04	-1.49957e+01	

Index   time            in              net-_c1-pad2_   net-_r3-pad1_   
--------------------------------------------------------------------------------
287	2.795900e-02	1.196316e+00	-4.63115e-04	-1.49957e+01	
288	2.805900e-02	1.145382e+00	-7.31821e-04	-1.49957e+01	
289	2.815900e-02	1.093317e+00	-4.56021e-04	-1.49957e+01	
290	2.825900e-02	1.040174e+00	-7.18824e-04	-1.49957e+01	
291	2.835900e-02	9.860037e-01	-4.50705e-04	-1.49957e+01	
292	2.845900e-02	9.308607e-01	-7.07803e-04	-1.49957e+01	
293	2.855900e-02	8.747990e-01	-4.47221e-04	-1.49957e+01	
294	2.865900e-02	8.178740e-01	-6.98801e-04	-1.49957e+01	
295	2.875900e-02	7.601419e-01	-4.45609e-04	-1.49957e+01	
296	2.885900e-02	7.016596e-01	-6.91849e-04	-1.49957e+01	
297	2.895900e-02	6.424848e-01	-4.45899e-04	-1.49957e+01	
298	2.905900e-02	5.826760e-01	-6.86969e-04	-1.49957e+01	
299	2.915900e-02	5.222922e-01	-4.48116e-04	-1.49957e+01	
300	2.925900e-02	4.613929e-01	-6.84180e-04	-1.49957e+01	
301	2.935900e-02	4.000383e-01	-4.52281e-04	-1.49957e+01	
302	2.945900e-02	3.382888e-01	-6.83499e-04	-1.49957e+01	
303	2.955900e-02	2.762056e-01	-4.58417e-04	-1.49957e+01	
304	2.965900e-02	2.138497e-01	-6.84947e-04	-1.49957e+01	
305	2.975900e-02	1.512828e-01	-4.66547e-04	-1.49957e+01	
306	2.985900e-02	8.856665e-02	-6.88538e-04	-1.49957e+01	
307	2.995900e-02	2.576305e-02	-4.76681e-04	-1.49957e+01	
308	3.005900e-02	-3.70660e-02	-6.94270e-04	-1.49957e+01	
309	3.015900e-02	-9.98584e-02	-4.88807e-04	-1.49957e+01	
310	3.025900e-02	-1.62552e-01	-7.02108e-04	-1.49957e+01	
311	3.035900e-02	-2.25086e-01	-5.02880e-04	-1.49957e+01	
312	3.045900e-02	-2.87397e-01	-7.11990e-04	-1.49957e+01	
313	3.055900e-02	-3.49425e-01	-5.18828e-04	-1.49957e+01	
314	3.065900e-02	-4.11108e-01	-7.23832e-04	-1.49957e+01	
315	3.075900e-02	-4.72385e-01	-5.36568e-04	-1.49957e+01	
316	3.085900e-02	-5.33196e-01	-7.37547e-04	-1.49957e+01	
317	3.095900e-02	-5.93481e-01	-5.56015e-04	-1.49957e+01	
318	3.105900e-02	-6.53180e-01	-7.53047e-04	-1.49957e+01	
319	3.115900e-02	-7.12234e-01	-5.77087e-04	-1.49957e+01	
320	3.125900e-02	-7.70586e-01	-7.70249e-04	-1.49957e+01	
321	3.135900e-02	-8.28177e-01	-5.99703e-04	-1.49957e+01	
322	3.145900e-02	-8.84951e-01	-7.89068e-04	-1.49957e+01	
323	3.155900e-02	-9.40851e-01	-6.23779e-04	-1.49957e+01	
324	3.165900e-02	-9.95823e-01	-8.09412e-04	-1.49957e+01	
325	3.175900e-02	-1.04981e+00	-6.49220e-04	-1.49957e+01	
326	3.185900e-02	-1.10277e+00	-8.31182e-04	-1.49957e+01	
327	3.195900e-02	-1.15463e+00	-6.75928e-04	-1.49957e+01	
328	3.205900e-02	-1.20536e+00	-8.54270e-04	-1.49957e+01	
329	3.215900e-02	-1.25489e+00	-7.03792e-04	-1.49957e+01	
330	3.225900e-02	-1.30319e+00	-8.78561e-04	-1.49957e+01	
331	3.235900e-02	-1.35020e+00	-7.32701e-04	-1.49957e+01	
