Title: kicad schematic
Date: Fri Jan 09 16:05:15  2026
Plotname: Transient Analysis
Flags: real
No. Variables: 19
No. Points: 408     
Variables:
	0	time	time
	1	v(f)	voltage
	2	v(x1.net-_m12-pad1_)	voltage
	3	v(x1.net-_m10-pad3_)	voltage
	4	v(x1.net-_m8-pad3_)	voltage
	5	v(e)	voltage
	6	v(d)	voltage
	7	v(net-_x1-pad8_)	voltage
	8	v(x1.net-_m5-pad1_)	voltage
	9	v(x1.net-_m1-pad1_)	voltage
	10	v(a)	voltage
	11	v(x1.net-_m1-pad3_)	voltage
	12	v(b)	voltage
	13	v(c)	voltage
	14	i(v5)	current
	15	i(v3)	current
	16	i(v4)	current
	17	i(v1)	current
	18	i(v2)	current
Values:
0		0.000000000000000e+00
	4.999999855635731e+00
	2.343357050151719e-08
	4.999999848506837e+00
	4.153134442608251e+00
	0.000000000000000e+00
	5.000000000000000e+00
	5.000000000000000e+00
	4.999999903854780e+00
	9.373413296488165e-08
	5.000000000000000e+00
	4.686706493360151e-08
	5.000000000000000e+00
	1.186402100809862e+00
	0.000000000000000e+00
	-3.813598658481965e-04
	0.000000000000000e+00
	0.000000000000000e+00
	0.000000000000000e+00
1		1.000000000000000e-05
	4.999999855635116e+00
	2.343341959155057e-08
	4.999999848494273e+00
	4.153134559622632e+00
	0.000000000000000e+00
	5.000000000000000e+00
	5.000000000000000e+00
	4.999999903855676e+00
	9.373415180147227e-08
	5.000000000000000e+00
	4.686707462610872e-08
	5.000000000000000e+00
	1.186402100809976e+00
	8.541278672740698e-16
	-3.813598658499548e-04
	7.757500425451674e-16
	5.548940243576242e-20
	1.236658640699384e-19
2		2.000000000000001e-05
	4.999999855635116e+00
	2.343355271757989e-08
	4.999999848493114e+00
	4.153134671595092e+00
	0.000000000000000e+00
	5.000000000000000e+00
	5.000000000000000e+00
	4.999999903856065e+00
	9.373414398827773e-08
	5.000000000000000e+00
	4.686707182351322e-08
	5.000000000000000e+00
	1.186402100810008e+00
	8.174723841327419e-16
	-3.813598658499928e-04
	7.878321205048028e-16
	-7.117390207029920e-21
	-4.645046376454099e-20
3		4.000000000000001e-05
	4.999999855635116e+00
	2.343359682222530e-08
	4.999999848494158e+00
	4.153134887232573e+00
	0.000000000000000e+00
	5.000000000000000e+00
	5.000000000000000e+00
	4.999999903856319e+00
	9.373413117907958e-08
	5.000000000000000e+00
	4.686706540901090e-08
	5.000000000000000e+00
	1.186402100810018e+00
	7.568703200430244e-16
	-3.813598658498265e-04
	7.430647351765185e-16
	-6.957750987860564e-21
	-2.597532153581726e-20
4		8.000000000000002e-05
	4.999999855636116e+00
	2.343355516282377e-08
	4.999999848496258e+00
	4.153135254976752e+00
	0.000000000000000e+00
	5.000000000000000e+00
	5.000000000000000e+00
	4.999999903857678e+00
	9.373415365415694e-08
	5.000000000000000e+00
	4.686707646067678e-08
	5.000000000000000e+00
	1.186402100810084e+00
	5.855656058579838e-16
	-3.813598658494928e-04
	5.630024712491993e-16
	3.836838849383514e-20
	8.997150522980532e-20
5		1.600000000000000e-04
	4.999999855635231e+00
	2.343359885906553e-08
	4.999999848500876e+00
	4.153135762877632e+00
	0.000000000000000e+00
	5.000000000000000e+00
	5.000000000000000e+00
	4.999999903854604e+00
	9.373409592949855e-08
	5.000000000000000e+00
	4.686704845744034e-08
	5.000000000000000e+00
	1.186402100809789e+00
	3.414730046311640e-16
	-3.813598658495575e-04
	3.407198500659896e-16
	-6.020074079897128e-20
	-1.818636078478513e-19
6		3.200000000000001e-04
	4.999999855635482e+00
	2.343354182257487e-08
	4.999999848501184e+00
	4.153136357712039e+00
	0.000000000000000e+00
	5.000000000000000e+00
	5.000000000000000e+00
	4.999999903855993e+00
	9.373417151486985e-08
	5.000000000000000e+00
	4.686708385811569e-08
	5.000000000000000e+00
	1.186402100809975e+00
	2.013738833682977e-16
	-3.813598658487589e-04
	1.858131941227022e-16
	8.335887557421190e-20
	2.386767835502361e-19
7		6.400000000000002e-04
	4.999999855636300e+00
	2.343360194166191e-08
	4.999999848504844e+00
	4.153137014218216e+00
	0.000000000000000e+00
	5.000000000000000e+00
	5.000000000000000e+00
	4.999999903857142e+00
	9.373410102091195e-08
	5.000000000000000e+00
	4.686705068475801e-08
	5.000000000000000e+00
	1.186402100810070e+00
	9.819272619873452e-17
	-3.813598658463152e-04
	1.056148441272442e-16
	-8.942670666947990e-20
	-2.671513439736692e-19
8		1.280000000000000e-03
	4.999999855636015e+00
	2.343353801954044e-08
	4.999999848506725e+00
	4.153137201247747e+00
	0.000000000000000e+00
	5.000000000000000e+00
	5.000000000000000e+00
	4.999999903852618e+00
	9.373416658695413e-08
	5.000000000000000e+00
	4.686708089427809e-08
	5.000000000000000e+00
	1.186402100809712e+00
	-5.552079760476627e-17
	-3.813598658478089e-04
	-6.399280976947036e-17
	9.414290278371171e-20
	2.790675121175414e-19
9		2.280000000000001e-03
	4.999999855635525e+00
	2.343360167526055e-08
	4.999999848505196e+00
	4.153137048282898e+00
	0.000000000000000e+00
	5.000000000000000e+00
	5.000000000000000e+00
	4.999999903854615e+00
	9.373410403542767e-08
	5.000000000000000e+00
	4.686705221887698e-08
	5.000000000000000e+00
	1.186402100809818e+00
	3.318486965791539e-17
	-3.813598658475447e-04
	4.220791645947780e-17
	-9.601085518997703e-20
	-2.860902143466865e-19
10		3.280000000000001e-03
	4.999999855635525e+00
	2.343353870918521e-08
	4.999999848506033e+00
	4.153137051430177e+00
	0.000000000000000e+00
	5.000000000000000e+00
	5.000000000000000e+00
	4.999999903854953e+00
	9.373416542902621e-08
	5.000000000000000e+00
	4.686708385272590e-08
	5.000000000000000e+00
	1.186402100809810e+00
	-3.272476160912104e-17
	-3.813598658467682e-04
	-4.169164987812631e-17
	9.849939414655706e-20
	2.942545440950704e-19
11		4.280000000000001e-03
	4.999999855635525e+00
	2.343359916427974e-08
	4.999999848504226e+00
	4.153137068188689e+00
	0.000000000000000e+00
	5.000000000000000e+00
	5.000000000000000e+00
	4.999999903855080e+00
	9.373410424446185e-08
	5.000000000000000e+00
	4.686705144498145e-08
	5.000000000000000e+00
	1.186402100809840e+00
	3.517142940875731e-17
	-3.813598658475451e-04
	4.391283496362310e-17
	-1.010519619064882e-19
	-3.020207535965115e-19
12		5.280000000000001e-03
	4.999999855635525e+00
	2.343354239905946e-08
	4.999999848506419e+00
	4.153137134117000e+00
	0.000000000000000e+00
	5.000000000000000e+00
	5.000000000000000e+00
	4.999999903854885e+00
	9.373416412668256e-08
	5.000000000000000e+00
	4.686708007463937e-08
	5.000000000000000e+00
	1.186402100809849e+00
	-2.554410132033076e-17
	-3.813598658471014e-04
	-3.439435515841210e-17
	1.036884947376945e-19
	3.095980005400073e-19
13		6.280000000000001e-03
	4.999999855635525e+00
	2.343359741695113e-08
	4.999999848505296e+00
	4.153137028438323e+00
	0.000000000000000e+00
	5.000000000000000e+00
	5.000000000000000e+00
	4.999999903854653e+00
	9.373410447908320e-08
	5.000000000000000e+00
	4.686705247822654e-08
	5.000000000000000e+00
	1.186402100809816e+00
	1.011318564930421e-17
	-3.813598658475448e-04
	1.933834452096691e-17
	-1.057299456813015e-19
	-3.163122107841137e-19
14		7.280000000000001e-03
	4.999999855635525e+00
	2.343354091230581e-08
	4.999999848505178e+00
	4.153136987879798e+00
	0.000000000000000e+00
	5.000000000000000e+00
	5.000000000000000e+00
	4.999999903854325e+00
	9.373416560640169e-08
	5.000000000000000e+00
	4.686708256675800e-08
	5.000000000000000e+00
	1.186402100809753e+00
	-1.603541378260875e-17
	-3.813598658473233e-04
	-2.509054526577087e-17
	1.081325755609006e-19
	3.242290332967155e-19
15		8.280000000000001e-03
	4.999999855635525e+00
	2.343359744579088e-08
	4.999999848505324e+00
	4.153136976172366e+00
	0.000000000000000e+00
	5.000000000000000e+00
	5.000000000000000e+00
	4.999999903855085e+00
	9.373410703042775e-08
	5.000000000000000e+00
	4.686705377099258e-08
	5.000000000000000e+00
	1.186402100809808e+00
	1.432600430812275e-17
	-3.813598658471012e-04
	2.344497200749258e-17
	-1.107035359473140e-19
	-3.312341576790976e-19
16		9.280000000000002e-03
	4.999999855635525e+00
	2.343354091783509e-08
	4.999999848505353e+00
	4.153137029907476e+00
	0.000000000000000e+00
	5.000000000000000e+00
	5.000000000000000e+00
	4.999999903854413e+00
	9.373416288678896e-08
	5.000000000000000e+00
	4.686708118828878e-08
	5.000000000000000e+00
	1.186402100809794e+00
	-6.479750140911960e-18
	-3.813598658475452e-04
	-1.583464567420870e-17
	1.128872077355036e-19
	3.383883779937231e-19
17		1.028000000000000e-02
	4.999999855635525e+00
	2.343359819653733e-08
	4.999999848504968e+00
	4.153137054253737e+00
	0.000000000000000e+00
	5.000000000000000e+00
	5.000000000000000e+00
	4.999999903854902e+00
	9.373410695453360e-08
	5.000000000000000e+00
	4.686705419650005e-08
	5.000000000000000e+00
	1.186402100809789e+00
	1.003481163043331e-17
	-3.813598658472121e-04
	1.924972369886043e-17
	-1.153265813313851e-19
	-3.450742669653956e-19
18		1.128000000000000e-02
	4.999999855635525e+00
	2.343354134077913e-08
	4.999999848506163e+00
	4.153137147497828e+00
	0.000000000000000e+00
	5.000000000000000e+00
	5.000000000000000e+00
	4.999999903855021e+00
	9.373416512848537e-08
	5.000000000000000e+00
	4.686708184522735e-08
	5.000000000000000e+00
	1.186402100809864e+00
	3.580621163654083e-18
	-3.813598658468791e-04
	-5.947706536942087e-18
	1.173894325788260e-19
	3.528204213649061e-19
19		1.228000000000000e-02
	4.999999855635525e+00
	2.343359741372759e-08
	4.999999848504313e+00
	4.153137005760130e+00
	0.000000000000000e+00
	5.000000000000000e+00
	5.000000000000000e+00
	4.999999903854971e+00
	9.373410711152608e-08
	5.000000000000000e+00
	4.686705429715473e-08
	5.000000000000000e+00
	1.186402100809820e+00
	-2.427706865782358e-17
	-3.813598658474340e-04
	-1.427494038095832e-17
	-1.198709284897920e-19
	-3.596637917324491e-19
20		1.328000000000001e-02
	4.999999855635525e+00
	2.343354307245127e-08
	4.999999848505752e+00
	4.153136976324409e+00
	0.000000000000000e+00
	5.000000000000000e+00
	5.000000000000000e+00
	4.999999903854684e+00
	9.373416477243338e-08
	5.000000000000000e+00
	4.686708164652675e-08
	5.000000000000000e+00
	1.186402100809850e+00
	1.997935324741386e-17
	-3.813598658473235e-04
	1.022760520074046e-17
	1.219255421471603e-19
	3.670672213149463e-19
21		1.428000000000001e-02
	4.999999855635525e+00
	2.343359749629469e-08
	4.999999848504053e+00
	4.153136971414091e+00
	0.000000000000000e+00
	5.000000000000000e+00
	5.000000000000000e+00
	4.999999903855363e+00
	9.373410782319638e-08
	5.000000000000000e+00
	4.686705467299349e-08
	5.000000000000000e+00
	1.186402100809878e+00
	-2.069680804151900e-17
	-3.813598658474340e-04
	-1.106500314821974e-17
	-1.243921556591462e-19
	-3.740773615415987e-19
22		1.528000000000001e-02
	4.999999855635525e+00
	2.343354214491349e-08
	4.999999848505687e+00
	4.153136981812931e+00
	0.000000000000000e+00
	5.000000000000000e+00
	5.000000000000000e+00
	4.999999903854559e+00
	9.373416203590709e-08
	5.000000000000000e+00
	4.686708114707160e-08
	5.000000000000000e+00
	1.186402100809794e+00
	2.221538002105138e-17
	-3.813598658474345e-04
	1.267463044579893e-17
	1.264361592036035e-19
	3.811944812718901e-19
23		1.628000000000001e-02
	4.999999855635525e+00
	2.343359583612694e-08
	4.999999848504300e+00
	4.153137005466087e+00
	0.000000000000000e+00
	5.000000000000000e+00
	5.000000000000000e+00
	4.999999903854911e+00
	9.373410773255708e-08
	5.000000000000000e+00
	4.686705419909001e-08
	5.000000000000000e+00
	1.186402100809798e+00
	-1.876207425798082e-17
	-3.813598658473230e-04
	-9.441558625688466e-18
	-1.288787773646666e-19
	-3.874662710794037e-19
24		1.728000000000001e-02
	4.999999855635525e+00
	2.343354364333278e-08
	4.999999848505250e+00
	4.153137002564091e+00
	0.000000000000000e+00
	5.000000000000000e+00
	5.000000000000000e+00
	4.999999903854926e+00
	9.373416075221172e-08
	5.000000000000000e+00
	4.686708093420067e-08
	5.000000000000000e+00
	1.186402100809858e+00
	1.833866314648420e-17
	-3.813598658473234e-04
	9.110792259785661e-18
	1.310768435916682e-19
	3.948328594723874e-19
25		1.828000000000001e-02
	4.999999855635525e+00
	2.343359387040714e-08
	4.999999848505592e+00
	4.153137060110053e+00
	0.000000000000000e+00
	5.000000000000000e+00
	5.000000000000000e+00
	4.999999903854828e+00
	9.373410790906520e-08
	5.000000000000000e+00
	4.686705341585587e-08
	5.000000000000000e+00
	1.186402100809816e+00
	-9.935918879480143e-18
	-3.813598658473230e-04
	-9.345420386175102e-19
	-1.330736382222583e-19
	-4.010709986998498e-19
26		1.928000000000001e-02
	4.999999855635525e+00
	2.343354455338113e-08
	4.999999848505857e+00
	4.153137074709535e+00
	0.000000000000000e+00
	5.000000000000000e+00
	5.000000000000000e+00
	4.999999903854544e+00
	9.373416043345628e-08
	5.000000000000000e+00
	4.686707986942409e-08
	5.000000000000000e+00
	1.186402100809845e+00
	1.206799179758660e-17
	-3.813598658474341e-04
	3.023960561257056e-18
	1.354345384785759e-19
	4.078440125401416e-19
27		2.028000000000001e-02
	4.999999855635525e+00
	2.343359640885131e-08
	4.999999848505752e+00
	4.153137109471730e+00
	0.000000000000000e+00
	5.000000000000000e+00
	5.000000000000000e+00
	4.999999903855270e+00
	9.373410862160286e-08
	5.000000000000000e+00
	4.686705468057670e-08
	5.000000000000000e+00
	1.186402100809876e+00
	-6.992166713499904e-18
	-3.813598658471010e-04
	1.889254049291514e-18
	-1.373086566792633e-19
	-4.139261316087650e-19
28		2.128000000000001e-02
	4.999999855635525e+00
	2.343354367480061e-08
	4.999999848505572e+00
	4.153137056299001e+00
	0.000000000000000e+00
	5.000000000000000e+00
	5.000000000000000e+00
	4.999999903854524e+00
	9.373415772425189e-08
	5.000000000000000e+00
	4.686707849327390e-08
	5.000000000000000e+00
	1.186402100809792e+00
	-7.721097191038145e-19
	-3.813598658474341e-04
	-9.432558900623889e-18
	1.393423340305270e-19
	4.200986058635725e-19
29		2.228000000000001e-02
	4.999999855635525e+00
	2.343359537097482e-08
	4.999999848504901e+00
	4.153137031954527e+00
	0.000000000000000e+00
	5.000000000000000e+00
	5.000000000000000e+00
	4.999999903854929e+00
	9.373410850667743e-08
	5.000000000000000e+00
	4.686705508526823e-08
	5.000000000000000e+00
	1.186402100809800e+00
	-2.782769790682772e-18
	-3.813598658472121e-04
	5.929389449457713e-18
	-1.411922974696464e-19
	-4.257595942532028e-19
30		2.328000000000001e-02
	4.999999855635525e+00
	2.343354297070224e-08
	4.999999848504839e+00
	4.153136906289239e+00
	0.000000000000000e+00
	5.000000000000000e+00
	5.000000000000000e+00
	4.999999903854976e+00
	9.373416000497958e-08
	5.000000000000000e+00
	4.686707917095068e-08
	5.000000000000000e+00
	1.186402100809858e+00
	-1.556620271457082e-17
	-3.813598658472123e-04
	-2.372687516025065e-17
	1.433169057627479e-19
	4.323122376760076e-19
31		2.428000000000001e-02
	4.999999855635525e+00
	2.343359454856147e-08
	4.999999848505190e+00
	4.153136987003287e+00
	0.000000000000000e+00
	5.000000000000000e+00
	5.000000000000000e+00
	4.999999903854889e+00
	9.373410776421578e-08
	5.000000000000000e+00
	4.686705517935295e-08
	5.000000000000000e+00
	1.186402100809819e+00
	2.735201125536443e-17
	-3.813598658473232e-04
	3.518400162348992e-17
	-1.451020345108372e-19
	-4.386251869780938e-19
32		2.528000000000001e-02
	4.999999855635525e+00
	2.343354571632778e-08
	4.999999848505724e+00
	4.153137108063754e+00
	0.000000000000000e+00
	5.000000000000000e+00
	5.000000000000000e+00
	4.999999903854598e+00
	9.373415968622414e-08
	5.000000000000000e+00
	4.686707899265202e-08
	5.000000000000000e+00
	1.186402100809845e+00
	-9.675067576709122e-18
	-3.813598658473231e-04
	-1.799913249179866e-17
	1.472194547759455e-19
	4.452933633671384e-19
33		2.628000000000002e-02
	4.999999855635525e+00
	2.343359517070693e-08
	4.999999848505331e+00
	4.153136990225194e+00
	0.000000000000000e+00
	5.000000000000000e+00
	5.000000000000000e+00
	4.999999903855298e+00
	9.373410846461039e-08
	5.000000000000000e+00
	4.686705554695564e-08
	5.000000000000000e+00
	1.186402100809878e+00
	-7.531322002786202e-18
	-3.813598658471010e-04
	1.282566700820621e-18
	-1.489886788607179e-19
	-4.512404634408043e-19
34		2.728000000000002e-02
	4.999999855635525e+00
	2.343354591153103e-08
	4.999999848505595e+00
	4.153136964776936e+00
	0.000000000000000e+00
	5.000000000000000e+00
	5.000000000000000e+00
	4.999999903854530e+00
	9.373415520890285e-08
	5.000000000000000e+00
	4.686707673618438e-08
	5.000000000000000e+00
	1.186402100809792e+00
	3.815840724181500e-18
	-3.813598658474342e-04
	-4.863398485338176e-18
	1.509474147210196e-19
	4.571125574252665e-19
35		2.828000000000002e-02
	4.999999855635525e+00
	2.343359585377403e-08
	4.999999848505147e+00
	4.153137011905351e+00
	0.000000000000000e+00
	5.000000000000000e+00
	5.000000000000000e+00
	4.999999903854915e+00
	9.373410834231238e-08
	5.000000000000000e+00
	4.686705505728899e-08
	5.000000000000000e+00
	1.186402100809800e+00
	3.065650981117611e-18
	-3.813598658472121e-04
	1.149831344029952e-17
	-1.523119555311518e-19
	-4.624099177300626e-19
36		2.928000000000002e-02
	4.999999855635525e+00
	2.343354440021862e-08
	4.999999848505660e+00
	4.153137019014777e+00
	0.000000000000000e+00
	5.000000000000000e+00
	5.000000000000000e+00
	4.999999903854956e+00
	9.373415661793200e-08
	5.000000000000000e+00
	4.686707653668597e-08
	5.000000000000000e+00
	1.186402100809858e+00
	-2.027447908905874e-18
	-3.813598658472122e-04
	-1.044878667909224e-17
	1.544248902621556e-19
	4.687544961356201e-19
37		3.028000000000002e-02
	4.999999855635525e+00
	2.343359472290150e-08
	4.999999848505300e+00
	4.153136995970240e+00
	0.000000000000000e+00
	5.000000000000000e+00
	5.000000000000000e+00
	4.999999903854869e+00
	9.373410936710028e-08
	5.000000000000000e+00
	4.686705425373019e-08
	5.000000000000000e+00
	1.186402100809820e+00
	-1.337474639689161e-18
	-3.813598658473230e-04
	7.155999036200346e-18
	-1.558731375249814e-19
	-4.742511628896495e-19
38		3.128000000000002e-02
	4.999999855635525e+00
	2.343354457961646e-08
	4.999999848505534e+00
	4.153136951696356e+00
	0.000000000000000e+00
	5.000000000000000e+00
	5.000000000000000e+00
	4.999999903854584e+00
	9.373415809548272e-08
	5.000000000000000e+00
	4.686707903946936e-08
	5.000000000000000e+00
	1.186402100809845e+00
	-5.127208406365145e-18
	-3.813598658473232e-04
	-1.340482578589134e-17
	1.580228318544042e-19
	4.810569209498332e-19
39		3.228000000000002e-02
	4.999999855635525e+00
	2.343359627426679e-08
	4.999999848504983e+00
	4.153136989316585e+00
	0.000000000000000e+00
	5.000000000000000e+00
	5.000000000000000e+00
	4.999999903855291e+00
	9.373411094049447e-08
	5.000000000000000e+00
	4.686705549626673e-08
	5.000000000000000e+00
	1.186402100809878e+00
	1.062038777870820e-17
	-3.813598658471011e-04
	1.868507036039703e-17
	-1.597922683533859e-19
	-4.862948287935281e-19
40		3.328000000000002e-02
	4.999999855635525e+00
	2.343354489329576e-08
	4.999999848505596e+00
	4.153137048071227e+00
	0.000000000000000e+00
	5.000000000000000e+00
	5.000000000000000e+00
	4.999999903854529e+00
	9.373415540796237e-08
	5.000000000000000e+00
	4.686707590250986e-08
	5.000000000000000e+00
	1.186402100809791e+00
	-2.040969830379279e-18
	-3.813598658474343e-04
	-1.031469077563004e-17
	1.615713911783931e-19
	4.917862414657161e-19
41		3.428000000000002e-02
	4.999999855635525e+00
	2.343359428016004e-08
	4.999999848505460e+00
	4.153137026927511e+00
	0.000000000000000e+00
	5.000000000000000e+00
	5.000000000000000e+00
	4.999999903854916e+00
	9.373410902969656e-08
	5.000000000000000e+00
	4.686705411670091e-08
	5.000000000000000e+00
	1.186402100809800e+00
	-1.046664819685425e-18
	-3.813598658472120e-04
	7.310000213923019e-18
	-1.632961859693286e-19
	-4.975845750638516e-19
