                                kicad schematic
                                Transient Analysis  Wed Jan 14 19:28:05  2026
--------------------------------------------------------------------------------
Index   time            v2#branch       vv1#branch      
--------------------------------------------------------------------------------
0	0.000000e+00	-1.10174e-03	7.932483e-10	
1	1.000000e-08	-1.10174e-03	-9.72136e-08	
2	2.000000e-08	-1.10174e-03	-1.01434e-07	
3	4.000000e-08	-1.10174e-03	-1.05546e-07	
4	8.000000e-08	-1.10174e-03	-1.11671e-07	
5	1.600000e-07	-1.10171e-03	-1.14440e-07	
6	3.200000e-07	-1.10168e-03	-1.00197e-07	
7	6.400000e-07	-1.10170e-03	-7.68879e-08	
8	1.280000e-06	-1.10172e-03	-6.40105e-08	
9	2.280000e-06	-1.10175e-03	-7.06819e-08	
10	3.280000e-06	-1.10175e-03	-7.76332e-08	
11	4.280000e-06	-1.10175e-03	-7.06226e-08	
12	5.280000e-06	-1.10175e-03	-7.11422e-08	
13	6.280000e-06	-1.10175e-03	-7.04574e-08	
14	7.280000e-06	-1.10175e-03	-7.08662e-08	
15	8.280000e-06	-1.10175e-03	-6.89030e-08	
16	9.280000e-06	-1.10175e-03	-6.91993e-08	
17	1.028000e-05	-1.10175e-03	-6.82863e-08	
18	1.128000e-05	-1.10175e-03	-6.79149e-08	
19	1.228000e-05	-1.10175e-03	-6.73603e-08	
20	1.328000e-05	-1.10175e-03	-6.67941e-08	
21	1.428000e-05	-1.10175e-03	-6.65379e-08	
22	1.528000e-05	-1.10175e-03	-6.57751e-08	
23	1.628000e-05	-1.10175e-03	-6.56990e-08	
24	1.728000e-05	-1.10175e-03	-6.48789e-08	
25	1.828000e-05	-1.10175e-03	-6.48741e-08	
26	1.928000e-05	-1.10175e-03	-6.40619e-08	
27	2.028000e-05	-1.10175e-03	-6.40671e-08	
28	2.128000e-05	-1.10175e-03	-6.33098e-08	
29	2.228000e-05	-1.10175e-03	-6.32831e-08	
30	2.328000e-05	-1.10175e-03	-6.26033e-08	
31	2.428000e-05	-1.10175e-03	-6.25271e-08	
32	2.528000e-05	-1.10175e-03	-6.19292e-08	
33	2.628000e-05	-1.10175e-03	-6.18006e-08	
34	2.728000e-05	-1.10174e-03	-6.12779e-08	
35	2.828000e-05	-1.10174e-03	-6.11036e-08	
36	2.928000e-05	-1.10174e-03	-6.06427e-08	
37	3.028000e-05	-1.10174e-03	-6.04341e-08	
38	3.128000e-05	-1.10174e-03	-6.00195e-08	
39	3.228000e-05	-1.10174e-03	-5.97893e-08	
40	3.328000e-05	-1.10174e-03	-5.94060e-08	
41	3.428000e-05	-1.10174e-03	-5.91655e-08	
42	3.528000e-05	-1.10174e-03	-5.88008e-08	
43	3.628000e-05	-1.10174e-03	-5.85591e-08	
44	3.728000e-05	-1.10174e-03	-5.82033e-08	
45	3.828000e-05	-1.10174e-03	-5.79665e-08	
46	3.928000e-05	-1.10174e-03	-5.76131e-08	
47	4.028000e-05	-1.10174e-03	-5.73847e-08	
48	4.128000e-05	-1.10174e-03	-5.70296e-08	
49	4.228000e-05	-1.10174e-03	-5.68110e-08	
50	4.328000e-05	-1.10174e-03	-5.64524e-08	
51	4.428000e-05	-1.10174e-03	-5.62432e-08	
52	4.528000e-05	-1.10174e-03	-5.58807e-08	
53	4.628000e-05	-1.10174e-03	-5.56798e-08	
54	4.728000e-05	-1.10174e-03	-5.53137e-08	

Index   time            v2#branch       vv1#branch      
--------------------------------------------------------------------------------
55	4.828000e-05	-1.10174e-03	-5.51192e-08	
56	4.928000e-05	-1.10174e-03	-5.47507e-08	
57	5.028000e-05	-1.10174e-03	-5.45607e-08	
58	5.128000e-05	-1.10174e-03	-5.41905e-08	
59	5.228000e-05	-1.10174e-03	-5.40032e-08	
60	5.328000e-05	-1.10174e-03	-5.36324e-08	
61	5.428000e-05	-1.10174e-03	-5.34464e-08	
62	5.528000e-05	-1.10174e-03	-5.30754e-08	
63	5.628000e-05	-1.10174e-03	-5.28895e-08	
64	5.728000e-05	-1.10174e-03	-5.25188e-08	
65	5.828000e-05	-1.10174e-03	-5.23322e-08	
66	5.928000e-05	-1.10174e-03	-5.19619e-08	
67	6.028000e-05	-1.10174e-03	-5.17740e-08	
68	6.128000e-05	-1.10174e-03	-5.14040e-08	
69	6.228000e-05	-1.10174e-03	-5.12146e-08	
70	6.328000e-05	-1.10174e-03	-5.08447e-08	
71	6.428000e-05	-1.10174e-03	-5.06535e-08	
72	6.528000e-05	-1.10174e-03	-5.02834e-08	
73	6.628000e-05	-1.10173e-03	-5.00904e-08	
74	6.728000e-05	-1.10173e-03	-4.97198e-08	
75	6.828000e-05	-1.10173e-03	-4.95250e-08	
76	6.928000e-05	-1.10173e-03	-4.91536e-08	
77	7.028000e-05	-1.10173e-03	-4.89569e-08	
78	7.128000e-05	-1.10173e-03	-4.85844e-08	
79	7.228000e-05	-1.10173e-03	-4.83859e-08	
80	7.328000e-05	-1.10173e-03	-4.80121e-08	
81	7.428000e-05	-1.10173e-03	-4.78118e-08	
82	7.528000e-05	-1.10173e-03	-4.74364e-08	
83	7.628000e-05	-1.10173e-03	-4.72342e-08	
84	7.728000e-05	-1.10173e-03	-4.68572e-08	
85	7.828000e-05	-1.10173e-03	-4.66530e-08	
86	7.928000e-05	-1.10173e-03	-4.62742e-08	
87	8.028000e-05	-1.10173e-03	-4.60680e-08	
88	8.128000e-05	-1.10173e-03	-4.56873e-08	
89	8.228000e-05	-1.10173e-03	-4.54790e-08	
90	8.328000e-05	-1.10173e-03	-4.50965e-08	
91	8.428000e-05	-1.10173e-03	-4.48859e-08	
92	8.528000e-05	-1.10173e-03	-4.45014e-08	
93	8.628000e-05	-1.10173e-03	-4.42887e-08	
94	8.728000e-05	-1.10173e-03	-4.39022e-08	
95	8.828000e-05	-1.10173e-03	-4.36871e-08	
96	8.928000e-05	-1.10173e-03	-4.32986e-08	
97	9.028000e-05	-1.10173e-03	-4.30812e-08	
98	9.128000e-05	-1.10173e-03	-4.26906e-08	
99	9.228000e-05	-1.10173e-03	-4.24708e-08	
100	9.328000e-05	-1.10173e-03	-4.20781e-08	
101	9.428000e-05	-1.10173e-03	-4.18559e-08	
102	9.528000e-05	-1.10173e-03	-4.14611e-08	
103	9.628000e-05	-1.10173e-03	-4.12364e-08	
104	9.728000e-05	-1.10173e-03	-4.08396e-08	
105	9.828000e-05	-1.10173e-03	-4.06123e-08	
106	9.928000e-05	-1.10173e-03	-4.02134e-08	
107	1.002800e-04	-1.10173e-03	-3.99837e-08	
108	1.012800e-04	-1.10173e-03	-3.95826e-08	
109	1.022800e-04	-1.10173e-03	-3.93504e-08	
110	1.032800e-04	-1.10173e-03	-3.89471e-08	
111	1.042800e-04	-1.10173e-03	-3.87124e-08	
112	1.052800e-04	-1.10173e-03	-3.83070e-08	

Index   time            v2#branch       vv1#branch      
--------------------------------------------------------------------------------
113	1.062800e-04	-1.10173e-03	-3.80698e-08	
114	1.072800e-04	-1.10173e-03	-3.76623e-08	
115	1.082800e-04	-1.10173e-03	-3.74225e-08	
116	1.092800e-04	-1.10173e-03	-3.70128e-08	
117	1.102800e-04	-1.10173e-03	-3.67707e-08	
118	1.112800e-04	-1.10173e-03	-3.63588e-08	
119	1.122800e-04	-1.10173e-03	-3.61141e-08	
120	1.132800e-04	-1.10173e-03	-3.57002e-08	
121	1.142800e-04	-1.10173e-03	-3.54530e-08	
122	1.152800e-04	-1.10173e-03	-3.50369e-08	
123	1.162800e-04	-1.10173e-03	-3.47873e-08	
124	1.172800e-04	-1.10173e-03	-3.43691e-08	
125	1.182800e-04	-1.10173e-03	-3.41171e-08	
126	1.192800e-04	-1.10173e-03	-3.36968e-08	
127	1.202800e-04	-1.10173e-03	-3.34423e-08	
128	1.212800e-04	-1.10173e-03	-3.30199e-08	
129	1.222800e-04	-1.10173e-03	-3.27631e-08	
130	1.232800e-04	-1.10173e-03	-3.23386e-08	
131	1.242800e-04	-1.10173e-03	-3.20794e-08	
132	1.252800e-04	-1.10173e-03	-3.16529e-08	
133	1.262800e-04	-1.10173e-03	-3.13914e-08	
134	1.272800e-04	-1.10173e-03	-3.09629e-08	
135	1.282800e-04	-1.10173e-03	-3.06990e-08	
136	1.292800e-04	-1.10173e-03	-3.02685e-08	
137	1.302800e-04	-1.10173e-03	-3.00023e-08	
138	1.312800e-04	-1.10173e-03	-2.95699e-08	
139	1.322800e-04	-1.10173e-03	-2.93014e-08	
140	1.332800e-04	-1.10173e-03	-2.88671e-08	
141	1.342800e-04	-1.10173e-03	-2.85964e-08	
142	1.352800e-04	-1.10173e-03	-2.81601e-08	
143	1.362800e-04	-1.10172e-03	-2.78872e-08	
144	1.372800e-04	-1.10172e-03	-2.74491e-08	
145	1.382800e-04	-1.10172e-03	-2.71740e-08	
146	1.392800e-04	-1.10172e-03	-2.67341e-08	
147	1.402800e-04	-1.10172e-03	-2.64569e-08	
148	1.412800e-04	-1.10172e-03	-2.60152e-08	
149	1.422800e-04	-1.10172e-03	-2.57358e-08	
150	1.432800e-04	-1.10172e-03	-2.52923e-08	
151	1.442800e-04	-1.10172e-03	-2.50109e-08	
152	1.452800e-04	-1.10172e-03	-2.45657e-08	
153	1.462800e-04	-1.10172e-03	-2.42823e-08	
154	1.472800e-04	-1.10172e-03	-2.38354e-08	
155	1.482800e-04	-1.10172e-03	-2.35500e-08	
156	1.492800e-04	-1.10172e-03	-2.31015e-08	
157	1.502800e-04	-1.10172e-03	-2.28141e-08	
158	1.512800e-04	-1.10172e-03	-2.23640e-08	
159	1.522800e-04	-1.10172e-03	-2.20747e-08	
160	1.532800e-04	-1.10172e-03	-2.16230e-08	
161	1.542800e-04	-1.10172e-03	-2.13319e-08	
162	1.552800e-04	-1.10172e-03	-2.08787e-08	
163	1.562800e-04	-1.10172e-03	-2.05857e-08	
164	1.572800e-04	-1.10172e-03	-2.01310e-08	
165	1.582800e-04	-1.10172e-03	-1.98363e-08	
166	1.592800e-04	-1.10172e-03	-1.93802e-08	
167	1.602800e-04	-1.10172e-03	-1.90837e-08	
168	1.612800e-04	-1.10172e-03	-1.86262e-08	
169	1.622800e-04	-1.10172e-03	-1.83281e-08	
170	1.632800e-04	-1.10172e-03	-1.78693e-08	

Index   time            v2#branch       vv1#branch      
--------------------------------------------------------------------------------
171	1.642800e-04	-1.10172e-03	-1.75695e-08	
172	1.652800e-04	-1.10172e-03	-1.71094e-08	
173	1.662800e-04	-1.10172e-03	-1.68080e-08	
174	1.672800e-04	-1.10172e-03	-1.63467e-08	
175	1.682800e-04	-1.10172e-03	-1.60438e-08	
176	1.692800e-04	-1.10172e-03	-1.55813e-08	
177	1.702800e-04	-1.10172e-03	-1.52770e-08	
178	1.712800e-04	-1.10172e-03	-1.48133e-08	
179	1.722800e-04	-1.10172e-03	-1.45075e-08	
180	1.732800e-04	-1.10172e-03	-1.40428e-08	
181	1.742800e-04	-1.10172e-03	-1.37357e-08	
182	1.752800e-04	-1.10172e-03	-1.32699e-08	
183	1.762800e-04	-1.10172e-03	-1.29615e-08	
184	1.772800e-04	-1.10172e-03	-1.24947e-08	
185	1.782800e-04	-1.10172e-03	-1.21850e-08	
186	1.792800e-04	-1.10172e-03	-1.17174e-08	
187	1.802800e-04	-1.10172e-03	-1.14065e-08	
188	1.812800e-04	-1.10172e-03	-1.09381e-08	
189	1.822800e-04	-1.10172e-03	-1.06261e-08	
190	1.832800e-04	-1.10172e-03	-1.01568e-08	
191	1.842800e-04	-1.10172e-03	-9.84375e-09	
192	1.852800e-04	-1.10172e-03	-9.37376e-09	
193	1.862800e-04	-1.10172e-03	-9.05971e-09	
194	1.872800e-04	-1.10172e-03	-8.58907e-09	
195	1.882800e-04	-1.10172e-03	-8.27409e-09	
196	1.892800e-04	-1.10172e-03	-7.80287e-09	
197	1.902800e-04	-1.10172e-03	-7.48703e-09	
198	1.912800e-04	-1.10172e-03	-7.01529e-09	
199	1.922800e-04	-1.10172e-03	-6.69867e-09	
200	1.932800e-04	-1.10172e-03	-6.22649e-09	
201	1.942800e-04	-1.10172e-03	-5.90915e-09	
202	1.952800e-04	-1.10172e-03	-5.43661e-09	
203	1.962800e-04	-1.10172e-03	-5.11863e-09	
204	1.972800e-04	-1.10172e-03	-4.64580e-09	
205	1.982800e-04	-1.10172e-03	-4.32727e-09	
206	1.992800e-04	-1.10172e-03	-3.85423e-09	
207	2.002800e-04	-1.10172e-03	-3.53523e-09	
208	2.012800e-04	-1.10172e-03	-3.06207e-09	
209	2.022800e-04	-1.10172e-03	-2.74268e-09	
210	2.032800e-04	-1.10172e-03	-2.26949e-09	
211	2.042800e-04	-1.10172e-03	-1.94981e-09	
212	2.052800e-04	-1.10172e-03	-1.47666e-09	
213	2.062800e-04	-1.10172e-03	-1.15678e-09	
214	2.072800e-04	-1.10172e-03	-6.83785e-10	
215	2.082800e-04	-1.10172e-03	-3.63799e-10	
216	2.092800e-04	-1.10172e-03	1.089476e-10	
217	2.102800e-04	-1.10172e-03	4.289369e-10	
218	2.112800e-04	-1.10172e-03	9.013321e-10	
219	2.122800e-04	-1.10172e-03	1.221219e-09	
220	2.132800e-04	-1.10172e-03	1.693155e-09	
221	2.142800e-04	-1.10172e-03	2.012829e-09	
222	2.152800e-04	-1.10172e-03	2.484195e-09	
223	2.162800e-04	-1.10172e-03	2.803540e-09	
224	2.172800e-04	-1.10172e-03	3.274218e-09	
225	2.182800e-04	-1.10172e-03	3.593114e-09	
226	2.192800e-04	-1.10172e-03	4.062981e-09	
227	2.202800e-04	-1.10172e-03	4.381302e-09	
228	2.212800e-04	-1.10172e-03	4.850228e-09	

Index   time            v2#branch       vv1#branch      
--------------------------------------------------------------------------------
229	2.222800e-04	-1.10172e-03	5.167841e-09	
230	2.232800e-04	-1.10172e-03	5.635693e-09	
231	2.242800e-04	-1.10172e-03	5.952459e-09	
232	2.252800e-04	-1.10172e-03	6.419094e-09	
233	2.262800e-04	-1.10172e-03	6.734867e-09	
234	2.272800e-04	-1.10172e-03	7.200136e-09	
235	2.282800e-04	-1.10172e-03	7.514764e-09	
236	2.292800e-04	-1.10172e-03	7.978511e-09	
237	2.302800e-04	-1.10172e-03	8.291831e-09	
238	2.312800e-04	-1.10172e-03	8.753893e-09	
239	2.322800e-04	-1.10172e-03	9.065737e-09	
240	2.332800e-04	-1.10172e-03	9.525939e-09	
241	2.342800e-04	-1.10172e-03	9.836131e-09	
242	2.352800e-04	-1.10172e-03	1.029429e-08	
243	2.362800e-04	-1.10172e-03	1.060264e-08	
244	2.372800e-04	-1.10172e-03	1.105857e-08	
245	2.382800e-04	-1.10172e-03	1.136489e-08	
246	2.392800e-04	-1.10172e-03	1.181838e-08	
247	2.402800e-04	-1.10172e-03	1.212245e-08	
248	2.412800e-04	-1.10172e-03	1.257331e-08	
249	2.422800e-04	-1.10172e-03	1.287491e-08	
250	2.432800e-04	-1.10172e-03	1.332290e-08	
251	2.442800e-04	-1.10172e-03	1.362182e-08	
252	2.452800e-04	-1.10172e-03	1.406671e-08	
253	2.462800e-04	-1.10172e-03	1.436270e-08	
254	2.472800e-04	-1.10172e-03	1.480424e-08	
255	2.482800e-04	-1.10172e-03	1.509704e-08	
256	2.492800e-04	-1.10172e-03	1.553498e-08	
257	2.502800e-04	-1.10172e-03	1.582434e-08	
258	2.512800e-04	-1.10172e-03	1.625841e-08	
259	2.522800e-04	-1.10172e-03	1.654405e-08	
260	2.532800e-04	-1.10172e-03	1.697396e-08	
261	2.542800e-04	-1.10172e-03	1.725558e-08	
262	2.552800e-04	-1.10172e-03	1.768104e-08	
263	2.562800e-04	-1.10172e-03	1.795835e-08	
264	2.572800e-04	-1.10172e-03	1.837904e-08	
265	2.582800e-04	-1.10172e-03	1.865172e-08	
266	2.592800e-04	-1.10172e-03	1.906733e-08	
267	2.602800e-04	-1.10172e-03	1.933505e-08	
268	2.612800e-04	-1.10172e-03	1.974524e-08	
269	2.622800e-04	-1.10172e-03	2.000766e-08	
270	2.632800e-04	-1.10172e-03	2.041208e-08	
271	2.642800e-04	-1.10172e-03	2.066883e-08	
272	2.652800e-04	-1.10172e-03	2.106713e-08	
273	2.662800e-04	-1.10172e-03	2.131786e-08	
274	2.672800e-04	-1.10172e-03	2.170966e-08	
275	2.682800e-04	-1.10172e-03	2.195399e-08	
276	2.692800e-04	-1.10172e-03	2.233890e-08	
277	2.702800e-04	-1.10172e-03	2.257644e-08	
278	2.712800e-04	-1.10172e-03	2.295408e-08	
279	2.722800e-04	-1.10172e-03	2.318443e-08	
280	2.732800e-04	-1.10172e-03	2.355441e-08	
281	2.742800e-04	-1.10172e-03	2.377717e-08	
282	2.752800e-04	-1.10172e-03	2.413907e-08	
283	2.762800e-04	-1.10172e-03	2.435384e-08	
284	2.772800e-04	-1.10172e-03	2.470726e-08	
285	2.782800e-04	-1.10172e-03	2.491363e-08	
286	2.792800e-04	-1.10173e-03	2.525815e-08	

Index   time            v2#branch       vv1#branch      
--------------------------------------------------------------------------------
287	2.802800e-04	-1.10173e-03	2.545572e-08	
288	2.812800e-04	-1.10173e-03	2.579095e-08	
289	2.822800e-04	-1.10173e-03	2.597930e-08	
290	2.832800e-04	-1.10173e-03	2.630485e-08	
291	2.842800e-04	-1.10173e-03	2.648360e-08	
292	2.852800e-04	-1.10173e-03	2.679907e-08	
293	2.862800e-04	-1.10173e-03	2.696784e-08	
294	2.872800e-04	-1.10173e-03	2.727286e-08	
295	2.882800e-04	-1.10173e-03	2.743129e-08	
296	2.892800e-04	-1.10173e-03	2.772552e-08	
297	2.902800e-04	-1.10173e-03	2.787327e-08	
298	2.912800e-04	-1.10173e-03	2.815639e-08	
299	2.922800e-04	-1.10173e-03	2.829315e-08	
300	2.932800e-04	-1.10173e-03	2.856486e-08	
301	2.942800e-04	-1.10173e-03	2.869037e-08	
302	2.952800e-04	-1.10173e-03	2.895042e-08	
303	2.962800e-04	-1.10173e-03	2.906445e-08	
304	2.972800e-04	-1.10173e-03	2.931264e-08	
305	2.982800e-04	-1.10173e-03	2.941500e-08	
306	2.992800e-04	-1.10173e-03	2.965118e-08	
307	3.002800e-04	-1.10173e-03	2.974175e-08	
308	3.012800e-04	-1.10173e-03	2.996582e-08	
309	3.022800e-04	-1.10173e-03	3.004453e-08	
310	3.032800e-04	-1.10173e-03	3.025646e-08	
311	3.042800e-04	-1.10173e-03	3.032332e-08	
312	3.052800e-04	-1.10173e-03	3.052315e-08	
313	3.062800e-04	-1.10173e-03	3.057823e-08	
314	3.072800e-04	-1.10173e-03	3.076607e-08	
315	3.082800e-04	-1.10173e-03	3.080953e-08	
316	3.092800e-04	-1.10173e-03	3.098557e-08	
317	3.102800e-04	-1.10173e-03	3.101764e-08	
318	3.112800e-04	-1.10173e-03	3.118216e-08	
319	3.122800e-04	-1.10173e-03	3.120315e-08	
320	3.132800e-04	-1.10173e-03	3.135651e-08	
321	3.142800e-04	-1.10173e-03	3.136682e-08	
322	3.152800e-04	-1.10173e-03	3.150946e-08	
323	3.162800e-04	-1.10173e-03	3.150958e-08	
324	3.172800e-04	-1.10173e-03	3.164202e-08	
325	3.182800e-04	-1.10173e-03	3.163251e-08	
326	3.192800e-04	-1.10173e-03	3.175535e-08	
327	3.202800e-04	-1.10174e-03	3.173685e-08	
328	3.212800e-04	-1.10174e-03	3.185078e-08	
329	3.222800e-04	-1.10174e-03	3.182400e-08	
330	3.232800e-04	-1.10174e-03	3.192976e-08	
331	3.242800e-04	-1.10174e-03	3.189548e-08	
332	3.252800e-04	-1.10174e-03	3.199387e-08	
333	3.262800e-04	-1.10174e-03	3.195292e-08	
334	3.272800e-04	-1.10174e-03	3.204480e-08	
335	3.282800e-04	-1.10174e-03	3.199806e-08	
336	3.292800e-04	-1.10174e-03	3.208432e-08	
337	3.302800e-04	-1.10174e-03	3.203269e-08	
338	3.312800e-04	-1.10174e-03	3.211426e-08	
339	3.322800e-04	-1.10174e-03	3.205867e-08	
340	3.332800e-04	-1.10174e-03	3.213648e-08	
341	3.342800e-04	-1.10174e-03	3.207787e-08	
342	3.352800e-04	-1.10174e-03	3.215286e-08	
343	3.362800e-04	-1.10174e-03	3.209217e-08	
344	3.372800e-04	-1.10174e-03	3.216526e-08	

Index   time            v2#branch       vv1#branch      
--------------------------------------------------------------------------------
345	3.382800e-04	-1.10174e-03	3.210340e-08	
346	3.392800e-04	-1.10174e-03	3.217550e-08	
347	3.402800e-04	-1.10174e-03	3.211336e-08	
348	3.412800e-04	-1.10174e-03	3.218533e-08	
349	3.422800e-04	-1.10174e-03	3.212375e-08	
350	3.432800e-04	-1.10174e-03	3.219642e-08	
351	3.442800e-04	-1.10174e-03	3.213619e-08	
352	3.452800e-04	-1.10174e-03	3.221032e-08	
353	3.462800e-04	-1.10174e-03	3.215219e-08	
354	3.472800e-04	-1.10174e-03	3.222849e-08	
355	3.482800e-04	-1.10174e-03	3.217311e-08	
356	3.492800e-04	-1.10174e-03	3.225221e-08	
357	3.502800e-04	-1.10174e-03	3.220020e-08	
358	3.512800e-04	-1.10174e-03	3.228266e-08	
359	3.522800e-04	-1.10175e-03	3.223452e-08	
360	3.532800e-04	-1.10175e-03	3.232083e-08	
361	3.542800e-04	-1.10175e-03	3.227702e-08	
362	3.552800e-04	-1.10175e-03	3.236757e-08	
363	3.562800e-04	-1.10175e-03	3.232846e-08	
364	3.572800e-04	-1.10175e-03	3.242359e-08	
365	3.582800e-04	-1.10175e-03	3.238946e-08	
366	3.592800e-04	-1.10175e-03	3.248943e-08	
367	3.602800e-04	-1.10175e-03	3.246050e-08	
368	3.612800e-04	-1.10175e-03	3.256549e-08	
369	3.622800e-04	-1.10175e-03	3.254190e-08	
370	3.632800e-04	-1.10175e-03	3.265202e-08	
371	3.642800e-04	-1.10175e-03	3.263386e-08	
372	3.652800e-04	-1.10175e-03	3.274915e-08	
373	3.662800e-04	-1.10175e-03	3.273644e-08	
374	3.672800e-04	-1.10175e-03	3.285690e-08	
375	3.682800e-04	-1.10175e-03	3.284960e-08	
376	3.692800e-04	-1.10175e-03	3.297517e-08	
377	3.702800e-04	-1.10175e-03	3.297318e-08	
378	3.712800e-04	-1.10175e-03	3.310375e-08	
379	3.722800e-04	-1.10175e-03	3.310696e-08	
380	3.732800e-04	-1.10175e-03	3.324238e-08	
381	3.742800e-04	-1.10175e-03	3.325061e-08	
382	3.752800e-04	-1.10175e-03	3.339070e-08	
383	3.762800e-04	-1.10175e-03	3.340376e-08	
384	3.772800e-04	-1.10175e-03	3.354829e-08	
385	3.782800e-04	-1.10175e-03	3.356595e-08	
386	3.792800e-04	-1.10175e-03	3.371470e-08	
387	3.802800e-04	-1.10175e-03	3.373671e-08	
388	3.812800e-04	-1.10175e-03	3.388943e-08	
389	3.822800e-04	-1.10175e-03	3.391552e-08	
390	3.832800e-04	-1.10175e-03	3.407193e-08	
391	3.842800e-04	-1.10175e-03	3.410184e-08	
392	3.852800e-04	-1.10175e-03	3.426166e-08	
393	3.862800e-04	-1.10175e-03	3.429510e-08	
394	3.872800e-04	-1.10175e-03	3.445805e-08	
395	3.882800e-04	-1.10175e-03	3.449474e-08	
396	3.892800e-04	-1.10175e-03	3.466053e-08	
397	3.902800e-04	-1.10175e-03	3.470018e-08	
398	3.912800e-04	-1.10175e-03	3.486852e-08	
399	3.922800e-04	-1.10175e-03	3.491084e-08	
400	3.932800e-04	-1.10175e-03	3.508146e-08	
401	3.942800e-04	-1.10175e-03	3.512617e-08	
402	3.952800e-04	-1.10175e-03	3.529878e-08	

Index   time            v2#branch       vv1#branch      
--------------------------------------------------------------------------------
403	3.962800e-04	-1.10175e-03	3.534560e-08	
404	3.972800e-04	-1.10175e-03	3.551993e-08	
405	3.982800e-04	-1.10175e-03	3.556860e-08	
406	3.992800e-04	-1.10175e-03	3.574439e-08	
407	4.002800e-04	-1.10175e-03	3.579465e-08	
408	4.012800e-04	-1.10175e-03	3.597164e-08	
409	4.022800e-04	-1.10175e-03	3.602323e-08	
410	4.032800e-04	-1.10175e-03	3.620117e-08	
411	4.042800e-04	-1.10175e-03	3.625386e-08	
412	4.052800e-04	-1.10176e-03	3.643252e-08	
413	4.062800e-04	-1.10176e-03	3.648607e-08	
414	4.072800e-04	-1.10176e-03	3.666523e-08	
415	4.082800e-04	-1.10176e-03	3.671943e-08	
