                 * c:\users\aditya\esim-workspace\sram\sram.cir
                 Transient Analysis  Wed Jul 31 18:13:28  2024
--------------------------------------------------------------------------------
Index   time            bl              net-_x1-pad1_   not_bl          
--------------------------------------------------------------------------------
0	0.000000e+00	0.000000e+00	1.800000e+00	1.800000e+00	
1	1.000000e-13	7.200000e-03	1.800000e+00	1.792800e+00	
2	2.000000e-13	1.440000e-02	1.800000e+00	1.785600e+00	
3	4.000000e-13	2.880000e-02	1.800000e+00	1.771200e+00	
4	8.000000e-13	5.760000e-02	1.800000e+00	1.742400e+00	
5	1.600000e-12	1.152000e-01	1.800000e+00	1.684800e+00	
6	3.200000e-12	2.304000e-01	1.800000e+00	1.569600e+00	
7	6.400000e-12	4.608000e-01	1.800000e+00	1.339200e+00	
8	1.280000e-11	9.216000e-01	1.800000e+00	8.784000e-01	
9	2.280000e-11	1.641600e+00	1.800000e+00	1.584000e-01	
10	2.500000e-11	1.800000e+00	1.800000e+00	0.000000e+00	
11	2.600000e-11	1.800000e+00	1.800000e+00	0.000000e+00	
12	2.800000e-11	1.800000e+00	1.800000e+00	0.000000e+00	
13	3.178493e-11	1.800000e+00	1.800000e+00	0.000000e+00	
14	3.935479e-11	1.800000e+00	1.800000e+00	0.000000e+00	
15	4.935479e-11	1.800000e+00	1.800000e+00	0.000000e+00	
16	5.935479e-11	1.800000e+00	1.800000e+00	0.000000e+00	
17	6.935479e-11	1.800000e+00	1.800000e+00	0.000000e+00	
18	7.935479e-11	1.800000e+00	1.800000e+00	0.000000e+00	
19	8.935479e-11	1.800000e+00	1.800000e+00	0.000000e+00	
20	9.935479e-11	1.800000e+00	1.800000e+00	0.000000e+00	
21	1.093548e-10	1.800000e+00	1.800000e+00	0.000000e+00	
22	1.193548e-10	1.800000e+00	1.800000e+00	0.000000e+00	
23	1.293548e-10	1.800000e+00	1.800000e+00	0.000000e+00	
24	1.393548e-10	1.800000e+00	1.800000e+00	0.000000e+00	
25	1.493548e-10	1.800000e+00	1.800000e+00	0.000000e+00	
26	1.593548e-10	1.800000e+00	1.800000e+00	0.000000e+00	
27	1.693548e-10	1.800000e+00	1.800000e+00	0.000000e+00	
28	1.793548e-10	1.800000e+00	1.800000e+00	0.000000e+00	
29	1.893548e-10	1.800000e+00	1.800000e+00	0.000000e+00	
30	1.993548e-10	1.800000e+00	1.800000e+00	0.000000e+00	
31	2.093548e-10	1.800000e+00	1.800000e+00	0.000000e+00	
32	2.193548e-10	1.800000e+00	1.800000e+00	0.000000e+00	
33	2.293548e-10	1.800000e+00	1.800000e+00	0.000000e+00	
34	2.393548e-10	1.800000e+00	1.800000e+00	0.000000e+00	
35	2.493548e-10	1.800000e+00	1.800000e+00	0.000000e+00	
36	2.593548e-10	1.800000e+00	1.800000e+00	0.000000e+00	
37	2.693548e-10	1.800000e+00	1.800000e+00	0.000000e+00	
38	2.793548e-10	1.800000e+00	1.800000e+00	0.000000e+00	
39	2.893548e-10	1.800000e+00	1.800000e+00	0.000000e+00	
40	2.993548e-10	1.800000e+00	1.800000e+00	0.000000e+00	
41	3.093548e-10	1.800000e+00	1.800000e+00	0.000000e+00	
42	3.193548e-10	1.800000e+00	1.800000e+00	0.000000e+00	
43	3.293548e-10	1.800000e+00	1.800000e+00	0.000000e+00	
44	3.393548e-10	1.800000e+00	1.800000e+00	0.000000e+00	
45	3.493548e-10	1.800000e+00	1.800000e+00	0.000000e+00	
46	3.593548e-10	1.800000e+00	1.800000e+00	0.000000e+00	
47	3.693548e-10	1.800000e+00	1.800000e+00	0.000000e+00	
48	3.793548e-10	1.800000e+00	1.800000e+00	0.000000e+00	
49	3.893548e-10	1.800000e+00	1.800000e+00	0.000000e+00	
50	3.993548e-10	1.800000e+00	1.800000e+00	0.000000e+00	
51	4.093548e-10	1.800000e+00	1.800000e+00	0.000000e+00	
52	4.193548e-10	1.800000e+00	1.800000e+00	0.000000e+00	
53	4.293548e-10	1.800000e+00	1.800000e+00	0.000000e+00	
54	4.393548e-10	1.800000e+00	1.800000e+00	0.000000e+00	

Index   time            bl              net-_x1-pad1_   not_bl          
--------------------------------------------------------------------------------
55	4.493548e-10	1.800000e+00	1.800000e+00	0.000000e+00	
56	4.593548e-10	1.800000e+00	1.800000e+00	0.000000e+00	
57	4.693548e-10	1.800000e+00	1.800000e+00	0.000000e+00	
58	4.793548e-10	1.800000e+00	1.800000e+00	0.000000e+00	
59	4.893548e-10	1.800000e+00	1.800000e+00	0.000000e+00	
60	4.993548e-10	1.800000e+00	1.800000e+00	0.000000e+00	
61	5.093548e-10	1.800000e+00	1.800000e+00	0.000000e+00	
62	5.193548e-10	1.800000e+00	1.800000e+00	0.000000e+00	
63	5.293548e-10	1.800000e+00	1.800000e+00	0.000000e+00	
64	5.393548e-10	1.800000e+00	1.800000e+00	0.000000e+00	
65	5.493548e-10	1.800000e+00	1.800000e+00	0.000000e+00	
66	5.593548e-10	1.800000e+00	1.800000e+00	0.000000e+00	
67	5.693548e-10	1.800000e+00	1.800000e+00	0.000000e+00	
68	5.793548e-10	1.800000e+00	1.800000e+00	0.000000e+00	
69	5.893548e-10	1.800000e+00	1.800000e+00	0.000000e+00	
70	5.993548e-10	1.800000e+00	1.800000e+00	0.000000e+00	
71	6.093548e-10	1.800000e+00	1.800000e+00	0.000000e+00	
72	6.193548e-10	1.800000e+00	1.800000e+00	0.000000e+00	
73	6.293548e-10	1.800000e+00	1.800000e+00	0.000000e+00	
74	6.393548e-10	1.800000e+00	1.800000e+00	0.000000e+00	
75	6.493548e-10	1.800000e+00	1.800000e+00	0.000000e+00	
76	6.593548e-10	1.800000e+00	1.800000e+00	0.000000e+00	
77	6.693548e-10	1.800000e+00	1.800000e+00	0.000000e+00	
78	6.793548e-10	1.800000e+00	1.800000e+00	0.000000e+00	
79	6.893548e-10	1.800000e+00	1.800000e+00	0.000000e+00	
80	6.993548e-10	1.800000e+00	1.800000e+00	0.000000e+00	
81	7.093548e-10	1.800000e+00	1.800000e+00	0.000000e+00	
82	7.193548e-10	1.800000e+00	1.800000e+00	0.000000e+00	
83	7.293548e-10	1.800000e+00	1.800000e+00	0.000000e+00	
84	7.393548e-10	1.800000e+00	1.800000e+00	0.000000e+00	
85	7.493548e-10	1.800000e+00	1.800000e+00	0.000000e+00	
86	7.593548e-10	1.800000e+00	1.800000e+00	0.000000e+00	
87	7.693548e-10	1.800000e+00	1.800000e+00	0.000000e+00	
88	7.793548e-10	1.800000e+00	1.800000e+00	0.000000e+00	
89	7.893548e-10	1.800000e+00	1.800000e+00	0.000000e+00	
90	7.993548e-10	1.800000e+00	1.800000e+00	0.000000e+00	
91	8.093548e-10	1.800000e+00	1.800000e+00	0.000000e+00	
92	8.193548e-10	1.800000e+00	1.800000e+00	0.000000e+00	
93	8.293548e-10	1.800000e+00	1.800000e+00	0.000000e+00	
94	8.393548e-10	1.800000e+00	1.800000e+00	0.000000e+00	
95	8.493548e-10	1.800000e+00	1.800000e+00	0.000000e+00	
96	8.593548e-10	1.800000e+00	1.800000e+00	0.000000e+00	
97	8.693548e-10	1.800000e+00	1.800000e+00	0.000000e+00	
98	8.793548e-10	1.800000e+00	1.800000e+00	0.000000e+00	
99	8.893548e-10	1.800000e+00	1.800000e+00	0.000000e+00	
100	8.993548e-10	1.800000e+00	1.800000e+00	0.000000e+00	
101	9.093548e-10	1.800000e+00	1.800000e+00	0.000000e+00	
102	9.193548e-10	1.800000e+00	1.800000e+00	0.000000e+00	
103	9.293548e-10	1.800000e+00	1.800000e+00	0.000000e+00	
104	9.393548e-10	1.800000e+00	1.800000e+00	0.000000e+00	
105	9.493548e-10	1.800000e+00	1.800000e+00	0.000000e+00	
106	9.593548e-10	1.800000e+00	1.800000e+00	0.000000e+00	
107	9.693548e-10	1.800000e+00	1.800000e+00	0.000000e+00	
108	9.793548e-10	1.800000e+00	1.800000e+00	0.000000e+00	
109	9.893548e-10	1.800000e+00	1.800000e+00	0.000000e+00	
110	9.993548e-10	1.800000e+00	1.800000e+00	0.000000e+00	
111	1.009355e-09	1.800000e+00	1.800000e+00	0.000000e+00	
112	1.019355e-09	1.800000e+00	1.800000e+00	0.000000e+00	

Index   time            bl              net-_x1-pad1_   not_bl          
--------------------------------------------------------------------------------
113	1.029355e-09	1.800000e+00	1.800000e+00	0.000000e+00	
114	1.039355e-09	1.800000e+00	1.800000e+00	0.000000e+00	
115	1.049355e-09	1.800000e+00	1.800000e+00	0.000000e+00	
116	1.059355e-09	1.800000e+00	1.800000e+00	0.000000e+00	
117	1.069355e-09	1.800000e+00	1.800000e+00	0.000000e+00	
118	1.079355e-09	1.800000e+00	1.800000e+00	0.000000e+00	
119	1.089355e-09	1.800000e+00	1.800000e+00	0.000000e+00	
120	1.099355e-09	1.800000e+00	1.800000e+00	0.000000e+00	
121	1.109355e-09	1.800000e+00	1.800000e+00	0.000000e+00	
122	1.119355e-09	1.800000e+00	1.800000e+00	0.000000e+00	
123	1.129355e-09	1.800000e+00	1.800000e+00	0.000000e+00	
124	1.139355e-09	1.800000e+00	1.800000e+00	0.000000e+00	
125	1.149355e-09	1.800000e+00	1.800000e+00	0.000000e+00	
126	1.159355e-09	1.800000e+00	1.800000e+00	0.000000e+00	
127	1.169355e-09	1.800000e+00	1.800000e+00	0.000000e+00	
128	1.179355e-09	1.800000e+00	1.800000e+00	0.000000e+00	
129	1.189355e-09	1.800000e+00	1.800000e+00	0.000000e+00	
130	1.199355e-09	1.800000e+00	1.800000e+00	0.000000e+00	
131	1.209355e-09	1.800000e+00	1.800000e+00	0.000000e+00	
132	1.219355e-09	1.800000e+00	1.800000e+00	0.000000e+00	
133	1.229355e-09	1.800000e+00	1.800000e+00	0.000000e+00	
134	1.239355e-09	1.800000e+00	1.800000e+00	0.000000e+00	
135	1.249355e-09	1.800000e+00	1.800000e+00	0.000000e+00	
136	1.259355e-09	1.800000e+00	1.800000e+00	0.000000e+00	
137	1.269355e-09	1.800000e+00	1.800000e+00	0.000000e+00	
138	1.279355e-09	1.800000e+00	1.800000e+00	0.000000e+00	
139	1.289355e-09	1.800000e+00	1.800000e+00	0.000000e+00	
140	1.299355e-09	1.800000e+00	1.800000e+00	0.000000e+00	
141	1.309355e-09	1.800000e+00	1.800000e+00	0.000000e+00	
142	1.319355e-09	1.800000e+00	1.800000e+00	0.000000e+00	
143	1.329355e-09	1.800000e+00	1.800000e+00	0.000000e+00	
144	1.339355e-09	1.800000e+00	1.800000e+00	0.000000e+00	
145	1.349355e-09	1.800000e+00	1.800000e+00	0.000000e+00	
146	1.359355e-09	1.800000e+00	1.800000e+00	0.000000e+00	
147	1.369355e-09	1.800000e+00	1.800000e+00	0.000000e+00	
148	1.379355e-09	1.800000e+00	1.800000e+00	0.000000e+00	
149	1.389355e-09	1.800000e+00	1.800000e+00	0.000000e+00	
150	1.399355e-09	1.800000e+00	1.800000e+00	0.000000e+00	
151	1.409355e-09	1.800000e+00	1.800000e+00	0.000000e+00	
152	1.419355e-09	1.800000e+00	1.800000e+00	0.000000e+00	
153	1.429355e-09	1.800000e+00	1.800000e+00	0.000000e+00	
154	1.439355e-09	1.800000e+00	1.800000e+00	0.000000e+00	
155	1.449355e-09	1.800000e+00	1.800000e+00	0.000000e+00	
156	1.459355e-09	1.800000e+00	1.800000e+00	0.000000e+00	
157	1.469355e-09	1.800000e+00	1.800000e+00	0.000000e+00	
158	1.479355e-09	1.800000e+00	1.800000e+00	0.000000e+00	
159	1.489355e-09	1.800000e+00	1.800000e+00	0.000000e+00	
160	1.499355e-09	1.800000e+00	1.800000e+00	0.000000e+00	
161	1.509355e-09	1.800000e+00	1.800000e+00	0.000000e+00	
162	1.519355e-09	1.800000e+00	1.800000e+00	0.000000e+00	
163	1.529355e-09	1.800000e+00	1.800000e+00	0.000000e+00	
164	1.539355e-09	1.800000e+00	1.800000e+00	0.000000e+00	
165	1.549355e-09	1.800000e+00	1.800000e+00	0.000000e+00	
166	1.559355e-09	1.800000e+00	1.800000e+00	0.000000e+00	
167	1.569355e-09	1.800000e+00	1.800000e+00	0.000000e+00	
168	1.579355e-09	1.800000e+00	1.800000e+00	0.000000e+00	
169	1.589355e-09	1.800000e+00	1.800000e+00	0.000000e+00	
170	1.599355e-09	1.800000e+00	1.800000e+00	0.000000e+00	

Index   time            bl              net-_x1-pad1_   not_bl          
--------------------------------------------------------------------------------
171	1.609355e-09	1.800000e+00	1.800000e+00	0.000000e+00	
172	1.619355e-09	1.800000e+00	1.800000e+00	0.000000e+00	
173	1.629355e-09	1.800000e+00	1.800000e+00	0.000000e+00	
174	1.639355e-09	1.800000e+00	1.800000e+00	0.000000e+00	
175	1.649355e-09	1.800000e+00	1.800000e+00	0.000000e+00	
176	1.659355e-09	1.800000e+00	1.800000e+00	0.000000e+00	
177	1.669355e-09	1.800000e+00	1.800000e+00	0.000000e+00	
178	1.679355e-09	1.800000e+00	1.800000e+00	0.000000e+00	
179	1.689355e-09	1.800000e+00	1.800000e+00	0.000000e+00	
180	1.699355e-09	1.800000e+00	1.800000e+00	0.000000e+00	
181	1.709355e-09	1.800000e+00	1.800000e+00	0.000000e+00	
182	1.719355e-09	1.800000e+00	1.800000e+00	0.000000e+00	
183	1.729355e-09	1.800000e+00	1.800000e+00	0.000000e+00	
184	1.739355e-09	1.800000e+00	1.800000e+00	0.000000e+00	
185	1.749355e-09	1.800000e+00	1.800000e+00	0.000000e+00	
186	1.759355e-09	1.800000e+00	1.800000e+00	0.000000e+00	
187	1.769355e-09	1.800000e+00	1.800000e+00	0.000000e+00	
188	1.779355e-09	1.800000e+00	1.800000e+00	0.000000e+00	
189	1.789355e-09	1.800000e+00	1.800000e+00	0.000000e+00	
190	1.799355e-09	1.800000e+00	1.800000e+00	0.000000e+00	
191	1.809355e-09	1.800000e+00	1.800000e+00	0.000000e+00	
192	1.819355e-09	1.800000e+00	1.800000e+00	0.000000e+00	
193	1.829355e-09	1.800000e+00	1.800000e+00	0.000000e+00	
194	1.839355e-09	1.800000e+00	1.800000e+00	0.000000e+00	
195	1.849355e-09	1.800000e+00	1.800000e+00	0.000000e+00	
196	1.859355e-09	1.800000e+00	1.800000e+00	0.000000e+00	
197	1.869355e-09	1.800000e+00	1.800000e+00	0.000000e+00	
198	1.879355e-09	1.800000e+00	1.800000e+00	0.000000e+00	
199	1.889355e-09	1.800000e+00	1.800000e+00	0.000000e+00	
200	1.899355e-09	1.800000e+00	1.800000e+00	0.000000e+00	
201	1.909355e-09	1.800000e+00	1.800000e+00	0.000000e+00	
202	1.919355e-09	1.800000e+00	1.800000e+00	0.000000e+00	
203	1.929355e-09	1.800000e+00	1.800000e+00	0.000000e+00	
204	1.939355e-09	1.800000e+00	1.800000e+00	0.000000e+00	
205	1.949355e-09	1.800000e+00	1.800000e+00	0.000000e+00	
206	1.959355e-09	1.800000e+00	1.800000e+00	0.000000e+00	
207	1.969355e-09	1.800000e+00	1.800000e+00	0.000000e+00	
208	1.979355e-09	1.800000e+00	1.800000e+00	0.000000e+00	
209	1.989355e-09	1.800000e+00	1.800000e+00	0.000000e+00	
210	1.999355e-09	1.800000e+00	1.800000e+00	0.000000e+00	
211	2.009355e-09	1.800000e+00	1.800000e+00	0.000000e+00	
212	2.019355e-09	1.800000e+00	1.800000e+00	0.000000e+00	
213	2.029355e-09	1.800000e+00	1.800000e+00	0.000000e+00	
214	2.039355e-09	1.800000e+00	1.800000e+00	0.000000e+00	
215	2.049355e-09	1.800000e+00	1.800000e+00	0.000000e+00	
216	2.059355e-09	1.800000e+00	1.800000e+00	0.000000e+00	
217	2.069355e-09	1.800000e+00	1.800000e+00	0.000000e+00	
218	2.079355e-09	1.800000e+00	1.800000e+00	0.000000e+00	
219	2.089355e-09	1.800000e+00	1.800000e+00	0.000000e+00	
220	2.099355e-09	1.800000e+00	1.800000e+00	0.000000e+00	
221	2.109355e-09	1.800000e+00	1.800000e+00	0.000000e+00	
222	2.119355e-09	1.800000e+00	1.800000e+00	0.000000e+00	
223	2.129355e-09	1.800000e+00	1.800000e+00	0.000000e+00	
224	2.139355e-09	1.800000e+00	1.800000e+00	0.000000e+00	
225	2.149355e-09	1.800000e+00	1.800000e+00	0.000000e+00	
226	2.159355e-09	1.800000e+00	1.800000e+00	0.000000e+00	
227	2.169355e-09	1.800000e+00	1.800000e+00	0.000000e+00	
228	2.179355e-09	1.800000e+00	1.800000e+00	0.000000e+00	

Index   time            bl              net-_x1-pad1_   not_bl          
--------------------------------------------------------------------------------
229	2.189355e-09	1.800000e+00	1.800000e+00	0.000000e+00	
230	2.199355e-09	1.800000e+00	1.800000e+00	0.000000e+00	
231	2.209355e-09	1.800000e+00	1.800000e+00	0.000000e+00	
232	2.219355e-09	1.800000e+00	1.800000e+00	0.000000e+00	
233	2.229355e-09	1.800000e+00	1.800000e+00	0.000000e+00	
234	2.239355e-09	1.800000e+00	1.800000e+00	0.000000e+00	
235	2.249355e-09	1.800000e+00	1.800000e+00	0.000000e+00	
236	2.259355e-09	1.800000e+00	1.800000e+00	0.000000e+00	
237	2.269355e-09	1.800000e+00	1.800000e+00	0.000000e+00	
238	2.279355e-09	1.800000e+00	1.800000e+00	0.000000e+00	
239	2.289355e-09	1.800000e+00	1.800000e+00	0.000000e+00	
240	2.299355e-09	1.800000e+00	1.800000e+00	0.000000e+00	
241	2.309355e-09	1.800000e+00	1.800000e+00	0.000000e+00	
242	2.319355e-09	1.800000e+00	1.800000e+00	0.000000e+00	
243	2.329355e-09	1.800000e+00	1.800000e+00	0.000000e+00	
244	2.339355e-09	1.800000e+00	1.800000e+00	0.000000e+00	
245	2.349355e-09	1.800000e+00	1.800000e+00	0.000000e+00	
246	2.359355e-09	1.800000e+00	1.800000e+00	0.000000e+00	
247	2.369355e-09	1.800000e+00	1.800000e+00	0.000000e+00	
248	2.379355e-09	1.800000e+00	1.800000e+00	0.000000e+00	
249	2.389355e-09	1.800000e+00	1.800000e+00	0.000000e+00	
250	2.399355e-09	1.800000e+00	1.800000e+00	0.000000e+00	
251	2.409355e-09	1.800000e+00	1.800000e+00	0.000000e+00	
252	2.419355e-09	1.800000e+00	1.800000e+00	0.000000e+00	
253	2.429355e-09	1.800000e+00	1.800000e+00	0.000000e+00	
254	2.439355e-09	1.800000e+00	1.800000e+00	0.000000e+00	
255	2.449355e-09	1.800000e+00	1.800000e+00	0.000000e+00	
256	2.459355e-09	1.800000e+00	1.800000e+00	0.000000e+00	
257	2.469355e-09	1.800000e+00	1.800000e+00	0.000000e+00	
258	2.479355e-09	1.800000e+00	1.800000e+00	0.000000e+00	
259	2.489355e-09	1.800000e+00	1.800000e+00	0.000000e+00	
260	2.499355e-09	1.800000e+00	1.800000e+00	0.000000e+00	
261	2.509355e-09	1.800000e+00	1.800000e+00	0.000000e+00	
262	2.519355e-09	1.800000e+00	1.800000e+00	0.000000e+00	
263	2.529355e-09	1.800000e+00	1.800000e+00	0.000000e+00	
264	2.539355e-09	1.800000e+00	1.800000e+00	0.000000e+00	
265	2.549355e-09	1.800000e+00	1.800000e+00	0.000000e+00	
266	2.559355e-09	1.800000e+00	1.800000e+00	0.000000e+00	
267	2.569355e-09	1.800000e+00	1.800000e+00	0.000000e+00	
268	2.579355e-09	1.800000e+00	1.800000e+00	0.000000e+00	
269	2.589355e-09	1.800000e+00	1.800000e+00	0.000000e+00	
270	2.599355e-09	1.800000e+00	1.800000e+00	0.000000e+00	
271	2.609355e-09	1.800000e+00	1.800000e+00	0.000000e+00	
272	2.619355e-09	1.800000e+00	1.800000e+00	0.000000e+00	
273	2.629355e-09	1.800000e+00	1.800000e+00	0.000000e+00	
274	2.639355e-09	1.800000e+00	1.800000e+00	0.000000e+00	
275	2.649355e-09	1.800000e+00	1.800000e+00	0.000000e+00	
276	2.659355e-09	1.800000e+00	1.800000e+00	0.000000e+00	
277	2.669355e-09	1.800000e+00	1.800000e+00	0.000000e+00	
278	2.679355e-09	1.800000e+00	1.800000e+00	0.000000e+00	
279	2.689355e-09	1.800000e+00	1.800000e+00	0.000000e+00	
280	2.699355e-09	1.800000e+00	1.800000e+00	0.000000e+00	
281	2.709355e-09	1.800000e+00	1.800000e+00	0.000000e+00	
282	2.719355e-09	1.800000e+00	1.800000e+00	0.000000e+00	
283	2.729355e-09	1.800000e+00	1.800000e+00	0.000000e+00	
284	2.739355e-09	1.800000e+00	1.800000e+00	0.000000e+00	
285	2.749355e-09	1.800000e+00	1.800000e+00	0.000000e+00	
286	2.759355e-09	1.800000e+00	1.800000e+00	0.000000e+00	

Index   time            bl              net-_x1-pad1_   not_bl          
--------------------------------------------------------------------------------
287	2.769355e-09	1.800000e+00	1.800000e+00	0.000000e+00	
288	2.779355e-09	1.800000e+00	1.800000e+00	0.000000e+00	
289	2.789355e-09	1.800000e+00	1.800000e+00	0.000000e+00	
290	2.799355e-09	1.800000e+00	1.800000e+00	0.000000e+00	
291	2.809355e-09	1.800000e+00	1.800000e+00	0.000000e+00	
292	2.819355e-09	1.800000e+00	1.800000e+00	0.000000e+00	
293	2.829355e-09	1.800000e+00	1.800000e+00	0.000000e+00	
294	2.839355e-09	1.800000e+00	1.800000e+00	0.000000e+00	
295	2.849355e-09	1.800000e+00	1.800000e+00	0.000000e+00	
296	2.859355e-09	1.800000e+00	1.800000e+00	0.000000e+00	
297	2.869355e-09	1.800000e+00	1.800000e+00	0.000000e+00	
298	2.879355e-09	1.800000e+00	1.800000e+00	0.000000e+00	
299	2.889355e-09	1.800000e+00	1.800000e+00	0.000000e+00	
300	2.899355e-09	1.800000e+00	1.800000e+00	0.000000e+00	
301	2.909355e-09	1.800000e+00	1.800000e+00	0.000000e+00	
302	2.919355e-09	1.800000e+00	1.800000e+00	0.000000e+00	
303	2.929355e-09	1.800000e+00	1.800000e+00	0.000000e+00	
304	2.939355e-09	1.800000e+00	1.800000e+00	0.000000e+00	
305	2.949355e-09	1.800000e+00	1.800000e+00	0.000000e+00	
306	2.959355e-09	1.800000e+00	1.800000e+00	0.000000e+00	
307	2.969355e-09	1.800000e+00	1.800000e+00	0.000000e+00	
308	2.979355e-09	1.800000e+00	1.800000e+00	0.000000e+00	
309	2.989355e-09	1.800000e+00	1.800000e+00	0.000000e+00	
310	2.999355e-09	1.800000e+00	1.800000e+00	0.000000e+00	
311	3.009355e-09	1.800000e+00	1.800000e+00	0.000000e+00	
312	3.019355e-09	1.800000e+00	1.800000e+00	0.000000e+00	
313	3.029355e-09	1.800000e+00	1.800000e+00	0.000000e+00	
314	3.039355e-09	1.800000e+00	1.800000e+00	0.000000e+00	
315	3.049355e-09	1.800000e+00	1.800000e+00	0.000000e+00	
316	3.059355e-09	1.800000e+00	1.800000e+00	0.000000e+00	
317	3.069355e-09	1.800000e+00	1.800000e+00	0.000000e+00	
318	3.079355e-09	1.800000e+00	1.800000e+00	0.000000e+00	
319	3.089355e-09	1.800000e+00	1.800000e+00	0.000000e+00	
320	3.099355e-09	1.800000e+00	1.800000e+00	0.000000e+00	
321	3.109355e-09	1.800000e+00	1.800000e+00	0.000000e+00	
322	3.119355e-09	1.800000e+00	1.800000e+00	0.000000e+00	
323	3.129355e-09	1.800000e+00	1.800000e+00	0.000000e+00	
324	3.139355e-09	1.800000e+00	1.800000e+00	0.000000e+00	
325	3.149355e-09	1.800000e+00	1.800000e+00	0.000000e+00	
