     * /home/bhargav/downloads/esim-1.1.2/src/subcircuitlibrary/ujt/ujt.cir
     Transient Analysis  Sat Jun 15 16:01:36  2019
--------------------------------------------------------------------------------
Index   time            V(1)            V(2)            V(3)            
--------------------------------------------------------------------------------
0	0.000000e+00	6.088894e-52	-2.80622e-43	-2.80622e-43	
1	1.000000e-05	-2.51069e-46	-2.80871e-43	-2.80871e-43	
2	2.000000e-05	-2.51068e-46	-2.80868e-43	-2.80868e-43	
3	4.000000e-05	-2.51147e-46	-2.80860e-43	-2.80860e-43	
4	8.000000e-05	1.691803e-50	-2.80589e-43	-2.80589e-43	
5	1.600000e-04	-1.19543e-50	-2.80543e-43	-2.80543e-43	
6	3.200000e-04	-2.36974e-50	-2.80438e-43	-2.80438e-43	
7	6.400000e-04	4.520590e-52	-2.80203e-43	-2.80203e-43	
8	1.280000e-03	-2.71395e-46	-2.79955e-43	-2.79955e-43	
9	2.560000e-03	-3.13629e-46	-2.78870e-43	-2.78870e-43	
10	4.560000e-03	-5.10465e-52	-2.76667e-43	-2.76667e-43	
11	6.560000e-03	-2.20180e-52	-2.74650e-43	-2.74650e-43	
12	8.560000e-03	2.805351e-52	-2.72507e-43	-2.72507e-43	
13	1.056000e-02	-6.11918e-52	-2.70239e-43	-2.70239e-43	
14	1.256000e-02	-1.35091e-52	-2.67846e-43	-2.67846e-43	
15	1.456000e-02	6.127039e-53	-2.65331e-43	-2.65331e-43	
16	1.656000e-02	-6.60318e-52	-2.62693e-43	-2.62693e-43	
17	1.856000e-02	-2.70241e-52	-2.59936e-43	-2.59936e-43	
18	2.056000e-02	6.713684e-53	-2.57059e-43	-2.57059e-43	
19	2.256000e-02	-1.55773e-52	-2.54064e-43	-2.54064e-43	
20	2.456000e-02	3.929090e-53	-2.50953e-43	-2.50953e-43	
21	2.656000e-02	-5.71836e-52	-2.47727e-43	-2.47727e-43	
22	2.856000e-02	-1.42047e-52	-2.44388e-43	-2.44388e-43	
23	3.056000e-02	-4.85310e-52	-2.40937e-43	-2.40937e-43	
24	3.256000e-02	3.962144e-52	-2.37377e-43	-2.37377e-43	
25	3.456000e-02	-7.13895e-52	-2.33707e-43	-2.33707e-43	
26	3.656000e-02	-3.25981e-52	-2.29932e-43	-2.29932e-43	
27	3.856000e-02	-3.11521e-52	-2.26051e-43	-2.26051e-43	
28	4.056000e-02	2.279041e-52	-2.22068e-43	-2.22068e-43	
29	4.256000e-02	-4.09991e-52	-2.17983e-43	-2.17983e-43	
30	4.456000e-02	6.197036e-53	-2.13800e-43	-2.13800e-43	
31	4.656000e-02	-4.88067e-52	-2.09519e-43	-2.09519e-43	
32	4.856000e-02	-5.64247e-52	-2.05144e-43	-2.05144e-43	
33	5.056000e-02	-4.96151e-52	-2.00675e-43	-2.00675e-43	
34	5.256000e-02	-4.23061e-52	-1.96115e-43	-1.96115e-43	
35	5.456000e-02	2.057927e-52	-1.91467e-43	-1.91467e-43	
36	5.656000e-02	-6.33244e-52	-1.86732e-43	-1.86732e-43	
37	5.856000e-02	-3.34770e-52	-1.81913e-43	-1.81913e-43	
38	6.056000e-02	-2.07109e-52	-1.77011e-43	-1.77011e-43	
39	6.256000e-02	1.985474e-52	-1.72030e-43	-1.72030e-43	
40	6.456000e-02	-2.45836e-52	-1.66972e-43	-1.66972e-43	
41	6.656000e-02	-1.04902e-52	-1.61839e-43	-1.61839e-43	
42	6.856000e-02	-2.43454e-52	-1.56633e-43	-1.56633e-43	
43	7.056000e-02	-9.13597e-53	-1.51357e-43	-1.51357e-43	
44	7.256000e-02	-2.89902e-52	-1.46013e-43	-1.46013e-43	
45	7.456000e-02	-1.08625e-52	-1.40604e-43	-1.40604e-43	
46	7.656000e-02	-1.19143e-52	-1.35132e-43	-1.35132e-43	
47	7.856000e-02	-3.87284e-52	-1.29600e-43	-1.29600e-43	
48	8.056000e-02	-1.76399e-52	-1.24011e-43	-1.24011e-43	
49	8.256000e-02	9.167300e-53	-1.18367e-43	-1.18367e-43	
50	8.456000e-02	-1.40774e-52	-1.12671e-43	-1.12671e-43	
51	8.656000e-02	1.945441e-52	-1.06925e-43	-1.06925e-43	
52	8.856000e-02	-7.42845e-53	-1.01132e-43	-1.01132e-43	
53	9.056000e-02	-3.70259e-52	-9.52954e-44	-9.52954e-44	
54	9.256000e-02	-5.23530e-54	-8.94171e-44	-8.94171e-44	

Index   time            V(1)            V(2)            V(3)            
--------------------------------------------------------------------------------
55	9.456000e-02	1.749423e-52	-8.35001e-44	-8.35001e-44	
56	9.656000e-02	-1.18682e-52	-7.75471e-44	-7.75471e-44	
57	9.856000e-02	-3.13438e-53	-7.15610e-44	-7.15610e-44	
58	1.000000e-01	6.326077e-47	-6.71639e-44	-6.71639e-44	

     * /home/bhargav/downloads/esim-1.1.2/src/subcircuitlibrary/ujt/ujt.cir
     Transient Analysis  Sat Jun 15 16:01:36  2019
--------------------------------------------------------------------------------
Index   time            V(4)            V(5)            V(6)            
--------------------------------------------------------------------------------
0	0.000000e+00	-2.80622e-43	-2.80622e-43	-1.93630e-118	
1	1.000000e-05	-2.80871e-43	-2.80871e-43	-1.52261e-59	
2	2.000000e-05	-2.80868e-43	-2.80868e-43	-1.52259e-59	
3	4.000000e-05	-2.80860e-43	-2.80860e-43	-1.52255e-59	
4	8.000000e-05	-2.80589e-43	-2.80589e-43	0.000000e+00	
5	1.600000e-04	-2.80543e-43	-2.80543e-43	0.000000e+00	
6	3.200000e-04	-2.80438e-43	-2.80438e-43	0.000000e+00	
7	6.400000e-04	-2.80203e-43	-2.80203e-43	0.000000e+00	
8	1.280000e-03	-2.79955e-43	-2.79955e-43	-3.03528e-59	
9	2.560000e-03	-2.78870e-43	-2.78870e-43	-1.51176e-59	
10	4.560000e-03	-2.76667e-43	-2.76667e-43	0.000000e+00	
11	6.560000e-03	-2.74650e-43	-2.74650e-43	0.000000e+00	
12	8.560000e-03	-2.72507e-43	-2.72507e-43	0.000000e+00	
13	1.056000e-02	-2.70239e-43	-2.70239e-43	0.000000e+00	
14	1.256000e-02	-2.67846e-43	-2.67846e-43	0.000000e+00	
15	1.456000e-02	-2.65331e-43	-2.65331e-43	0.000000e+00	
16	1.656000e-02	-2.62693e-43	-2.62693e-43	0.000000e+00	
17	1.856000e-02	-2.59936e-43	-2.59936e-43	0.000000e+00	
18	2.056000e-02	-2.57059e-43	-2.57059e-43	0.000000e+00	
19	2.256000e-02	-2.54064e-43	-2.54064e-43	0.000000e+00	
20	2.456000e-02	-2.50953e-43	-2.50953e-43	0.000000e+00	
21	2.656000e-02	-2.47727e-43	-2.47727e-43	0.000000e+00	
22	2.856000e-02	-2.44388e-43	-2.44388e-43	0.000000e+00	
23	3.056000e-02	-2.40937e-43	-2.40937e-43	0.000000e+00	
24	3.256000e-02	-2.37377e-43	-2.37377e-43	0.000000e+00	
25	3.456000e-02	-2.33707e-43	-2.33707e-43	0.000000e+00	
26	3.656000e-02	-2.29932e-43	-2.29932e-43	0.000000e+00	
27	3.856000e-02	-2.26051e-43	-2.26051e-43	0.000000e+00	
28	4.056000e-02	-2.22068e-43	-2.22068e-43	0.000000e+00	
29	4.256000e-02	-2.17983e-43	-2.17983e-43	0.000000e+00	
30	4.456000e-02	-2.13800e-43	-2.13800e-43	0.000000e+00	
31	4.656000e-02	-2.09519e-43	-2.09519e-43	0.000000e+00	
32	4.856000e-02	-2.05144e-43	-2.05144e-43	0.000000e+00	
33	5.056000e-02	-2.00675e-43	-2.00675e-43	0.000000e+00	
34	5.256000e-02	-1.96115e-43	-1.96115e-43	0.000000e+00	
35	5.456000e-02	-1.91467e-43	-1.91467e-43	0.000000e+00	
36	5.656000e-02	-1.86732e-43	-1.86732e-43	0.000000e+00	
37	5.856000e-02	-1.81913e-43	-1.81913e-43	0.000000e+00	
38	6.056000e-02	-1.77011e-43	-1.77011e-43	0.000000e+00	
39	6.256000e-02	-1.72030e-43	-1.72030e-43	0.000000e+00	
40	6.456000e-02	-1.66972e-43	-1.66972e-43	0.000000e+00	
41	6.656000e-02	-1.61839e-43	-1.61839e-43	0.000000e+00	
42	6.856000e-02	-1.56633e-43	-1.56633e-43	0.000000e+00	
43	7.056000e-02	-1.51357e-43	-1.51357e-43	0.000000e+00	
44	7.256000e-02	-1.46013e-43	-1.46013e-43	0.000000e+00	
45	7.456000e-02	-1.40604e-43	-1.40604e-43	0.000000e+00	
46	7.656000e-02	-1.35132e-43	-1.35132e-43	0.000000e+00	
47	7.856000e-02	-1.29600e-43	-1.29600e-43	0.000000e+00	
48	8.056000e-02	-1.24011e-43	-1.24011e-43	0.000000e+00	
49	8.256000e-02	-1.18367e-43	-1.18367e-43	0.000000e+00	
50	8.456000e-02	-1.12671e-43	-1.12671e-43	0.000000e+00	
51	8.656000e-02	-1.06925e-43	-1.06925e-43	0.000000e+00	
52	8.856000e-02	-1.01132e-43	-1.01132e-43	0.000000e+00	
53	9.056000e-02	-9.52954e-44	-9.52954e-44	0.000000e+00	
54	9.256000e-02	-8.94171e-44	-8.94171e-44	0.000000e+00	

Index   time            V(4)            V(5)            V(6)            
--------------------------------------------------------------------------------
55	9.456000e-02	-8.35001e-44	-8.35001e-44	0.000000e+00	
56	9.656000e-02	-7.75471e-44	-7.75471e-44	0.000000e+00	
57	9.856000e-02	-7.15610e-44	-7.15610e-44	0.000000e+00	
58	1.000000e-01	-6.71639e-44	-6.71639e-44	-3.64096e-60	

     * /home/bhargav/downloads/esim-1.1.2/src/subcircuitlibrary/ujt/ujt.cir
     Transient Analysis  Sat Jun 15 16:01:36  2019
--------------------------------------------------------------------------------
Index   time            V(7)            
--------------------------------------------------------------------------------
0	0.000000e+00	-2.80622e-43	
1	1.000000e-05	-2.80871e-43	
2	2.000000e-05	-2.80868e-43	
3	4.000000e-05	-2.80860e-43	
4	8.000000e-05	-2.80589e-43	
5	1.600000e-04	-2.80543e-43	
6	3.200000e-04	-2.80438e-43	
7	6.400000e-04	-2.80203e-43	
8	1.280000e-03	-2.79955e-43	
9	2.560000e-03	-2.78870e-43	
10	4.560000e-03	-2.76667e-43	
11	6.560000e-03	-2.74650e-43	
12	8.560000e-03	-2.72507e-43	
13	1.056000e-02	-2.70239e-43	
14	1.256000e-02	-2.67846e-43	
15	1.456000e-02	-2.65331e-43	
16	1.656000e-02	-2.62693e-43	
17	1.856000e-02	-2.59936e-43	
18	2.056000e-02	-2.57059e-43	
19	2.256000e-02	-2.54064e-43	
20	2.456000e-02	-2.50953e-43	
21	2.656000e-02	-2.47727e-43	
22	2.856000e-02	-2.44388e-43	
23	3.056000e-02	-2.40937e-43	
24	3.256000e-02	-2.37377e-43	
25	3.456000e-02	-2.33707e-43	
26	3.656000e-02	-2.29932e-43	
27	3.856000e-02	-2.26051e-43	
28	4.056000e-02	-2.22068e-43	
29	4.256000e-02	-2.17983e-43	
30	4.456000e-02	-2.13800e-43	
31	4.656000e-02	-2.09519e-43	
32	4.856000e-02	-2.05144e-43	
33	5.056000e-02	-2.00675e-43	
34	5.256000e-02	-1.96115e-43	
35	5.456000e-02	-1.91467e-43	
36	5.656000e-02	-1.86732e-43	
37	5.856000e-02	-1.81913e-43	
38	6.056000e-02	-1.77011e-43	
39	6.256000e-02	-1.72030e-43	
40	6.456000e-02	-1.66972e-43	
41	6.656000e-02	-1.61839e-43	
42	6.856000e-02	-1.56633e-43	
43	7.056000e-02	-1.51357e-43	
44	7.256000e-02	-1.46013e-43	
45	7.456000e-02	-1.40604e-43	
46	7.656000e-02	-1.35132e-43	
47	7.856000e-02	-1.29600e-43	
48	8.056000e-02	-1.24011e-43	
49	8.256000e-02	-1.18367e-43	
50	8.456000e-02	-1.12671e-43	
51	8.656000e-02	-1.06925e-43	
52	8.856000e-02	-1.01132e-43	
53	9.056000e-02	-9.52954e-44	
54	9.256000e-02	-8.94171e-44	

Index   time            V(7)            
--------------------------------------------------------------------------------
55	9.456000e-02	-8.35001e-44	
56	9.656000e-02	-7.75471e-44	
57	9.856000e-02	-7.15610e-44	
58	1.000000e-01	-6.71639e-44	
