Title: kicad schematic
Date: Sat Dec 06 20:15:48  2025
Plotname: Transient Analysis
Flags: real
No. Variables: 151
No. Points: 59      
Variables:
	0	time	time
	1	v(net-_v_oen1-pad1_)	voltage
	2	v(net-_v_a3-pad1_)	voltage
	3	v(net-_v1-pad1_)	voltage
	4	v(x1.x11.net-_m2-pad1_)	voltage
	5	v(x1.x11.net-_m2-pad2_)	voltage
	6	v(x1.x11.net-_m1-pad1_)	voltage
	7	v(x1.x11.net-_m1-pad2_)	voltage
	8	v(x1.x14.net-_m2-pad1_)	voltage
	9	v(x1.x14.net-_m2-pad2_)	voltage
	10	v(x1.x14.net-_m1-pad1_)	voltage
	11	v(x1.x14.net-_m1-pad2_)	voltage
	12	v(x1.x13.net-_m2-pad1_)	voltage
	13	v(x1.x13.net-_m2-pad2_)	voltage
	14	v(x1.x13.net-_m1-pad1_)	voltage
	15	v(x1.x13.net-_m1-pad2_)	voltage
	16	v(x1.x15.net-_m2-pad1_)	voltage
	17	v(x1.x15.net-_m2-pad2_)	voltage
	18	v(x1.x15.net-_m1-pad1_)	voltage
	19	v(x1.x15.net-_m1-pad2_)	voltage
	20	v(x1.x9.net-_m2-pad1_)	voltage
	21	v(x1.x9.net-_m2-pad2_)	voltage
	22	v(x1.x9.net-_m1-pad1_)	voltage
	23	v(x1.x9.net-_m1-pad2_)	voltage
	24	v(x1.x16.net-_m2-pad1_)	voltage
	25	v(x1.x16.net-_m2-pad2_)	voltage
	26	v(x1.x16.net-_m1-pad1_)	voltage
	27	v(x1.x16.net-_m1-pad2_)	voltage
	28	v(x1.x10.net-_m2-pad1_)	voltage
	29	v(x1.x10.net-_m2-pad2_)	voltage
	30	v(x1.x10.net-_m1-pad1_)	voltage
	31	v(x1.x10.net-_m1-pad2_)	voltage
	32	v(x1.x12.net-_m2-pad1_)	voltage
	33	v(x1.x12.net-_m2-pad2_)	voltage
	34	v(x1.x12.net-_m1-pad1_)	voltage
	35	v(x1.x12.net-_m1-pad2_)	voltage
	36	v(x1.x4.net-_m2-pad1_)	voltage
	37	v(x1.x4.net-_m2-pad2_)	voltage
	38	v(x1.x4.net-_m1-pad1_)	voltage
	39	v(x1.x4.net-_m1-pad2_)	voltage
	40	v(x1.x5.net-_m2-pad1_)	voltage
	41	v(x1.x5.net-_m2-pad2_)	voltage
	42	v(x1.x5.net-_m1-pad1_)	voltage
	43	v(x1.x5.net-_m1-pad2_)	voltage
	44	v(x1.x2.net-_m2-pad1_)	voltage
	45	v(x1.x2.net-_m2-pad2_)	voltage
	46	v(x1.x2.net-_m1-pad1_)	voltage
	47	v(x1.x2.net-_m1-pad2_)	voltage
	48	v(x1.x1.net-_m2-pad1_)	voltage
	49	v(x1.x1.net-_m2-pad2_)	voltage
	50	v(x1.x1.net-_m1-pad1_)	voltage
	51	v(x1.x1.net-_m1-pad2_)	voltage
	52	v(x1.x8.net-_m2-pad1_)	voltage
	53	v(x1.x8.net-_m2-pad2_)	voltage
	54	v(x1.x8.net-_m1-pad1_)	voltage
	55	v(x1.x8.net-_m1-pad2_)	voltage
	56	v(x1.x6.net-_m2-pad1_)	voltage
	57	v(x1.x6.net-_m2-pad2_)	voltage
	58	v(x1.x6.net-_m1-pad1_)	voltage
	59	v(x1.x6.net-_m1-pad2_)	voltage
	60	v(x1.x3.net-_m2-pad1_)	voltage
	61	v(x1.x3.net-_m2-pad2_)	voltage
	62	v(x1.x3.net-_m1-pad1_)	voltage
	63	v(x1.x3.net-_m1-pad2_)	voltage
	64	v(x1.x7.net-_m2-pad1_)	voltage
	65	v(x1.x7.net-_m2-pad2_)	voltage
	66	v(x1.x7.net-_m1-pad1_)	voltage
	67	v(x1.x7.net-_m1-pad2_)	voltage
	68	v(net-_v_b7-pad1_)	voltage
	69	v(net-_v_b6-pad1_)	voltage
	70	v(net-_v_dir1-pad1_)	voltage
	71	v(net-_v_5-pad1_)	voltage
	72	v(net-_v_b4-pad1_)	voltage
	73	v(net-_v_a0-pad1_)	voltage
	74	v(net-_v_a2-pad1_)	voltage
	75	v(net-_v_a1-pad1_)	voltage
	76	v(v_a4)	voltage
	77	v(v_a5)	voltage
	78	v(v_a6)	voltage
	79	v(v_a7)	voltage
	80	v(v_b0)	voltage
	81	v(v_b1)	voltage
	82	v(v_b2)	voltage
	83	v(v_b3)	voltage
	84	i(v_a1)	current
	85	i(v_a2)	current
	86	i(v_a0)	current
	87	i(v_b4)	current
	88	i(v_5)	current
	89	i(v_dir1)	current
	90	i(v_b6)	current
	91	i(v_b7)	current
	92	i(v.x1.v.x7.v1)	current
	93	i(v.x1.v.x3.v1)	current
	94	i(v.x1.v.x6.v1)	current
	95	i(v.x1.v.x8.v1)	current
	96	i(v.x1.v.x1.v1)	current
	97	i(v.x1.v.x2.v1)	current
	98	i(v.x1.v.x5.v1)	current
	99	i(v.x1.v.x4.v1)	current
	100	i(v.x1.v.x12.v1)	current
	101	i(v.x1.v.x10.v1)	current
	102	i(v.x1.v.x16.v1)	current
	103	i(v.x1.v.x9.v1)	current
	104	i(v.x1.v.x15.v1)	current
	105	i(v.x1.v.x13.v1)	current
	106	i(v.x1.v.x14.v1)	current
	107	i(v.x1.v.x11.v1)	current
	108	i(v1)	current
	109	i(v_a3)	current
	110	i(v_oen1)	current
	111	i(a4)	current
	112	i(a4)	current
	113	i(a4)	current
	114	i(a4)	current
	115	i(a2)	current
	116	i(a2)	current
	117	i(a2)	current
	118	i(a2)	current
	119	i(a.x1.a.x7.a4)	current
	120	i(a.x1.a.x7.a2)	current
	121	i(a.x1.a.x3.a4)	current
	122	i(a.x1.a.x3.a2)	current
	123	i(a.x1.a.x6.a4)	current
	124	i(a.x1.a.x6.a2)	current
	125	i(a.x1.a.x8.a4)	current
	126	i(a.x1.a.x8.a2)	current
	127	i(a.x1.a.x1.a4)	current
	128	i(a.x1.a.x1.a2)	current
	129	i(a.x1.a.x2.a4)	current
	130	i(a.x1.a.x2.a2)	current
	131	i(a.x1.a.x5.a4)	current
	132	i(a.x1.a.x5.a2)	current
	133	i(a.x1.a.x4.a4)	current
	134	i(a.x1.a.x4.a2)	current
	135	i(a.x1.a.x12.a4)	current
	136	i(a.x1.a.x12.a2)	current
	137	i(a.x1.a.x10.a4)	current
	138	i(a.x1.a.x10.a2)	current
	139	i(a.x1.a.x16.a4)	current
	140	i(a.x1.a.x16.a2)	current
	141	i(a.x1.a.x9.a4)	current
	142	i(a.x1.a.x9.a2)	current
	143	i(a.x1.a.x15.a4)	current
	144	i(a.x1.a.x15.a2)	current
	145	i(a.x1.a.x13.a4)	current
	146	i(a.x1.a.x13.a2)	current
	147	i(a.x1.a.x14.a4)	current
	148	i(a.x1.a.x14.a2)	current
	149	i(a.x1.a.x11.a4)	current
	150	i(a.x1.a.x11.a2)	current
Values:
0		0.000000000000000e+00
	0.000000000000000e+00
	5.000000000000000e+00
	5.000000000000000e+00
	5.000000000000000e+00
	5.000000000000000e+00
	3.747243324032246e-02
	0.000000000000000e+00
	5.000000000000000e+00
	5.000000000000000e+00
	3.747243324032246e-02
	0.000000000000000e+00
	5.000000000000000e+00
	5.000000000000000e+00
	3.747243324032246e-02
	0.000000000000000e+00
	5.000000000000000e+00
	5.000000000000000e+00
	3.747243324032246e-02
	0.000000000000000e+00
	5.000000000000000e+00
	5.000000000000000e+00
	3.747243324032246e-02
	0.000000000000000e+00
	5.000000000000000e+00
	5.000000000000000e+00
	3.747243324032246e-02
	0.000000000000000e+00
	5.000000000000000e+00
	5.000000000000000e+00
	3.747243324032246e-02
	0.000000000000000e+00
	5.000000000000000e+00
	5.000000000000000e+00
	3.747243324032246e-02
	0.000000000000000e+00
	5.000000000000000e+00
	5.000000000000000e-01
	4.989341535357522e+00
	5.000000000000000e-01
	5.000000000000000e+00
	5.000000000000000e-01
	4.989341535357522e+00
	5.000000000000000e-01
	5.000000000000000e+00
	5.000000000000000e+00
	2.343353602931968e-08
	5.000000000000000e+00
	5.000000000000000e+00
	5.000000000000000e-01
	4.989341535357522e+00
	5.000000000000000e-01
	5.000000000000000e+00
	5.000000000000000e+00
	2.343353602931968e-08
	5.000000000000000e+00
	5.000000000000000e+00
	5.000000000000000e+00
	2.343353602931968e-08
	5.000000000000000e+00
	5.000000000000000e+00
	5.000000000000000e+00
	2.343353602931968e-08
	5.000000000000000e+00
	5.000000000000000e+00
	5.000000000000000e+00
	2.343353602931858e-08
	5.000000000000000e+00
	0.000000000000000e+00
	0.000000000000000e+00
	5.000000000000000e+00
	5.000000000000000e+00
	5.000000000000000e+00
	5.000000000000000e+00
	5.000000000000000e+00
	0.000000000000000e+00
	0.000000000000000e+00
	0.000000000000000e+00
	0.000000000000000e+00
	0.000000000000000e+00
	5.000000000000000e+00
	0.000000000000000e+00
	5.000000000000000e+00
	5.000000000000000e+00
	0.000000000000000e+00
	0.000000000000000e+00
	0.000000000000000e+00
	0.000000000000000e+00
	0.000000000000000e+00
	0.000000000000000e+00
	0.000000000000000e+00
	0.000000000000000e+00
	-8.102962721729966e-12
	-8.102962721729966e-12
	-8.102962721729966e-12
	-8.102962721729966e-12
	-1.518339928068998e-06
	-8.102962721729966e-12
	-1.518339928068998e-06
	-1.518339928068998e-06
	-8.065268267318549e-12
	-8.065268267318549e-12
	-8.065268267318549e-12
	-8.065268267318549e-12
	-8.065268267318549e-12
	-8.065268267318549e-12
	-8.065268267318549e-12
	-8.065268267318549e-12
	0.000000000000000e+00
	0.000000000000000e+00
	0.000000000000000e+00
	0.000000000000000e+00
	0.000000000000000e+00
	0.000000000000000e+00
	0.000000000000000e+00
	0.000000000000000e+00
	0.000000000000000e+00
	0.000000000000000e+00
	0.000000000000000e+00
	0.000000000000000e+00
	0.000000000000000e+00
	0.000000000000000e+00
	0.000000000000000e+00
	0.000000000000000e+00
	0.000000000000000e+00
	0.000000000000000e+00
	0.000000000000000e+00
	0.000000000000000e+00
	0.000000000000000e+00
	0.000000000000000e+00
	0.000000000000000e+00
	0.000000000000000e+00
	0.000000000000000e+00
	0.000000000000000e+00
	0.000000000000000e+00
	0.000000000000000e+00
	0.000000000000000e+00
	0.000000000000000e+00
	0.000000000000000e+00
	0.000000000000000e+00
	0.000000000000000e+00
	0.000000000000000e+00
	0.000000000000000e+00
	0.000000000000000e+00
	0.000000000000000e+00
	0.000000000000000e+00
	0.000000000000000e+00
	0.000000000000000e+00
	0.000000000000000e+00
	0.000000000000000e+00
	0.000000000000000e+00
1		1.000000000000000e-03
	0.000000000000000e+00
	5.000000000000000e+00
	5.000000000000000e+00
	5.000000000000000e+00
	5.000000000000000e+00
	3.747243338778723e-02
	0.000000000000000e+00
	5.000000000000000e+00
	5.000000000000000e+00
	3.747243338778723e-02
	0.000000000000000e+00
	5.000000000000000e+00
	5.000000000000000e+00
	3.747243338778723e-02
	0.000000000000000e+00
	5.000000000000000e+00
	5.000000000000000e+00
	3.747243338778723e-02
	0.000000000000000e+00
	5.000000000000000e+00
	5.000000000000000e+00
	3.747243338778723e-02
	0.000000000000000e+00
	5.000000000000000e+00
	5.000000000000000e+00
	3.747243338778723e-02
	0.000000000000000e+00
	5.000000000000000e+00
	5.000000000000000e+00
	3.747243338778723e-02
	0.000000000000000e+00
	5.000000000000000e+00
	5.000000000000000e+00
	3.747243338778723e-02
	0.000000000000000e+00
	5.000000000000000e+00
	5.000000000000000e-01
	4.989341535356504e+00
	5.000000000000000e-01
	5.000000000000000e+00
	5.000000000000000e-01
	4.989341535356504e+00
	5.000000000000000e-01
	5.000000000000000e+00
	5.000000000000000e+00
	2.343353336088039e-08
	5.000000000000000e+00
	5.000000000000000e+00
	5.000000000000000e-01
	4.989341535356504e+00
	5.000000000000000e-01
	5.000000000000000e+00
	5.000000000000000e+00
	2.343353336088039e-08
	5.000000000000000e+00
	5.000000000000000e+00
	5.000000000000000e+00
	2.343353336088039e-08
	5.000000000000000e+00
	5.000000000000000e+00
	5.000000000000000e+00
	2.343353336088039e-08
	5.000000000000000e+00
	5.000000000000000e+00
	5.000000000000000e+00
	2.343353336087997e-08
	5.000000000000000e+00
	0.000000000000000e+00
	0.000000000000000e+00
	5.000000000000000e+00
	5.000000000000000e+00
	5.000000000000000e+00
	5.000000000000000e+00
	5.000000000000000e+00
	0.000000000000000e+00
	0.000000000000000e+00
	0.000000000000000e+00
	0.000000000000000e+00
	0.000000000000000e+00
	5.000000000000000e+00
	0.000000000000000e+00
	5.000000000000000e+00
	5.000000000000000e+00
	0.000000000000000e+00
	0.000000000000000e+00
	0.000000000000000e+00
	0.000000000000000e+00
	0.000000000000000e+00
	0.000000000000000e+00
	0.000000000000000e+00
	0.000000000000000e+00
	-8.102962721729966e-12
	-8.102962721729966e-12
	-8.102962721729966e-12
	-8.102962721729966e-12
	-1.518339928245860e-06
	-8.102962721729966e-12
	-1.518339928245860e-06
	-1.518339928245860e-06
	-8.065268262181008e-12
	-8.065268262181008e-12
	-8.065268262181008e-12
	-8.065268262181008e-12
	-8.065268262181008e-12
	-8.065268262181008e-12
	-8.065268262181008e-12
	-8.065268262181008e-12
	0.000000000000000e+00
	0.000000000000000e+00
	0.000000000000000e+00
	0.000000000000000e+00
	0.000000000000000e+00
	0.000000000000000e+00
	0.000000000000000e+00
	0.000000000000000e+00
	0.000000000000000e+00
	0.000000000000000e+00
	0.000000000000000e+00
	-1.049687833745695e-22
	-9.966052454404925e-24
	-1.049687656251991e-22
	-9.966052427441906e-24
	-1.049687656251991e-22
	-9.966052427441906e-24
	-1.049687656251991e-22
	-9.966052427441906e-24
	-7.553192968374834e-23
	-4.261634515873199e-20
	-1.049687656251991e-22
	-9.966052427441906e-24
	-7.553192968374834e-23
	-4.261634515873199e-20
	-7.553192968374834e-23
	-4.261634515873199e-20
	1.045705736076912e-20
	9.313795607302452e-21
	1.045705736076912e-20
	9.313795607302452e-21
	1.045705736076912e-20
	9.313795607302452e-21
	1.045705736076912e-20
	9.313795607302452e-21
	1.045705736076912e-20
	9.313795607302452e-21
	1.045705736076912e-20
	9.313795607302452e-21
	1.045705736076912e-20
	9.313795607302452e-21
	1.045705736076912e-20
	9.313795607302452e-21
2		2.000000000000000e-03
	0.000000000000000e+00
	5.000000000000000e+00
	5.000000000000000e+00
	5.000000000000000e+00
	5.000000000000000e+00
	3.747243326452015e-02
	0.000000000000000e+00
	5.000000000000000e+00
	5.000000000000000e+00
	3.747243326452015e-02
	0.000000000000000e+00
	5.000000000000000e+00
	5.000000000000000e+00
	3.747243326452015e-02
	0.000000000000000e+00
	5.000000000000000e+00
	5.000000000000000e+00
	3.747243326452015e-02
	0.000000000000000e+00
	5.000000000000000e+00
	5.000000000000000e+00
	3.747243326452015e-02
	0.000000000000000e+00
	5.000000000000000e+00
	5.000000000000000e+00
	3.747243326452015e-02
	0.000000000000000e+00
	5.000000000000000e+00
	5.000000000000000e+00
	3.747243326452015e-02
	0.000000000000000e+00
	5.000000000000000e+00
	5.000000000000000e+00
	3.747243326452015e-02
	0.000000000000000e+00
	5.000000000000000e+00
	5.000000000000000e-01
	4.989341535356603e+00
	5.000000000000000e-01
	5.000000000000000e+00
	5.000000000000000e-01
	4.989341535356603e+00
	5.000000000000000e-01
	5.000000000000000e+00
	5.000000000000000e+00
	2.343353514499205e-08
	5.000000000000000e+00
	5.000000000000000e+00
	5.000000000000000e-01
	4.989341535356603e+00
	5.000000000000000e-01
	5.000000000000000e+00
	5.000000000000000e+00
	2.343353514499205e-08
	5.000000000000000e+00
	5.000000000000000e+00
	5.000000000000000e+00
	2.343353514499205e-08
	5.000000000000000e+00
	5.000000000000000e+00
	5.000000000000000e+00
	2.343353514499205e-08
	5.000000000000000e+00
	5.000000000000000e+00
	5.000000000000000e+00
	2.343353514499162e-08
	5.000000000000000e+00
	0.000000000000000e+00
	0.000000000000000e+00
	5.000000000000000e+00
	5.000000000000000e+00
	5.000000000000000e+00
	5.000000000000000e+00
	5.000000000000000e+00
	0.000000000000000e+00
	0.000000000000000e+00
	0.000000000000000e+00
	0.000000000000000e+00
	0.000000000000000e+00
	5.000000000000000e+00
	0.000000000000000e+00
	5.000000000000000e+00
	5.000000000000000e+00
	0.000000000000000e+00
	0.000000000000000e+00
	0.000000000000000e+00
	0.000000000000000e+00
	0.000000000000000e+00
	0.000000000000000e+00
	0.000000000000000e+00
	0.000000000000000e+00
	-8.102962721729964e-12
	-8.102962721729964e-12
	-8.102962721729964e-12
	-8.102962721729964e-12
	-1.518339928356910e-06
	-8.102962721729964e-12
	-1.518339928356910e-06
	-1.518339928356910e-06
	-8.065268262304276e-12
	-8.065268262304276e-12
	-8.065268262304276e-12
	-8.065268262304276e-12
	-8.065268262304276e-12
	-8.065268262304276e-12
	-8.065268262304276e-12
	-8.065268262304276e-12
	0.000000000000000e+00
	0.000000000000000e+00
	0.000000000000000e+00
	0.000000000000000e+00
	0.000000000000000e+00
	0.000000000000000e+00
	0.000000000000000e+00
	0.000000000000000e+00
	0.000000000000000e+00
	0.000000000000000e+00
	0.000000000000000e+00
	1.815057940323422e-22
	3.381581927685583e-24
	1.815058121761430e-22
	3.381581955033788e-24
	1.815058121761430e-22
	3.381581955033788e-24
	1.815058121761430e-22
	3.381581955033788e-24
	4.446095792472524e-24
	4.049876279059623e-21
	1.815058121761430e-22
	3.381581955033788e-24
	4.446095792472524e-24
	4.049876279059623e-21
	4.446095792472524e-24
	4.049876279059623e-21
	-8.742639511238091e-21
	-7.793268004780929e-21
	-8.742639511238091e-21
	-7.793268004780929e-21
	-8.742639511238091e-21
	-7.793268004780929e-21
	-8.742639511238091e-21
	-7.793268004780929e-21
	-8.742639511238091e-21
	-7.793268004780929e-21
	-8.742639511238091e-21
	-7.793268004780929e-21
	-8.742639511238091e-21
	-7.793268004780929e-21
	-8.742639511238091e-21
	-7.793268004780929e-21
3		4.000000000000000e-03
	0.000000000000000e+00
	5.000000000000000e+00
	5.000000000000000e+00
	5.000000000000000e+00
	5.000000000000000e+00
	3.747243348870755e-02
	0.000000000000000e+00
	5.000000000000000e+00
	5.000000000000000e+00
	3.747243348870755e-02
	0.000000000000000e+00
	5.000000000000000e+00
	5.000000000000000e+00
	3.747243348870755e-02
	0.000000000000000e+00
	5.000000000000000e+00
	5.000000000000000e+00
	3.747243348870755e-02
	0.000000000000000e+00
	5.000000000000000e+00
	5.000000000000000e+00
	3.747243348870755e-02
	0.000000000000000e+00
	5.000000000000000e+00
	5.000000000000000e+00
	3.747243348870755e-02
	0.000000000000000e+00
	5.000000000000000e+00
	5.000000000000000e+00
	3.747243348870755e-02
	0.000000000000000e+00
	5.000000000000000e+00
	5.000000000000000e+00
	3.747243348870755e-02
	0.000000000000000e+00
	5.000000000000000e+00
	5.000000000000000e-01
	4.989341535355851e+00
	5.000000000000000e-01
	5.000000000000000e+00
	5.000000000000000e-01
	4.989341535355851e+00
	5.000000000000000e-01
	5.000000000000000e+00
	5.000000000000000e+00
	2.343353602535615e-08
	5.000000000000000e+00
	5.000000000000000e+00
	5.000000000000000e-01
	4.989341535355851e+00
	5.000000000000000e-01
	5.000000000000000e+00
	5.000000000000000e+00
	2.343353602535615e-08
	5.000000000000000e+00
	5.000000000000000e+00
	5.000000000000000e+00
	2.343353602535615e-08
	5.000000000000000e+00
	5.000000000000000e+00
	5.000000000000000e+00
	2.343353602535615e-08
	5.000000000000000e+00
	5.000000000000000e+00
	5.000000000000000e+00
	2.343353602535572e-08
	5.000000000000000e+00
	0.000000000000000e+00
	0.000000000000000e+00
	5.000000000000000e+00
	5.000000000000000e+00
	5.000000000000000e+00
	5.000000000000000e+00
	5.000000000000000e+00
	0.000000000000000e+00
	0.000000000000000e+00
	0.000000000000000e+00
	0.000000000000000e+00
	0.000000000000000e+00
	5.000000000000000e+00
	0.000000000000000e+00
	5.000000000000000e+00
	5.000000000000000e+00
	0.000000000000000e+00
	0.000000000000000e+00
	0.000000000000000e+00
	0.000000000000000e+00
	0.000000000000000e+00
	0.000000000000000e+00
	0.000000000000000e+00
	0.000000000000000e+00
	-8.102962721729964e-12
	-8.102962721729964e-12
	-8.102962721729964e-12
	-8.102962721729964e-12
	-1.518339928467930e-06
	-8.102962721729964e-12
	-1.518339928467930e-06
	-1.518339928467930e-06
	-8.065268262080089e-12
	-8.065268262080089e-12
	-8.065268262080089e-12
	-8.065268262080089e-12
	-8.065268262080089e-12
	-8.065268262080089e-12
	-8.065268262080089e-12
	-8.065268262080089e-12
	0.000000000000000e+00
	0.000000000000000e+00
	0.000000000000000e+00
	0.000000000000000e+00
	0.000000000000000e+00
	0.000000000000000e+00
	0.000000000000000e+00
	0.000000000000000e+00
	0.000000000000000e+00
	0.000000000000000e+00
	0.000000000000000e+00
	-4.632333526243561e-23
	4.314188477740664e-23
	-4.632331731585001e-23
	4.314188480456225e-23
	-4.632331731585001e-23
	4.314188480456225e-23
	-4.632331731585001e-23
	4.314188480456225e-23
	-6.881108720675499e-23
	-3.552244422547722e-20
	-4.632331731585001e-23
	4.314188480456225e-23
	-6.881108720675499e-23
	-3.552244422547722e-20
	-6.881108720675499e-23
	-3.552244422547722e-20
	2.463429611470048e-20
	2.195142425128031e-20
	2.463429611470048e-20
	2.195142425128031e-20
	2.463429611470048e-20
	2.195142425128031e-20
	2.463429611470048e-20
	2.195142425128031e-20
	2.463429611470048e-20
	2.195142425128031e-20
	2.463429611470048e-20
	2.195142425128031e-20
	2.463429611470048e-20
	2.195142425128031e-20
	2.463429611470048e-20
	2.195142425128031e-20
4		8.000000000000000e-03
	0.000000000000000e+00
	5.000000000000000e+00
	5.000000000000000e+00
	5.000000000000000e+00
	5.000000000000000e+00
	3.747242804276425e-02
	0.000000000000000e+00
	5.000000000000000e+00
	5.000000000000000e+00
	3.747242804276425e-02
	0.000000000000000e+00
	5.000000000000000e+00
	5.000000000000000e+00
	3.747242804276425e-02
	0.000000000000000e+00
	5.000000000000000e+00
	5.000000000000000e+00
	3.747242804276425e-02
	0.000000000000000e+00
	5.000000000000000e+00
	5.000000000000000e+00
	3.747242804276425e-02
	0.000000000000000e+00
	5.000000000000000e+00
	5.000000000000000e+00
	3.747242804276425e-02
	0.000000000000000e+00
	5.000000000000000e+00
	5.000000000000000e+00
	3.747242804276425e-02
	0.000000000000000e+00
	5.000000000000000e+00
	5.000000000000000e+00
	3.747242804276425e-02
	0.000000000000000e+00
	5.000000000000000e+00
	5.000000000000000e-01
	4.989341535356714e+00
	5.000000000000000e-01
	5.000000000000000e+00
	5.000000000000000e-01
	4.989341535356714e+00
	5.000000000000000e-01
	5.000000000000000e+00
	5.000000000000000e+00
	2.343353513661371e-08
	5.000000000000000e+00
	5.000000000000000e+00
	5.000000000000000e-01
	4.989341535356714e+00
	5.000000000000000e-01
	5.000000000000000e+00
	5.000000000000000e+00
	2.343353513661371e-08
