Title: kicad schematic
Date: Fri Jul 03 20:59:37  2026
Plotname: Transient Analysis
Flags: real
No. Variables: 19
No. Points: 3743    
Variables:
	0	time	time
	1	v(b)	voltage
	2	v(a)	voltage
	3	v(g)	voltage
	4	v(c3)	voltage
	5	v(c2)	voltage
	6	v(c1)	voltage
	7	v(c0)	voltage
	8	v(2y)	voltage
	9	v(1y)	voltage
	10	i(v7)	current
	11	i(v6)	current
	12	i(v5)	current
	13	i(v4)	current
	14	i(v1)	current
	15	i(v3)	current
	16	i(v2)	current
	17	i(a1)	current
	18	i(a1)	current
Values:
0		0.000000000000000e+00
	0.000000000000000e+00
	0.000000000000000e+00
	0.000000000000000e+00
	0.000000000000000e+00
	0.000000000000000e+00
	0.000000000000000e+00
	0.000000000000000e+00
	5.000000000000000e+00
	5.000000000000000e+00
	0.000000000000000e+00
	0.000000000000000e+00
	0.000000000000000e+00
	0.000000000000000e+00
	0.000000000000000e+00
	0.000000000000000e+00
	0.000000000000000e+00
	0.000000000000000e+00
	0.000000000000000e+00
1		1.000000000000001e-07
	5.000000000000000e-02
	5.000000000000000e-02
	0.000000000000000e+00
	5.000000000000000e-02
	5.000000000000000e-02
	5.000000000000000e-02
	5.000000000000000e-02
	5.000000000000000e+00
	5.000000000000000e+00
	0.000000000000000e+00
	0.000000000000000e+00
	0.000000000000000e+00
	0.000000000000000e+00
	0.000000000000000e+00
	0.000000000000000e+00
	0.000000000000000e+00
	0.000000000000000e+00
	0.000000000000000e+00
2		2.000000000000001e-07
	1.000000000000000e-01
	1.000000000000000e-01
	0.000000000000000e+00
	1.000000000000000e-01
	1.000000000000000e-01
	1.000000000000000e-01
	1.000000000000000e-01
	5.000000000000000e+00
	5.000000000000000e+00
	0.000000000000000e+00
	0.000000000000000e+00
	0.000000000000000e+00
	0.000000000000000e+00
	0.000000000000000e+00
	0.000000000000000e+00
	0.000000000000000e+00
	0.000000000000000e+00
	0.000000000000000e+00
3		4.000000000000002e-07
	2.000000000000000e-01
	2.000000000000000e-01
	0.000000000000000e+00
	2.000000000000000e-01
	2.000000000000000e-01
	2.000000000000000e-01
	2.000000000000000e-01
	5.000000000000000e+00
	5.000000000000000e+00
	0.000000000000000e+00
	0.000000000000000e+00
	0.000000000000000e+00
	0.000000000000000e+00
	0.000000000000000e+00
	0.000000000000000e+00
	0.000000000000000e+00
	0.000000000000000e+00
	0.000000000000000e+00
4		8.000000000000005e-07
	4.000000000000000e-01
	4.000000000000000e-01
	0.000000000000000e+00
	4.000000000000000e-01
	4.000000000000000e-01
	4.000000000000000e-01
	4.000000000000000e-01
	5.000000000000000e+00
	5.000000000000000e+00
	0.000000000000000e+00
	0.000000000000000e+00
	0.000000000000000e+00
	0.000000000000000e+00
	0.000000000000000e+00
	0.000000000000000e+00
	0.000000000000000e+00
	0.000000000000000e+00
	0.000000000000000e+00
5		1.600000000000001e-06
	8.000000000000000e-01
	8.000000000000000e-01
	0.000000000000000e+00
	8.000000000000000e-01
	8.000000000000000e-01
	8.000000000000000e-01
	8.000000000000000e-01
	5.000000000000000e+00
	5.000000000000000e+00
	0.000000000000000e+00
	0.000000000000000e+00
	0.000000000000000e+00
	0.000000000000000e+00
	0.000000000000000e+00
	0.000000000000000e+00
	0.000000000000000e+00
	0.000000000000000e+00
	0.000000000000000e+00
6		3.200000000000002e-06
	1.600000000000000e+00
	1.600000000000000e+00
	0.000000000000000e+00
	1.600000000000000e+00
	1.600000000000000e+00
	1.600000000000000e+00
	1.600000000000000e+00
	5.000000000000000e+00
	5.000000000000000e+00
	0.000000000000000e+00
	0.000000000000000e+00
	0.000000000000000e+00
	0.000000000000000e+00
	0.000000000000000e+00
	0.000000000000000e+00
	0.000000000000000e+00
	0.000000000000000e+00
	0.000000000000000e+00
7		3.206000000000002e-06
	1.603000000000000e+00
	1.603000000000000e+00
	0.000000000000000e+00
	1.603000000000000e+00
	1.603000000000000e+00
	1.603000000000000e+00
	1.603000000000000e+00
	5.000000000000000e+00
	5.000000000000000e+00
	0.000000000000000e+00
	0.000000000000000e+00
	0.000000000000000e+00
	0.000000000000000e+00
	0.000000000000000e+00
	0.000000000000000e+00
	0.000000000000000e+00
	0.000000000000000e+00
	0.000000000000000e+00
8		3.206090000000002e-06
	1.603045000000000e+00
	1.603045000000000e+00
	0.000000000000000e+00
	1.603045000000000e+00
	1.603045000000000e+00
	1.603045000000000e+00
	1.603045000000000e+00
	5.000000000000000e+00
	4.550000000000284e+00
	0.000000000000000e+00
	0.000000000000000e+00
	0.000000000000000e+00
	0.000000000000000e+00
	0.000000000000000e+00
	0.000000000000000e+00
	0.000000000000000e+00
	0.000000000000000e+00
	0.000000000000000e+00
9		3.206270000000002e-06
	1.603135000000000e+00
	1.603135000000000e+00
	0.000000000000000e+00
	1.603135000000000e+00
	1.603135000000000e+00
	1.603135000000000e+00
	1.603135000000000e+00
	5.000000000000000e+00
	3.650000000000853e+00
	0.000000000000000e+00
	0.000000000000000e+00
	0.000000000000000e+00
	0.000000000000000e+00
	0.000000000000000e+00
	0.000000000000000e+00
	0.000000000000000e+00
	0.000000000000000e+00
	0.000000000000000e+00
10		3.206630000000002e-06
	1.603315000000000e+00
	1.603315000000000e+00
	0.000000000000000e+00
	1.603315000000000e+00
	1.603315000000000e+00
	1.603315000000000e+00
	1.603315000000000e+00
	5.000000000000000e+00
	1.850000000001990e+00
	0.000000000000000e+00
	0.000000000000000e+00
	0.000000000000000e+00
	0.000000000000000e+00
	0.000000000000000e+00
	0.000000000000000e+00
	0.000000000000000e+00
	0.000000000000000e+00
	0.000000000000000e+00
11		3.206900000000002e-06
	1.603450000000000e+00
	1.603450000000000e+00
	0.000000000000000e+00
	1.603450000000000e+00
	1.603450000000000e+00
	1.603450000000000e+00
	1.603450000000000e+00
	5.000000000000000e+00
	5.000000000007252e-01
	0.000000000000000e+00
	0.000000000000000e+00
	0.000000000000000e+00
	0.000000000000000e+00
	0.000000000000000e+00
	0.000000000000000e+00
	0.000000000000000e+00
	0.000000000000000e+00
	0.000000000000000e+00
12		3.206972000000002e-06
	1.603486000000000e+00
	1.603486000000000e+00
	0.000000000000000e+00
	1.603486000000000e+00
	1.603486000000000e+00
	1.603486000000000e+00
	1.603486000000000e+00
	5.000000000000000e+00
	5.000000000000000e-01
	0.000000000000000e+00
	0.000000000000000e+00
	0.000000000000000e+00
	0.000000000000000e+00
	0.000000000000000e+00
	0.000000000000000e+00
	0.000000000000000e+00
	0.000000000000000e+00
	0.000000000000000e+00
13		3.207116000000002e-06
	1.603558000000000e+00
	1.603558000000000e+00
	0.000000000000000e+00
	1.603558000000000e+00
	1.603558000000000e+00
	1.603558000000000e+00
	1.603558000000000e+00
	5.000000000000000e+00
	5.000000000000000e-01
	0.000000000000000e+00
	0.000000000000000e+00
	0.000000000000000e+00
	0.000000000000000e+00
	0.000000000000000e+00
	0.000000000000000e+00
	0.000000000000000e+00
	0.000000000000000e+00
	0.000000000000000e+00
14		3.207404000000002e-06
	1.603702000000000e+00
	1.603702000000000e+00
	0.000000000000000e+00
	1.603702000000000e+00
	1.603702000000000e+00
	1.603702000000000e+00
	1.603702000000000e+00
	5.000000000000000e+00
	5.000000000000000e-01
	0.000000000000000e+00
	0.000000000000000e+00
	0.000000000000000e+00
	0.000000000000000e+00
	0.000000000000000e+00
	0.000000000000000e+00
	0.000000000000000e+00
	0.000000000000000e+00
	0.000000000000000e+00
15		3.207980000000002e-06
	1.603990000000000e+00
	1.603990000000000e+00
	0.000000000000000e+00
	1.603990000000000e+00
	1.603990000000000e+00
	1.603990000000000e+00
	1.603990000000000e+00
	5.000000000000000e+00
	5.000000000000000e-01
	0.000000000000000e+00
	0.000000000000000e+00
	0.000000000000000e+00
	0.000000000000000e+00
	0.000000000000000e+00
	0.000000000000000e+00
	0.000000000000000e+00
	0.000000000000000e+00
	0.000000000000000e+00
16		3.208000000000003e-06
	1.604000000000000e+00
	1.604000000000000e+00
	0.000000000000000e+00
	1.604000000000000e+00
	1.604000000000000e+00
	1.604000000000000e+00
	1.604000000000000e+00
	5.000000000000000e+00
	5.000000000000000e-01
	0.000000000000000e+00
	0.000000000000000e+00
	0.000000000000000e+00
	0.000000000000000e+00
	0.000000000000000e+00
	0.000000000000000e+00
	0.000000000000000e+00
	0.000000000000000e+00
	0.000000000000000e+00
17		3.208040000000004e-06
	1.604020000000001e+00
	1.604020000000001e+00
	0.000000000000000e+00
	1.604020000000001e+00
	1.604020000000001e+00
	1.604020000000001e+00
	1.604020000000001e+00
	4.799999999994480e+00
	5.000000000000000e-01
	0.000000000000000e+00
	0.000000000000000e+00
	0.000000000000000e+00
	0.000000000000000e+00
	0.000000000000000e+00
	0.000000000000000e+00
	0.000000000000000e+00
	0.000000000000000e+00
	0.000000000000000e+00
18		3.208120000000006e-06
	1.604060000000002e+00
	1.604060000000002e+00
	0.000000000000000e+00
	1.604060000000002e+00
	1.604060000000002e+00
	1.604060000000002e+00
	1.604060000000002e+00
	4.399999999983438e+00
	5.000000000000000e-01
	0.000000000000000e+00
	0.000000000000000e+00
	0.000000000000000e+00
	0.000000000000000e+00
	0.000000000000000e+00
	0.000000000000000e+00
	0.000000000000000e+00
	0.000000000000000e+00
	0.000000000000000e+00
19		3.208280000000010e-06
	1.604140000000004e+00
	1.604140000000004e+00
	0.000000000000000e+00
	1.604140000000004e+00
	1.604140000000004e+00
	1.604140000000004e+00
	1.604140000000004e+00
	3.599999999961356e+00
	5.000000000000000e-01
	0.000000000000000e+00
	0.000000000000000e+00
	0.000000000000000e+00
	0.000000000000000e+00
	0.000000000000000e+00
	0.000000000000000e+00
	0.000000000000000e+00
	0.000000000000000e+00
	0.000000000000000e+00
20		3.208600000000019e-06
	1.604300000000009e+00
	1.604300000000009e+00
	0.000000000000000e+00
	1.604300000000009e+00
	1.604300000000009e+00
	1.604300000000009e+00
	1.604300000000009e+00
	1.999999999917192e+00
	5.000000000000000e-01
	0.000000000000000e+00
	0.000000000000000e+00
	0.000000000000000e+00
	0.000000000000000e+00
	0.000000000000000e+00
	0.000000000000000e+00
	0.000000000000000e+00
	0.000000000000000e+00
	0.000000000000000e+00
21		3.208900000000002e-06
	1.604450000000000e+00
	1.604450000000000e+00
	0.000000000000000e+00
	1.604450000000000e+00
	1.604450000000000e+00
	1.604450000000000e+00
	1.604450000000000e+00
	5.000000000007259e-01
	5.000000000000000e-01
	0.000000000000000e+00
	0.000000000000000e+00
	0.000000000000000e+00
	0.000000000000000e+00
	0.000000000000000e+00
	0.000000000000000e+00
	0.000000000000000e+00
	0.000000000000000e+00
	0.000000000000000e+00
22		3.208964000000004e-06
	1.604482000000001e+00
	1.604482000000001e+00
	0.000000000000000e+00
	1.604482000000001e+00
	1.604482000000001e+00
	1.604482000000001e+00
	1.604482000000001e+00
	5.000000000000000e-01
	5.000000000000000e-01
	0.000000000000000e+00
	0.000000000000000e+00
	0.000000000000000e+00
	0.000000000000000e+00
	0.000000000000000e+00
	0.000000000000000e+00
	0.000000000000000e+00
	0.000000000000000e+00
	0.000000000000000e+00
23		3.209092000000008e-06
	1.604546000000003e+00
	1.604546000000003e+00
	0.000000000000000e+00
	1.604546000000003e+00
	1.604546000000003e+00
	1.604546000000003e+00
	1.604546000000003e+00
	5.000000000000000e-01
	5.000000000000000e-01
	0.000000000000000e+00
	0.000000000000000e+00
	0.000000000000000e+00
	0.000000000000000e+00
	0.000000000000000e+00
	0.000000000000000e+00
	0.000000000000000e+00
	0.000000000000000e+00
	0.000000000000000e+00
24		3.209348000000015e-06
	1.604674000000006e+00
	1.604674000000006e+00
	0.000000000000000e+00
	1.604674000000006e+00
	1.604674000000006e+00
	1.604674000000006e+00
	1.604674000000006e+00
	5.000000000000000e-01
	5.000000000000000e-01
	0.000000000000000e+00
	0.000000000000000e+00
	0.000000000000000e+00
	0.000000000000000e+00
	0.000000000000000e+00
	0.000000000000000e+00
	0.000000000000000e+00
	0.000000000000000e+00
	0.000000000000000e+00
25		3.209860000000029e-06
	1.604930000000014e+00
	1.604930000000014e+00
	0.000000000000000e+00
	1.604930000000014e+00
	1.604930000000014e+00
	1.604930000000014e+00
	1.604930000000014e+00
	5.000000000000000e-01
	5.000000000000000e-01
	0.000000000000000e+00
	0.000000000000000e+00
	0.000000000000000e+00
	0.000000000000000e+00
	0.000000000000000e+00
	0.000000000000000e+00
	0.000000000000000e+00
	0.000000000000000e+00
	0.000000000000000e+00
26		3.210884000000057e-06
	1.605442000000028e+00
	1.605442000000028e+00
	0.000000000000000e+00
	1.605442000000028e+00
	1.605442000000028e+00
	1.605442000000028e+00
	1.605442000000028e+00
	5.000000000000000e-01
	5.000000000000000e-01
	0.000000000000000e+00
	0.000000000000000e+00
	0.000000000000000e+00
	0.000000000000000e+00
	0.000000000000000e+00
	0.000000000000000e+00
	0.000000000000000e+00
	0.000000000000000e+00
	0.000000000000000e+00
27		3.212932000000114e-06
	1.606466000000056e+00
	1.606466000000056e+00
	0.000000000000000e+00
	1.606466000000056e+00
	1.606466000000056e+00
	1.606466000000056e+00
	1.606466000000056e+00
	5.000000000000000e-01
	5.000000000000000e-01
	0.000000000000000e+00
	0.000000000000000e+00
	0.000000000000000e+00
	0.000000000000000e+00
	0.000000000000000e+00
	0.000000000000000e+00
	0.000000000000000e+00
	0.000000000000000e+00
	0.000000000000000e+00
28		3.217028000000227e-06
	1.608514000000112e+00
	1.608514000000112e+00
	0.000000000000000e+00
	1.608514000000112e+00
	1.608514000000112e+00
	1.608514000000112e+00
	1.608514000000112e+00
	5.000000000000000e-01
	5.000000000000000e-01
	0.000000000000000e+00
	0.000000000000000e+00
	0.000000000000000e+00
	0.000000000000000e+00
	0.000000000000000e+00
	0.000000000000000e+00
	0.000000000000000e+00
	0.000000000000000e+00
	0.000000000000000e+00
29		3.225220000000453e-06
	1.612610000000225e+00
	1.612610000000225e+00
	0.000000000000000e+00
	1.612610000000225e+00
	1.612610000000225e+00
	1.612610000000225e+00
	1.612610000000225e+00
	5.000000000000000e-01
	5.000000000000000e-01
	0.000000000000000e+00
	0.000000000000000e+00
	0.000000000000000e+00
	0.000000000000000e+00
	0.000000000000000e+00
	0.000000000000000e+00
	0.000000000000000e+00
	0.000000000000000e+00
	0.000000000000000e+00
30		3.241604000000905e-06
	1.620802000000452e+00
	1.620802000000452e+00
	0.000000000000000e+00
	1.620802000000452e+00
	1.620802000000452e+00
	1.620802000000452e+00
	1.620802000000452e+00
	5.000000000000000e-01
	5.000000000000000e-01
	0.000000000000000e+00
	0.000000000000000e+00
	0.000000000000000e+00
	0.000000000000000e+00
	0.000000000000000e+00
	0.000000000000000e+00
	0.000000000000000e+00
	0.000000000000000e+00
	0.000000000000000e+00
31		3.274372000001810e-06
	1.637186000000904e+00
	1.637186000000904e+00
	0.000000000000000e+00
	1.637186000000904e+00
	1.637186000000904e+00
	1.637186000000904e+00
	1.637186000000904e+00
	5.000000000000000e-01
	5.000000000000000e-01
	0.000000000000000e+00
	0.000000000000000e+00
	0.000000000000000e+00
	0.000000000000000e+00
	0.000000000000000e+00
	0.000000000000000e+00
	0.000000000000000e+00
	0.000000000000000e+00
	0.000000000000000e+00
32		3.339908000003619e-06
	1.669954000001808e+00
	1.669954000001808e+00
	0.000000000000000e+00
	1.669954000001808e+00
	1.669954000001808e+00
	1.669954000001808e+00
	1.669954000001808e+00
	5.000000000000000e-01
	5.000000000000000e-01
	0.000000000000000e+00
	0.000000000000000e+00
	0.000000000000000e+00
	0.000000000000000e+00
	0.000000000000000e+00
	0.000000000000000e+00
	0.000000000000000e+00
	0.000000000000000e+00
	0.000000000000000e+00
33		3.470980000007237e-06
	1.735490000003617e+00
	1.735490000003617e+00
	0.000000000000000e+00
	1.735490000003617e+00
	1.735490000003617e+00
	1.735490000003617e+00
	1.735490000003617e+00
	5.000000000000000e-01
	5.000000000000000e-01
	0.000000000000000e+00
	0.000000000000000e+00
	0.000000000000000e+00
	0.000000000000000e+00
	0.000000000000000e+00
	0.000000000000000e+00
	0.000000000000000e+00
	0.000000000000000e+00
	0.000000000000000e+00
34		3.733124000014473e-06
	1.866562000007235e+00
	1.866562000007235e+00
	0.000000000000000e+00
	1.866562000007235e+00
	1.866562000007235e+00
	1.866562000007235e+00
	1.866562000007235e+00
	5.000000000000000e-01
	5.000000000000000e-01
	0.000000000000000e+00
	0.000000000000000e+00
	0.000000000000000e+00
	0.000000000000000e+00
	0.000000000000000e+00
	0.000000000000000e+00
	0.000000000000000e+00
	0.000000000000000e+00
	0.000000000000000e+00
35		4.257412000028945e-06
	2.128706000014471e+00
	2.128706000014471e+00
	0.000000000000000e+00
	2.128706000014471e+00
	2.128706000014471e+00
	2.128706000014471e+00
	2.128706000014471e+00
	5.000000000000000e-01
	5.000000000000000e-01
	0.000000000000000e+00
	0.000000000000000e+00
	0.000000000000000e+00
	0.000000000000000e+00
	0.000000000000000e+00
	0.000000000000000e+00
	0.000000000000000e+00
	0.000000000000000e+00
	0.000000000000000e+00
36		4.268412000028941e-06
	2.134206000014470e+00
	2.134206000014470e+00
	0.000000000000000e+00
	2.134206000014470e+00
	2.134206000014470e+00
	2.134206000014470e+00
	2.134206000014470e+00
	5.000000000000000e-01
	5.000000000000000e-01
	0.000000000000000e+00
	0.000000000000000e+00
	0.000000000000000e+00
	0.000000000000000e+00
	0.000000000000000e+00
	0.000000000000000e+00
	0.000000000000000e+00
	0.000000000000000e+00
	0.000000000000000e+00
37		4.268422000028941e-06
	2.134211000014469e+00
	2.134211000014469e+00
	0.000000000000000e+00
	2.134211000014469e+00
	2.134211000014469e+00
	2.134211000014469e+00
	2.134211000014469e+00
	4.500000000007375e-01
	4.500000000007375e-01
	0.000000000000000e+00
	0.000000000000000e+00
	0.000000000000000e+00
	0.000000000000000e+00
	0.000000000000000e+00
	0.000000000000000e+00
	0.000000000000000e+00
	0.000000000000000e+00
	0.000000000000000e+00
38		4.268442000028941e-06
	2.134221000014469e+00
	2.134221000014469e+00
	0.000000000000000e+00
	2.134221000014469e+00
	2.134221000014469e+00
	2.134221000014469e+00
	2.134221000014469e+00
	3.500000000022124e-01
	3.500000000022124e-01
	0.000000000000000e+00
	0.000000000000000e+00
	0.000000000000000e+00
	0.000000000000000e+00
	0.000000000000000e+00
	0.000000000000000e+00
	0.000000000000000e+00
	0.000000000000000e+00
	0.000000000000000e+00
39		4.268482000028941e-06
	2.134241000014469e+00
	2.134241000014469e+00
	0.000000000000000e+00
	2.134241000014469e+00
	2.134241000014469e+00
	2.134241000014469e+00
	2.134241000014469e+00
	1.500000000009270e-01
	1.500000000009270e-01
	0.000000000000000e+00
	0.000000000000000e+00
	0.000000000000000e+00
	0.000000000000000e+00
	0.000000000000000e+00
	0.000000000000000e+00
	0.000000000000000e+00
	0.000000000000000e+00
	0.000000000000000e+00
40		4.268512000028942e-06
	2.134256000014469e+00
	2.134256000014469e+00
	0.000000000000000e+00
	2.134256000014469e+00
	2.134256000014469e+00
	2.134256000014469e+00
	2.134256000014469e+00
	0.000000000000000e+00
	0.000000000000000e+00
	0.000000000000000e+00
	0.000000000000000e+00
	0.000000000000000e+00
	0.000000000000000e+00
	0.000000000000000e+00
	0.000000000000000e+00
	0.000000000000000e+00
	0.000000000000000e+00
	0.000000000000000e+00
41		4.268520000028942e-06
	2.134260000014470e+00
	2.134260000014470e+00
	0.000000000000000e+00
	2.134260000014470e+00
	2.134260000014470e+00
	2.134260000014470e+00
	2.134260000014470e+00
	0.000000000000000e+00
	0.000000000000000e+00
	0.000000000000000e+00
	0.000000000000000e+00
	0.000000000000000e+00
	0.000000000000000e+00
	0.000000000000000e+00
	0.000000000000000e+00
	0.000000000000000e+00
	0.000000000000000e+00
	0.000000000000000e+00
42		4.268536000028942e-06
	2.134268000014470e+00
	2.134268000014470e+00
	0.000000000000000e+00
	2.134268000014470e+00
	2.134268000014470e+00
	2.134268000014470e+00
	2.134268000014470e+00
	0.000000000000000e+00
	0.000000000000000e+00
	0.000000000000000e+00
	0.000000000000000e+00
	0.000000000000000e+00
	0.000000000000000e+00
	0.000000000000000e+00
	0.000000000000000e+00
	0.000000000000000e+00
	0.000000000000000e+00
	0.000000000000000e+00
43		4.268568000028942e-06
	2.134284000014470e+00
	2.134284000014470e+00
	0.000000000000000e+00
	2.134284000014470e+00
	2.134284000014470e+00
	2.134284000014470e+00
	2.134284000014470e+00
	0.000000000000000e+00
	0.000000000000000e+00
	0.000000000000000e+00
	0.000000000000000e+00
	0.000000000000000e+00
	0.000000000000000e+00
	0.000000000000000e+00
	0.000000000000000e+00
	0.000000000000000e+00
	0.000000000000000e+00
	0.000000000000000e+00
44		4.268632000028942e-06
	2.134316000014470e+00
	2.134316000014470e+00
	0.000000000000000e+00
	2.134316000014470e+00
	2.134316000014470e+00
	2.134316000014470e+00
