  * /home/bhargav/esim-workspace/7812voltageregulator/7812voltageregulator.cir
  Transient Analysis  Wed Jun 26 12:03:01  2019
--------------------------------------------------------------------------------
Index   time            in1             in2             net-_c1-pad1_   
--------------------------------------------------------------------------------
0	0.000000e+00	-4.85515e-19	-4.85515e-19	3.217007e-19	
1	1.000000e-06	4.712389e-03	-4.71239e-03	3.212494e-19	
2	1.284824e-06	6.054590e-03	-6.05459e-03	1.870749e-14	
3	1.854472e-06	8.738992e-03	-8.73899e-03	7.480522e-14	
4	2.993768e-06	1.410780e-02	-1.41078e-02	3.252321e-13	
5	5.272360e-06	2.484540e-02	-2.48454e-02	1.725064e-12	
6	7.446315e-06	3.508990e-02	-3.50899e-02	4.713729e-12	
7	9.519263e-06	4.485840e-02	-4.48584e-02	9.773653e-12	
8	1.168868e-05	5.508147e-02	-5.50815e-02	1.824331e-11	
9	1.431524e-05	6.745875e-02	-6.74588e-02	3.440542e-11	
10	1.726517e-05	8.135979e-02	-8.13598e-02	6.309187e-11	
11	2.067069e-05	9.740766e-02	-9.74077e-02	1.158737e-10	
12	2.436861e-05	1.148332e-01	-1.14833e-01	2.079040e-10	
13	2.842086e-05	1.339283e-01	-1.33928e-01	3.715132e-10	
14	3.267939e-05	1.539953e-01	-1.53995e-01	6.530044e-10	
15	3.716739e-05	1.751432e-01	-1.75143e-01	1.143552e-09	
16	4.177439e-05	1.968515e-01	-1.96852e-01	1.982858e-09	
17	4.651121e-05	2.191711e-01	-2.19171e-01	3.431994e-09	
18	5.130605e-05	2.417636e-01	-2.41764e-01	5.908449e-09	
19	5.616754e-05	2.646696e-01	-2.64670e-01	1.016659e-08	
20	6.105352e-05	2.876903e-01	-2.87690e-01	1.744551e-08	
21	6.597196e-05	3.108633e-01	-3.10863e-01	2.993736e-08	
22	7.089929e-05	3.340774e-01	-3.34077e-01	5.130222e-08	
23	7.584219e-05	3.573641e-01	-3.57364e-01	8.793253e-08	
24	8.078772e-05	3.806624e-01	-3.80662e-01	1.506082e-07	
25	8.574100e-05	4.039962e-01	-4.03996e-01	2.580102e-07	
26	9.069499e-05	4.273325e-01	-4.27332e-01	4.418327e-07	
27	9.565348e-05	4.506890e-01	-4.50688e-01	7.567408e-07	
28	1.006130e-04	4.740491e-01	-4.74048e-01	1.295820e-06	
29	1.055766e-04	4.974280e-01	-4.97426e-01	2.219162e-06	
30	1.105437e-04	5.208221e-01	-5.20818e-01	3.799980e-06	
31	1.155183e-04	5.442509e-01	-5.44244e-01	6.507351e-06	
32	1.205035e-04	5.677295e-01	-5.67718e-01	1.114289e-05	
33	1.255081e-04	5.912991e-01	-5.91280e-01	1.908163e-05	
34	1.305441e-04	6.150184e-01	-6.14986e-01	3.267624e-05	
35	1.356343e-04	6.389963e-01	-6.38940e-01	5.596477e-05	
36	1.408156e-04	6.634096e-01	-6.63314e-01	9.588365e-05	
37	1.461508e-04	6.885595e-01	-6.88395e-01	1.644390e-04	
38	1.517424e-04	7.149395e-01	-7.14657e-01	2.826815e-04	
39	1.577581e-04	7.433578e-01	-7.42869e-01	4.886677e-04	
40	1.644498e-04	7.750330e-01	-7.74180e-01	8.526170e-04	
41	1.718453e-04	8.101446e-01	-8.08672e-01	1.472117e-03	
42	1.809551e-04	8.535845e-01	-8.50958e-01	2.626085e-03	
43	1.923811e-04	9.084189e-01	-9.03627e-01	4.792163e-03	
44	2.073238e-04	9.807930e-01	-9.71806e-01	8.986803e-03	
45	2.270699e-04	1.077684e+00	-1.06058e+00	1.709960e-02	
46	2.535729e-04	1.210081e+00	-1.17726e+00	3.282194e-02	
47	2.888136e-04	1.390379e+00	-1.32789e+00	6.248645e-02	
48	3.356201e-04	1.637300e+00	-1.51999e+00	1.173123e-01	
49	3.970242e-04	1.973732e+00	-1.75844e+00	2.152937e-01	
50	4.778128e-04	2.436748e+00	-2.04964e+00	3.871106e-01	
51	5.088537e-04	2.620500e+00	-2.15493e+00	4.655670e-01	
52	5.258407e-04	2.722354e+00	-2.21107e+00	5.112868e-01	
53	5.380032e-04	2.795830e+00	-2.25062e+00	5.452060e-01	
54	5.498125e-04	2.867602e+00	-2.28853e+00	5.790719e-01	

Index   time            in1             in2             net-_c1-pad1_   
--------------------------------------------------------------------------------
55	5.638288e-04	2.953329e+00	-2.33289e+00	6.204421e-01	
56	5.771139e-04	3.035118e+00	-2.37430e+00	6.608170e-01	
57	5.963376e-04	3.154370e+00	-2.43316e+00	7.212090e-01	
58	6.285279e-04	3.356372e+00	-2.52895e+00	8.274263e-01	
59	6.756697e-04	3.657202e+00	-2.66312e+00	9.940813e-01	
60	7.543494e-04	4.171559e+00	-2.87165e+00	1.299904e+00	
61	8.234010e-04	4.634571e+00	-3.03954e+00	1.595029e+00	
62	8.842381e-04	5.050560e+00	-3.17642e+00	1.874143e+00	
63	9.120133e-04	5.242794e+00	-3.23561e+00	2.007188e+00	
64	9.297472e-04	5.366242e+00	-3.27235e+00	2.093890e+00	
65	9.412755e-04	5.446777e+00	-3.29581e+00	2.150969e+00	
66	9.499949e-04	5.507837e+00	-3.31333e+00	2.194509e+00	
67	9.563913e-04	5.552708e+00	-3.32606e+00	2.226649e+00	
68	9.626106e-04	5.596399e+00	-3.33834e+00	2.258060e+00	
69	9.689357e-04	5.640897e+00	-3.35073e+00	2.290166e+00	
70	9.770305e-04	5.697937e+00	-3.36645e+00	2.331491e+00	
71	9.860578e-04	5.761667e+00	-3.38378e+00	2.377884e+00	
72	9.937972e-04	5.816404e+00	-3.39849e+00	2.417914e+00	
73	1.001469e-03	5.870748e+00	-3.41292e+00	2.457824e+00	
74	1.010540e-03	5.935124e+00	-3.42981e+00	2.505312e+00	
75	1.021176e-03	6.010754e+00	-3.44936e+00	2.561390e+00	
76	1.031094e-03	6.081415e+00	-3.46735e+00	2.614061e+00	
77	1.040883e-03	6.151299e+00	-3.48489e+00	2.666412e+00	
78	1.051846e-03	6.229721e+00	-3.50426e+00	2.725461e+00	
79	1.063869e-03	6.315908e+00	-3.52519e+00	2.790720e+00	
80	1.077065e-03	6.410718e+00	-3.54778e+00	2.862938e+00	
81	1.092570e-03	6.522398e+00	-3.57383e+00	2.948571e+00	
82	1.112174e-03	6.664023e+00	-3.60600e+00	3.058025e+00	
83	1.132048e-03	6.808051e+00	-3.63775e+00	3.170296e+00	
84	1.154596e-03	6.971994e+00	-3.67276e+00	3.299232e+00	
85	1.180391e-03	7.160196e+00	-3.71150e+00	3.448696e+00	
86	1.209801e-03	7.375573e+00	-3.75400e+00	3.621575e+00	
87	1.241585e-03	7.609216e+00	-3.79797e+00	3.811241e+00	
88	1.277454e-03	7.873887e+00	-3.84524e+00	4.028650e+00	
89	1.293078e-03	7.989482e+00	-3.86505e+00	4.124429e+00	
90	1.303470e-03	8.066460e+00	-3.87798e+00	4.188480e+00	
91	1.309751e-03	8.113030e+00	-3.88570e+00	4.227333e+00	
92	1.313725e-03	8.142502e+00	-3.89054e+00	4.251960e+00	
93	1.316237e-03	8.161133e+00	-3.89359e+00	4.267544e+00	
94	1.317824e-03	8.172911e+00	-3.89551e+00	4.277402e+00	
95	1.319093e-03	8.182326e+00	-3.89704e+00	4.285286e+00	
96	1.320271e-03	8.191073e+00	-3.89846e+00	4.292612e+00	
97	1.321431e-03	8.199682e+00	-3.89986e+00	4.299824e+00	
98	1.322633e-03	8.208595e+00	-3.90130e+00	4.307293e+00	
99	1.323841e-03	8.217563e+00	-3.90276e+00	4.314808e+00	
100	1.325244e-03	8.227968e+00	-3.90444e+00	4.323525e+00	
101	1.327319e-03	8.243352e+00	-3.90695e+00	4.336406e+00	
102	1.329288e-03	8.257930e+00	-3.90933e+00	4.348600e+00	
103	1.331341e-03	8.273112e+00	-3.91183e+00	4.361283e+00	
104	1.334472e-03	8.296234e+00	-3.91567e+00	4.380567e+00	
105	1.339037e-03	8.329855e+00	-3.92133e+00	4.408524e+00	
106	1.344545e-03	8.370250e+00	-3.92830e+00	4.441946e+00	
107	1.350321e-03	8.412372e+00	-3.93582e+00	4.476552e+00	
108	1.354479e-03	8.442523e+00	-3.94137e+00	4.501151e+00	
109	1.357563e-03	8.464800e+00	-3.94556e+00	4.519235e+00	
110	1.359733e-03	8.480435e+00	-3.94854e+00	4.531890e+00	
111	1.360598e-03	8.486661e+00	-3.94973e+00	4.536927e+00	
112	1.361051e-03	8.489928e+00	-3.95035e+00	4.539575e+00	

Index   time            in1             in2             net-_c1-pad1_   
--------------------------------------------------------------------------------
113	1.361404e-03	8.492481e+00	-3.95083e+00	4.541653e+00	
114	1.361652e-03	8.494278e+00	-3.95116e+00	4.543123e+00	
115	1.361961e-03	8.496527e+00	-3.95156e+00	4.544970e+00	
116	1.362318e-03	8.499133e+00	-3.95201e+00	4.547120e+00	
117	1.362721e-03	8.502088e+00	-3.95252e+00	4.549570e+00	
118	1.363215e-03	8.505716e+00	-3.95312e+00	4.552591e+00	
119	1.363802e-03	8.510035e+00	-3.95383e+00	4.556203e+00	
120	1.364345e-03	8.514048e+00	-3.95448e+00	4.559570e+00	
121	1.364928e-03	8.518358e+00	-3.95516e+00	4.563196e+00	
122	1.365619e-03	8.523475e+00	-3.95597e+00	4.567509e+00	
123	1.366390e-03	8.529196e+00	-3.95686e+00	4.572339e+00	
124	1.367298e-03	8.535934e+00	-3.95790e+00	4.578037e+00	
125	1.368152e-03	8.542281e+00	-3.95887e+00	4.583411e+00	
126	1.369172e-03	8.549860e+00	-3.96003e+00	4.589833e+00	
127	1.370163e-03	8.557230e+00	-3.96115e+00	4.596084e+00	
128	1.371435e-03	8.566697e+00	-3.96258e+00	4.604119e+00	
129	1.372697e-03	8.576082e+00	-3.96399e+00	4.612090e+00	
130	1.374598e-03	8.590236e+00	-3.96612e+00	4.624120e+00	
131	1.376438e-03	8.603935e+00	-3.96816e+00	4.635772e+00	
132	1.379406e-03	8.626044e+00	-3.97145e+00	4.654595e+00	
133	1.382546e-03	8.649436e+00	-3.97491e+00	4.674530e+00	
134	1.387376e-03	8.685436e+00	-3.98019e+00	4.705247e+00	
135	1.392411e-03	8.722977e+00	-3.98565e+00	4.737327e+00	
136	1.400817e-03	8.785679e+00	-3.99467e+00	4.791011e+00	
137	1.410306e-03	8.856501e+00	-4.00470e+00	4.851801e+00	
138	1.428855e-03	8.995058e+00	-4.02386e+00	4.971196e+00	
139	1.445912e-03	9.122595e+00	-4.04097e+00	5.081626e+00	
140	1.460416e-03	9.231127e+00	-4.05513e+00	5.175994e+00	
141	1.475197e-03	9.341809e+00	-4.06921e+00	5.272599e+00	
142	1.496539e-03	9.501735e+00	-4.08891e+00	5.412824e+00	
143	1.515860e-03	9.646616e+00	-4.10611e+00	5.540502e+00	
144	1.542885e-03	9.849404e+00	-4.12919e+00	5.720212e+00	
145	1.561486e-03	9.989051e+00	-4.14442e+00	5.844633e+00	
146	1.572114e-03	1.006886e+01	-4.15288e+00	5.915984e+00	
147	1.578712e-03	1.011842e+01	-4.15805e+00	5.960375e+00	
148	1.584209e-03	1.015971e+01	-4.16230e+00	5.997408e+00	
149	1.588727e-03	1.019365e+01	-4.16577e+00	6.027882e+00	
150	1.591677e-03	1.021581e+01	-4.16801e+00	6.047794e+00	
151	1.593671e-03	1.023079e+01	-4.16952e+00	6.061268e+00	
152	1.595850e-03	1.024716e+01	-4.17117e+00	6.075989e+00	
153	1.598110e-03	1.026413e+01	-4.17286e+00	6.091271e+00	
154	1.599688e-03	1.027599e+01	-4.17404e+00	6.101948e+00	
155	1.601012e-03	1.028593e+01	-4.17503e+00	6.110902e+00	
156	1.602111e-03	1.029419e+01	-4.17585e+00	6.118343e+00	
157	1.603241e-03	1.030268e+01	-4.17669e+00	6.125990e+00	
158	1.604268e-03	1.031040e+01	-4.17745e+00	6.132947e+00	
159	1.605399e-03	1.031890e+01	-4.17829e+00	6.140609e+00	
160	1.606672e-03	1.032846e+01	-4.17922e+00	6.149235e+00	
161	1.608200e-03	1.033994e+01	-4.18035e+00	6.159588e+00	
162	1.610196e-03	1.035493e+01	-4.18181e+00	6.173119e+00	
163	1.612995e-03	1.037596e+01	-4.18385e+00	6.192108e+00	
164	1.617689e-03	1.041123e+01	-4.18725e+00	6.223974e+00	
165	1.626589e-03	1.047809e+01	-4.19361e+00	6.284488e+00	
166	1.644389e-03	1.061183e+01	-4.20597e+00	6.405858e+00	
167	1.679989e-03	1.087926e+01	-4.22935e+00	6.649907e+00	
168	1.751190e-03	1.141364e+01	-4.27088e+00	7.142758e+00	
169	1.818738e-03	1.191958e+01	-4.30406e+00	7.615516e+00	
170	1.849574e-03	1.215006e+01	-4.31727e+00	7.832795e+00	

Index   time            in1             in2             net-_c1-pad1_   
--------------------------------------------------------------------------------
171	1.876505e-03	1.235106e+01	-4.32784e+00	8.023220e+00	
172	1.887034e-03	1.242956e+01	-4.33173e+00	8.097826e+00	
173	1.896822e-03	1.250249e+01	-4.33524e+00	8.167251e+00	
174	1.905088e-03	1.256404e+01	-4.33810e+00	8.225938e+00	
175	1.913643e-03	1.262771e+01	-4.34099e+00	8.286728e+00	
176	1.923260e-03	1.269924e+01	-4.34412e+00	8.355118e+00	
177	1.938294e-03	1.281097e+01	-4.34881e+00	8.462156e+00	
178	1.959064e-03	1.296512e+01	-4.35486e+00	8.610260e+00	
179	1.982125e-03	1.313599e+01	-4.36100e+00	8.774987e+00	
180	2.015879e-03	1.338550e+01	-4.36892e+00	9.016583e+00	
181	2.054128e-03	1.366733e+01	-4.37638e+00	9.290947e+00	
182	2.095347e-03	1.396987e+01	-4.38268e+00	9.587188e+00	
183	2.123220e-03	1.417371e+01	-4.38593e+00	9.787781e+00	
184	2.150400e-03	1.437188e+01	-4.38834e+00	9.983537e+00	
185	2.171444e-03	1.452488e+01	-4.38970e+00	1.013518e+01	
186	2.193399e-03	1.468409e+01	-4.39065e+00	1.029344e+01	
187	2.216151e-03	1.484862e+01	-4.39115e+00	1.045747e+01	
188	2.230049e-03	1.494888e+01	-4.39120e+00	1.055767e+01	
189	2.247793e-03	1.507661e+01	-4.39101e+00	1.068561e+01	
190	2.264243e-03	1.519476e+01	-4.39056e+00	1.080419e+01	
191	2.285367e-03	1.534607e+01	-4.38963e+00	1.095644e+01	
192	2.305901e-03	1.549271e+01	-4.38833e+00	1.110439e+01	
193	2.331924e-03	1.567791e+01	-4.38613e+00	1.129178e+01	
194	2.383971e-03	1.604607e+01	-4.37996e+00	1.166611e+01	
195	2.462634e-03	1.659646e+01	-4.36627e+00	1.223019e+01	
196	2.562634e-03	1.728485e+01	-4.34163e+00	1.294322e+01	
197	2.591854e-03	1.748349e+01	-4.33295e+00	1.315054e+01	
198	2.610832e-03	1.761186e+01	-4.32696e+00	1.328490e+01	
199	2.620372e-03	1.767619e+01	-4.32385e+00	1.335235e+01	
200	2.627431e-03	1.772372e+01	-4.32150e+00	1.340222e+01	
201	2.631918e-03	1.775390e+01	-4.31998e+00	1.343391e+01	
202	2.636264e-03	1.778310e+01	-4.31850e+00	1.346460e+01	
203	2.640960e-03	1.781464e+01	-4.31686e+00	1.349778e+01	
204	2.644274e-03	1.783688e+01	-4.31569e+00	1.352119e+01	
205	2.647972e-03	1.786170e+01	-4.31437e+00	1.354732e+01	
206	2.651582e-03	1.788589e+01	-4.31307e+00	1.357282e+01	
207	2.655615e-03	1.791291e+01	-4.31161e+00	1.360130e+01	
208	2.659870e-03	1.794139e+01	-4.31004e+00	1.363134e+01	
209	2.661776e-03	1.795413e+01	-4.30934e+00	1.364479e+01	
210	2.664085e-03	1.796957e+01	-4.30848e+00	1.366109e+01	
211	2.666707e-03	1.798709e+01	-4.30751e+00	1.367959e+01	
212	2.669482e-03	1.800562e+01	-4.30647e+00	1.369916e+01	
213	2.672936e-03	1.802868e+01	-4.30516e+00	1.372351e+01	
214	2.677243e-03	1.805739e+01	-4.30353e+00	1.375386e+01	
215	2.682996e-03	1.809571e+01	-4.30133e+00	1.379438e+01	
216	2.691043e-03	1.814921e+01	-4.29821e+00	1.385101e+01	
217	2.703034e-03	1.822876e+01	-4.29347e+00	1.393529e+01	
218	2.723447e-03	1.836368e+01	-4.28518e+00	1.407850e+01	
219	2.742126e-03	1.848657e+01	-4.27734e+00	1.420923e+01	
220	2.766397e-03	1.864544e+01	-4.26680e+00	1.437863e+01	
221	2.791023e-03	1.880567e+01	-4.25570e+00	1.454997e+01	
222	2.835053e-03	1.908971e+01	-4.23487e+00	1.485484e+01	
223	2.889553e-03	1.943682e+01	-4.20735e+00	1.522947e+01	
224	2.964676e-03	1.990693e+01	-4.16640e+00	1.574053e+01	
225	3.064676e-03	2.051707e+01	-4.10670e+00	1.641037e+01	
226	3.164676e-03	2.110857e+01	-4.04133e+00	1.706724e+01	
227	3.264676e-03	2.168060e+01	-3.97060e+00	1.771000e+01	
228	3.364676e-03	2.223239e+01	-3.89481e+00	1.833757e+01	

Index   time            in1             in2             net-_c1-pad1_   
--------------------------------------------------------------------------------
229	3.428712e-03	2.257476e+01	-3.84374e+00	1.873102e+01	
230	3.489508e-03	2.289167e+01	-3.79349e+00	1.909818e+01	
231	3.589508e-03	2.339527e+01	-3.70729e+00	1.968797e+01	
232	3.689508e-03	2.387635e+01	-3.61687e+00	2.025948e+01	
233	3.789508e-03	2.433430e+01	-3.52244e+00	2.081185e+01	
234	3.889508e-03	2.476854e+01	-3.42423e+00	2.134431e+01	
235	3.989508e-03	2.517854e+01	-3.32245e+00	2.185609e+01	
236	4.089508e-03	2.556378e+01	-3.21728e+00	2.234650e+01	
237	4.189508e-03	2.592381e+01	-3.10893e+00	2.281488e+01	
238	4.289508e-03	2.625819e+01	-2.99758e+00	2.326060e+01	
239	4.389508e-03	2.656652e+01	-2.88341e+00	2.368310e+01	
240	4.489508e-03	2.684843e+01	-2.76659e+00	2.408184e+01	
241	4.589508e-03	2.710360e+01	-2.64729e+00	2.445631e+01	
242	4.689508e-03	2.733173e+01	-2.52566e+00	2.480608e+01	
243	4.789508e-03	2.753257e+01	-2.40186e+00	2.513071e+01	
244	4.889508e-03	2.770588e+01	-2.27604e+00	2.542984e+01	
245	4.989508e-03	2.785149e+01	-2.14835e+00	2.570313e+01	
246	5.089508e-03	2.796922e+01	-2.01892e+00	2.595030e+01	
247	5.189508e-03	2.805898e+01	-1.88787e+00	2.617111e+01	
248	5.289508e-03	2.812068e+01	-1.75532e+00	2.636536e+01	
249	5.389508e-03	2.815430e+01	-1.62137e+00	2.653293e+01	
250	5.489508e-03	2.815986e+01	-1.48609e+00	2.667377e+01	
251	5.589508e-03	2.813746e+01	-1.34953e+00	2.678793e+01	
252	5.689508e-03	2.808727e+01	-1.21164e+00	2.687563e+01	
253	5.789508e-03	2.800965e+01	-1.07228e+00	2.693737e+01	
254	5.889508e-03	2.790531e+01	-9.30936e-01	2.697437e+01	
255	5.960895e-03	2.781526e+01	-8.28173e-01	2.698708e+01	
256	5.999133e-03	2.776211e+01	-7.72114e-01	2.698999e+01	
257	6.035301e-03	2.770907e+01	-7.18057e-01	2.699102e+01	
258	6.070817e-03	2.765472e+01	-6.63680e-01	2.699104e+01	
259	6.088567e-03	2.762680e+01	-6.35942e-01	2.699086e+01	
260	6.101786e-03	2.760570e+01	-6.15020e-01	2.699068e+01	
261	6.115254e-03	2.758394e+01	-5.93464e-01	2.699047e+01	
262	6.130391e-03	2.755917e+01	-5.68944e-01	2.699022e+01	
263	6.146706e-03	2.753211e+01	-5.42168e-01	2.698994e+01	
264	6.166550e-03	2.749870e+01	-5.09104e-01	2.698960e+01	
265	6.190768e-03	2.745719e+01	-4.68022e-01	2.698917e+01	
266	6.223605e-03	2.739960e+01	-4.11028e-01	2.698858e+01	
267	6.271345e-03	2.731325e+01	-3.25531e-01	2.698772e+01	
268	6.352027e-03	2.716025e+01	-1.73984e-01	2.698626e+01	
269	6.452027e-03	2.695844e+01	2.602141e-02	2.698446e+01	
270	6.552027e-03	2.674334e+01	2.393163e-01	2.698266e+01	
271	6.652027e-03	2.651516e+01	4.656893e-01	2.698085e+01	
272	6.752027e-03	2.627413e+01	7.049164e-01	2.697905e+01	
273	6.852027e-03	2.602049e+01	9.567601e-01	2.697725e+01	
274	6.952027e-03	2.575447e+01	1.220971e+00	2.697544e+01	
275	7.052027e-03	2.547635e+01	1.497288e+00	2.697364e+01	
276	7.152027e-03	2.518640e+01	1.785438e+00	2.697184e+01	
277	7.252027e-03	2.488490e+01	2.085134e+00	2.697004e+01	
278	7.352027e-03	2.457215e+01	2.396081e+00	2.696823e+01	
279	7.452027e-03	2.424846e+01	2.717970e+00	2.696643e+01	
280	7.552027e-03	2.391414e+01	3.050483e+00	2.696463e+01	
281	7.652027e-03	2.356953e+01	3.393291e+00	2.696282e+01	
282	7.752027e-03	2.321496e+01	3.746055e+00	2.696102e+01	
283	7.852027e-03	2.285079e+01	4.108426e+00	2.695922e+01	
284	7.952027e-03	2.247737e+01	4.480045e+00	2.695742e+01	
285	8.052027e-03	2.209507e+01	4.860544e+00	2.695561e+01	
286	8.152027e-03	2.170426e+01	5.249548e+00	2.695381e+01	

Index   time            in1             in2             net-_c1-pad1_   
--------------------------------------------------------------------------------
287	8.252027e-03	2.130533e+01	5.646671e+00	2.695201e+01	
288	8.352027e-03	2.089868e+01	6.051521e+00	2.695021e+01	
289	8.452027e-03	2.048470e+01	6.463697e+00	2.694840e+01	
290	8.552027e-03	2.006381e+01	6.882792e+00	2.694660e+01	
291	8.652027e-03	1.963640e+01	7.308390e+00	2.694480e+01	
292	8.752027e-03	1.920292e+01	7.740071e+00	2.694299e+01	
293	8.852027e-03	1.876378e+01	8.177409e+00	2.694119e+01	
294	8.952027e-03	1.831941e+01	8.619971e+00	2.693939e+01	
295	9.052027e-03	1.787026e+01	9.067318e+00	2.693759e+01	
296	9.152027e-03	1.741677e+01	9.519010e+00	2.693578e+01	
297	9.252027e-03	1.695938e+01	9.974598e+00	2.693398e+01	
298	9.352027e-03	1.649854e+01	1.043363e+01	2.693218e+01	
299	9.452027e-03	1.603471e+01	1.089566e+01	2.693037e+01	
300	9.552027e-03	1.556834e+01	1.136022e+01	2.692857e+01	
301	9.652027e-03	1.509990e+01	1.182686e+01	2.692677e+01	
302	9.752027e-03	1.462984e+01	1.229512e+01	2.692497e+01	
303	9.852027e-03	1.415863e+01	1.276453e+01	2.692316e+01	
304	9.952027e-03	1.368673e+01	1.323462e+01	2.692136e+01	
305	1.005203e-02	1.321461e+01	1.370494e+01	2.691956e+01	
306	1.015203e-02	1.274273e+01	1.417501e+01	2.691776e+01	
307	1.025203e-02	1.227156e+01	1.464438e+01	2.691595e+01	
308	1.035203e-02	1.180156e+01	1.511258e+01	2.691415e+01	
309	1.045203e-02	1.133319e+01	1.557915e+01	2.691235e+01	
310	1.055203e-02	1.086692e+01	1.604362e+01	2.691054e+01	
311	1.065203e-02	1.040320e+01	1.650553e+01	2.690874e+01	
312	1.075203e-02	9.942496e+00	1.696443e+01	2.690694e+01	
313	1.085203e-02	9.485254e+00	1.741987e+01	2.690514e+01	
314	1.095203e-02	9.031927e+00	1.787140e+01	2.690333e+01	
315	1.105203e-02	8.582962e+00	1.831856e+01	2.690153e+01	
316	1.115203e-02	8.138801e+00	1.876092e+01	2.689973e+01	
317	1.125203e-02	7.699882e+00	1.919803e+01	2.689792e+01	
318	1.135203e-02	7.266636e+00	1.962948e+01	2.689612e+01	
319	1.145203e-02	6.839490e+00	2.005482e+01	2.689432e+01	
320	1.155203e-02	6.418865e+00	2.047364e+01	2.689252e+01	
321	1.165203e-02	6.005176e+00	2.088553e+01	2.689071e+01	
322	1.175203e-02	5.598829e+00	2.129007e+01	2.688891e+01	
323	1.185203e-02	5.200225e+00	2.168688e+01	2.688711e+01	
324	1.195203e-02	4.809756e+00	2.207554e+01	2.688531e+01	
325	1.205203e-02	4.427806e+00	2.245569e+01	2.688350e+01	
326	1.215203e-02	4.054753e+00	2.282694e+01	2.688170e+01	
327	1.225203e-02	3.690962e+00	2.318893e+01	2.687990e+01	
328	1.235203e-02	3.336792e+00	2.354130e+01	2.687810e+01	
329	1.245203e-02	2.992592e+00	2.388369e+01	2.687629e+01	
330	1.255203e-02	2.658700e+00	2.421578e+01	2.687449e+01	
331	1.265203e-02	2.335446e+00	2.453723e+01	2.687269e+01	
