* eeschema netlist version 1.1 (spice format) creation date: mon jun 22 15:31:09 2015
Transient Analysis  Mon Jun 22 15:32:13  2015
--------------------------------------------------------------------------------
Index   time            in              net-_r1-pad2_   net-_r2-pad1_   
--------------------------------------------------------------------------------
0	0.000000e+00	0.000000e+00	0.000000e+00	0.000000e+00	
1	1.000000e-05	-1.19436e-04	6.283175e-03	-5.96883e-08	
2	2.000000e-05	-1.15119e-04	1.256629e-02	-5.75307e-08	
3	4.000000e-05	-1.15578e-04	2.513208e-02	-5.77601e-08	
4	8.000000e-05	-1.15503e-04	5.026019e-02	-5.77228e-08	
5	1.600000e-04	-1.16326e-04	1.004886e-01	-5.81342e-08	
6	3.200000e-04	-1.16720e-04	2.007234e-01	-5.83309e-08	
7	6.400000e-04	-1.17736e-04	3.994200e-01	-5.88386e-08	
8	1.280000e-03	-1.15358e-04	7.827473e-01	-5.76502e-08	
9	2.560000e-03	-9.85643e-05	1.440618e+00	-4.92575e-08	
10	4.560000e-03	-3.97849e-05	1.980923e+00	-1.98825e-08	
11	6.560000e-03	3.635683e-05	1.764582e+00	1.816933e-08	
12	8.560000e-03	9.644407e-05	8.742315e-01	4.819794e-08	
13	1.056000e-02	1.218619e-04	-3.50046e-01	6.090050e-08	
14	1.256000e-02	9.856215e-05	-1.44062e+00	4.925645e-08	
15	1.456000e-02	3.978703e-05	-1.98092e+00	1.988357e-08	
16	1.656000e-02	-3.63590e-05	-1.76458e+00	-1.81704e-08	
17	1.856000e-02	-9.64419e-05	-8.74232e-01	-4.81969e-08	
18	2.056000e-02	-1.21864e-04	3.500461e-01	-6.09016e-08	
19	2.256000e-02	-9.85600e-05	1.440618e+00	-4.92554e-08	
20	2.456000e-02	-3.97892e-05	1.980923e+00	-1.98846e-08	
21	2.656000e-02	3.636109e-05	1.764582e+00	1.817146e-08	
22	2.856000e-02	9.643981e-05	8.742315e-01	4.819581e-08	
23	3.056000e-02	1.218662e-04	-3.50046e-01	6.090264e-08	
24	3.256000e-02	9.855788e-05	-1.44062e+00	4.925431e-08	
25	3.456000e-02	3.979130e-05	-1.98092e+00	1.988571e-08	
26	3.656000e-02	-3.63632e-05	-1.76458e+00	-1.81725e-08	
27	3.856000e-02	-9.64377e-05	-8.74232e-01	-4.81947e-08	
28	4.056000e-02	-1.21868e-04	3.500461e-01	-6.09037e-08	
29	4.256000e-02	-9.85557e-05	1.440618e+00	-4.92532e-08	
30	4.456000e-02	-3.97935e-05	1.980923e+00	-1.98868e-08	
31	4.656000e-02	3.636538e-05	1.764582e+00	1.817360e-08	
32	4.856000e-02	9.643551e-05	8.742315e-01	4.819366e-08	
33	5.056000e-02	1.218705e-04	-3.50046e-01	6.090479e-08	
34	5.256000e-02	9.855358e-05	-1.44062e+00	4.925216e-08	
35	5.456000e-02	3.979561e-05	-1.98092e+00	1.988786e-08	
36	5.656000e-02	-3.63675e-05	-1.76458e+00	-1.81747e-08	
37	5.856000e-02	-9.64334e-05	-8.74232e-01	-4.81926e-08	
38	6.056000e-02	-1.21873e-04	3.500461e-01	-6.09059e-08	
39	6.256000e-02	-9.85514e-05	1.440618e+00	-4.92511e-08	
40	6.456000e-02	-3.97978e-05	1.980923e+00	-1.98889e-08	
41	6.656000e-02	3.636971e-05	1.764582e+00	1.817577e-08	
42	6.856000e-02	9.643118e-05	8.742315e-01	4.819150e-08	
43	7.056000e-02	1.218748e-04	-3.50046e-01	6.090695e-08	
44	7.256000e-02	9.854924e-05	-1.44062e+00	4.925000e-08	
45	7.456000e-02	3.979995e-05	-1.98092e+00	1.989003e-08	
46	7.656000e-02	-3.63719e-05	-1.76458e+00	-1.81769e-08	
47	7.856000e-02	-9.64290e-05	-8.74232e-01	-4.81904e-08	
48	8.056000e-02	-1.21877e-04	3.500461e-01	-6.09080e-08	
49	8.256000e-02	-9.85471e-05	1.440618e+00	-4.92489e-08	
50	8.456000e-02	-3.98021e-05	1.980923e+00	-1.98911e-08	
51	8.656000e-02	3.637406e-05	1.764582e+00	1.817794e-08	
52	8.856000e-02	9.642682e-05	8.742315e-01	4.818932e-08	
53	9.056000e-02	1.218792e-04	-3.50046e-01	6.090913e-08	
54	9.256000e-02	9.854488e-05	-1.44062e+00	4.924782e-08	

Index   time            in              net-_r1-pad2_   net-_r2-pad1_   
--------------------------------------------------------------------------------
55	9.456000e-02	3.980431e-05	-1.98092e+00	1.989221e-08	
56	9.656000e-02	-3.63763e-05	-1.76458e+00	-1.81790e-08	
57	9.856000e-02	-9.64246e-05	-8.74232e-01	-4.81882e-08	
58	1.000000e-01	-1.16010e-04	-2.44929e-15	-5.79759e-08	

* eeschema netlist version 1.1 (spice format) creation date: mon jun 22 15:31:09 2015
Transient Analysis  Mon Jun 22 15:32:13  2015
--------------------------------------------------------------------------------
Index   time            out             x1.1            x1.2            
--------------------------------------------------------------------------------
0	0.000000e+00	0.000000e+00	0.000000e+00	0.000000e+00	
1	1.000000e-05	-6.52211e-03	-7.49147e-03	-7.49147e-03	
2	2.000000e-05	-1.27966e-02	-1.47074e-02	-1.47074e-02	
3	4.000000e-05	-2.53633e-02	-2.91591e-02	-2.91591e-02	
4	8.000000e-05	-5.04913e-02	-5.80563e-02	-5.80563e-02	
5	1.600000e-04	-1.00721e-01	-1.15821e-01	-1.15821e-01	
6	3.200000e-04	-2.00957e-01	-2.31092e-01	-2.31092e-01	
7	6.400000e-04	-3.99655e-01	-4.59595e-01	-4.59595e-01	
8	1.280000e-03	-7.82978e-01	-9.00416e-01	-9.00416e-01	
9	2.560000e-03	-1.44082e+00	-1.65693e+00	-1.65693e+00	
10	4.560000e-03	-1.98100e+00	-2.27815e+00	-2.27815e+00	
11	6.560000e-03	-1.76451e+00	-2.02919e+00	-2.02919e+00	
12	8.560000e-03	-8.74039e-01	-1.00515e+00	-1.00515e+00	
13	1.056000e-02	3.502899e-01	4.028242e-01	4.028242e-01	
14	1.256000e-02	1.440815e+00	1.656930e+00	1.656930e+00	
15	1.456000e-02	1.981002e+00	2.278150e+00	2.278150e+00	
16	1.656000e-02	1.764510e+00	2.029189e+00	2.029189e+00	
17	1.856000e-02	8.740386e-01	1.005152e+00	1.005152e+00	
18	2.056000e-02	-3.50290e-01	-4.02824e-01	-4.02824e-01	
19	2.256000e-02	-1.44082e+00	-1.65693e+00	-1.65693e+00	
20	2.456000e-02	-1.98100e+00	-2.27815e+00	-2.27815e+00	
21	2.656000e-02	-1.76451e+00	-2.02919e+00	-2.02919e+00	
22	2.856000e-02	-8.74039e-01	-1.00515e+00	-1.00515e+00	
23	3.056000e-02	3.502899e-01	4.028243e-01	4.028243e-01	
24	3.256000e-02	1.440815e+00	1.656930e+00	1.656930e+00	
25	3.456000e-02	1.981002e+00	2.278150e+00	2.278150e+00	
26	3.656000e-02	1.764510e+00	2.029189e+00	2.029189e+00	
27	3.856000e-02	8.740386e-01	1.005152e+00	1.005152e+00	
28	4.056000e-02	-3.50290e-01	-4.02824e-01	-4.02824e-01	
29	4.256000e-02	-1.44082e+00	-1.65693e+00	-1.65693e+00	
30	4.456000e-02	-1.98100e+00	-2.27815e+00	-2.27815e+00	
31	4.656000e-02	-1.76451e+00	-2.02919e+00	-2.02919e+00	
32	4.856000e-02	-8.74039e-01	-1.00515e+00	-1.00515e+00	
33	5.056000e-02	3.502899e-01	4.028243e-01	4.028243e-01	
34	5.256000e-02	1.440815e+00	1.656930e+00	1.656930e+00	
35	5.456000e-02	1.981002e+00	2.278150e+00	2.278150e+00	
36	5.656000e-02	1.764510e+00	2.029189e+00	2.029189e+00	
37	5.856000e-02	8.740386e-01	1.005152e+00	1.005152e+00	
38	6.056000e-02	-3.50290e-01	-4.02824e-01	-4.02824e-01	
39	6.256000e-02	-1.44082e+00	-1.65693e+00	-1.65693e+00	
40	6.456000e-02	-1.98100e+00	-2.27815e+00	-2.27815e+00	
41	6.656000e-02	-1.76451e+00	-2.02919e+00	-2.02919e+00	
42	6.856000e-02	-8.74039e-01	-1.00515e+00	-1.00515e+00	
43	7.056000e-02	3.502899e-01	4.028243e-01	4.028243e-01	
44	7.256000e-02	1.440815e+00	1.656930e+00	1.656930e+00	
45	7.456000e-02	1.981002e+00	2.278150e+00	2.278150e+00	
46	7.656000e-02	1.764510e+00	2.029189e+00	2.029189e+00	
47	7.856000e-02	8.740386e-01	1.005152e+00	1.005152e+00	
48	8.056000e-02	-3.50290e-01	-4.02824e-01	-4.02824e-01	
49	8.256000e-02	-1.44082e+00	-1.65693e+00	-1.65693e+00	
50	8.456000e-02	-1.98100e+00	-2.27815e+00	-2.27815e+00	
51	8.656000e-02	-1.76451e+00	-2.02919e+00	-2.02919e+00	
52	8.856000e-02	-8.74039e-01	-1.00515e+00	-1.00515e+00	
53	9.056000e-02	3.502899e-01	4.028243e-01	4.028243e-01	
54	9.256000e-02	1.440815e+00	1.656930e+00	1.656930e+00	

Index   time            out             x1.1            x1.2            
--------------------------------------------------------------------------------
55	9.456000e-02	1.981002e+00	2.278150e+00	2.278150e+00	
56	9.656000e-02	1.764510e+00	2.029189e+00	2.029189e+00	
57	9.856000e-02	8.740386e-01	1.005152e+00	1.005152e+00	
58	1.000000e-01	-2.32077e-04	-2.58188e-04	-2.58188e-04	

* eeschema netlist version 1.1 (spice format) creation date: mon jun 22 15:31:09 2015
Transient Analysis  Mon Jun 22 15:32:13  2015
--------------------------------------------------------------------------------
Index   time            x1.4            
--------------------------------------------------------------------------------
0	0.000000e+00	0.000000e+00	
1	1.000000e-05	-1.19377e+01	
2	2.000000e-05	-1.15061e+01	
3	4.000000e-05	-1.15520e+01	
4	8.000000e-05	-1.15446e+01	
5	1.600000e-04	-1.16268e+01	
6	3.200000e-04	-1.16662e+01	
7	6.400000e-04	-1.17677e+01	
8	1.280000e-03	-1.15300e+01	
9	2.560000e-03	-9.85150e+00	
10	4.560000e-03	-3.97650e+00	
11	6.560000e-03	3.633866e+00	
12	8.560000e-03	9.639588e+00	
13	1.056000e-02	1.218010e+01	
14	1.256000e-02	9.851290e+00	
15	1.456000e-02	3.976714e+00	
16	1.656000e-02	-3.63408e+00	
17	1.856000e-02	-9.63937e+00	
18	2.056000e-02	-1.21803e+01	
19	2.256000e-02	-9.85108e+00	
20	2.456000e-02	-3.97693e+00	
21	2.656000e-02	3.634292e+00	
22	2.856000e-02	9.639161e+00	
23	3.056000e-02	1.218053e+01	
24	3.256000e-02	9.850863e+00	
25	3.456000e-02	3.977142e+00	
26	3.656000e-02	-3.63451e+00	
27	3.856000e-02	-9.63895e+00	
28	4.056000e-02	-1.21807e+01	
29	4.256000e-02	-9.85065e+00	
30	4.456000e-02	-3.97736e+00	
31	4.656000e-02	3.634721e+00	
32	4.856000e-02	9.638732e+00	
33	5.056000e-02	1.218096e+01	
34	5.256000e-02	9.850432e+00	
35	5.456000e-02	3.977572e+00	
36	5.656000e-02	-3.63494e+00	
37	5.856000e-02	-9.63852e+00	
38	6.056000e-02	-1.21812e+01	
39	6.256000e-02	-9.85022e+00	
40	6.456000e-02	-3.97779e+00	
41	6.656000e-02	3.635153e+00	
42	6.856000e-02	9.638299e+00	
43	7.056000e-02	1.218139e+01	
44	7.256000e-02	9.849999e+00	
45	7.456000e-02	3.978006e+00	
46	7.656000e-02	-3.63537e+00	
47	7.856000e-02	-9.63808e+00	
48	8.056000e-02	-1.21816e+01	
49	8.256000e-02	-9.84978e+00	
50	8.456000e-02	-3.97822e+00	
51	8.656000e-02	3.635589e+00	
52	8.856000e-02	9.637864e+00	
53	9.056000e-02	1.218183e+01	
54	9.256000e-02	9.849563e+00	

Index   time            x1.4            
--------------------------------------------------------------------------------
55	9.456000e-02	3.978442e+00	
56	9.656000e-02	-3.63581e+00	
57	9.856000e-02	-9.63764e+00	
58	1.000000e-01	-1.15952e+01	
