* /home/fossee/downloads/esim-master/examples/inverting_amplifier/inverting_amplifier.cir
Transient Analysis  Fri Oct 16 16:57:07  2015
--------------------------------------------------------------------------------
Index   time            in              net-_r1-pad2_   net-_r2-pad2_   
--------------------------------------------------------------------------------
0	0.000000e+00	0.000000e+00	0.000000e+00	0.000000e+00	
1	1.000000e-05	6.283175e-03	-2.35266e-04	-1.17574e-07	
2	2.000000e-05	1.256629e-02	-2.22349e-04	-1.11119e-07	
3	4.000000e-05	2.513208e-02	-2.24063e-04	-1.11975e-07	
4	8.000000e-05	5.026019e-02	-2.23009e-04	-1.11449e-07	
5	1.600000e-04	1.004886e-01	-2.25555e-04	-1.12721e-07	
6	3.200000e-04	2.007234e-01	-2.25340e-04	-1.12613e-07	
7	6.400000e-04	3.994200e-01	-2.28292e-04	-1.14089e-07	
8	1.280000e-03	7.827473e-01	-2.22695e-04	-1.11292e-07	
9	2.560000e-03	1.440618e+00	-1.91195e-04	-9.55498e-08	
10	4.560000e-03	1.980923e+00	-7.64633e-05	-3.82125e-08	
11	6.560000e-03	1.764582e+00	6.985537e-05	3.491023e-08	
12	8.560000e-03	8.742315e-01	1.871087e-04	9.350760e-08	
13	1.056000e-02	-3.50046e-01	2.352783e-04	1.175804e-07	
14	1.256000e-02	-1.44062e+00	1.911917e-04	9.554806e-08	
15	1.456000e-02	-1.98092e+00	7.646677e-05	3.821428e-08	
16	1.656000e-02	-1.76458e+00	-6.98588e-05	-3.49120e-08	
17	1.856000e-02	-8.74232e-01	-1.87105e-04	-9.35059e-08	
18	2.056000e-02	3.500461e-01	-2.35282e-04	-1.17582e-07	
19	2.256000e-02	1.440618e+00	-1.91188e-04	-9.55463e-08	
20	2.456000e-02	1.980923e+00	-7.64703e-05	-3.82160e-08	
21	2.656000e-02	1.764582e+00	6.986234e-05	3.491371e-08	
22	2.856000e-02	8.742315e-01	1.871017e-04	9.350412e-08	
23	3.056000e-02	-3.50046e-01	2.352853e-04	1.175839e-07	
24	3.256000e-02	-1.44062e+00	1.911847e-04	9.554457e-08	
25	3.456000e-02	-1.98092e+00	7.647377e-05	3.821777e-08	
26	3.656000e-02	-1.76458e+00	-6.98658e-05	-3.49155e-08	
27	3.856000e-02	-8.74232e-01	-1.87098e-04	-9.35024e-08	
28	4.056000e-02	3.500461e-01	-2.35289e-04	-1.17586e-07	
29	4.256000e-02	1.440618e+00	-1.91181e-04	-9.55428e-08	
30	4.456000e-02	1.980923e+00	-7.64773e-05	-3.82195e-08	
31	4.656000e-02	1.764582e+00	6.986938e-05	3.491723e-08	
32	4.856000e-02	8.742315e-01	1.870947e-04	9.350060e-08	
33	5.056000e-02	-3.50046e-01	2.352924e-04	1.175874e-07	
34	5.256000e-02	-1.44062e+00	1.911776e-04	9.554104e-08	
35	5.456000e-02	-1.98092e+00	7.648083e-05	3.822131e-08	
36	5.656000e-02	-1.76458e+00	-6.98729e-05	-3.49190e-08	
37	5.856000e-02	-8.74232e-01	-1.87091e-04	-9.34988e-08	
38	6.056000e-02	3.500461e-01	-2.35296e-04	-1.17589e-07	
39	6.256000e-02	1.440618e+00	-1.91174e-04	-9.55393e-08	
40	6.456000e-02	1.980923e+00	-7.64844e-05	-3.82231e-08	
41	6.656000e-02	1.764582e+00	6.987649e-05	3.492078e-08	
42	6.856000e-02	8.742315e-01	1.870876e-04	9.349704e-08	
43	7.056000e-02	-3.50046e-01	2.352995e-04	1.175910e-07	
44	7.256000e-02	-1.44062e+00	1.911705e-04	9.553748e-08	
45	7.456000e-02	-1.98092e+00	7.648798e-05	3.822488e-08	
46	7.656000e-02	-1.76458e+00	-6.98801e-05	-3.49226e-08	
47	7.856000e-02	-8.74232e-01	-1.87084e-04	-9.34952e-08	
48	8.056000e-02	3.500461e-01	-2.35303e-04	-1.17593e-07	
49	8.256000e-02	1.440618e+00	-1.91167e-04	-9.55357e-08	
50	8.456000e-02	1.980923e+00	-7.64916e-05	-3.82267e-08	
51	8.656000e-02	1.764582e+00	6.988368e-05	3.492438e-08	
52	8.856000e-02	8.742315e-01	1.870804e-04	9.349344e-08	
53	9.056000e-02	-3.50046e-01	2.353067e-04	1.175946e-07	
54	9.256000e-02	-1.44062e+00	1.911633e-04	9.553387e-08	

Index   time            in              net-_r1-pad2_   net-_r2-pad2_   
--------------------------------------------------------------------------------
55	9.456000e-02	-1.98092e+00	7.649520e-05	3.822848e-08	
56	9.656000e-02	-1.76458e+00	-6.98873e-05	-3.49262e-08	
57	9.856000e-02	-8.74232e-01	-1.87077e-04	-9.34916e-08	
58	1.000000e-01	-2.44929e-15	-2.23950e-04	-1.11919e-07	

* /home/fossee/downloads/esim-master/examples/inverting_amplifier/inverting_amplifier.cir
Transient Analysis  Fri Oct 16 16:57:07  2015
--------------------------------------------------------------------------------
Index   time            out             x1.1            x1.2            
--------------------------------------------------------------------------------
0	0.000000e+00	0.000000e+00	0.000000e+00	0.000000e+00	
1	1.000000e-05	-1.32724e-02	-1.47567e-02	-1.47567e-02	
2	2.000000e-05	-2.57998e-02	-2.86940e-02	-2.86940e-02	
3	4.000000e-05	-5.09366e-02	-5.66585e-02	-5.66585e-02	
4	8.000000e-05	-1.01190e-01	-1.12565e-01	-1.12565e-01	
5	1.600000e-04	-2.01654e-01	-2.24332e-01	-2.24332e-01	
6	3.200000e-04	-4.02123e-01	-4.47354e-01	-4.47354e-01	
7	6.400000e-04	-7.99525e-01	-8.89463e-01	-8.89463e-01	
8	1.280000e-03	-1.56616e+00	-1.74235e+00	-1.74235e+00	
9	2.560000e-03	-2.88181e+00	-3.20601e+00	-3.20601e+00	
10	4.560000e-03	-3.96208e+00	-4.40781e+00	-4.40781e+00	
11	6.560000e-03	-3.52896e+00	-3.92597e+00	-3.92597e+00	
12	8.560000e-03	-1.74790e+00	-1.94455e+00	-1.94455e+00	
13	1.056000e-02	7.007983e-01	7.796293e-01	7.796293e-01	
14	1.256000e-02	2.881810e+00	3.206006e+00	3.206006e+00	
15	1.456000e-02	3.962075e+00	4.407806e+00	4.407806e+00	
16	1.656000e-02	3.528955e+00	3.925965e+00	3.925965e+00	
17	1.856000e-02	1.747902e+00	1.944548e+00	1.944548e+00	
18	2.056000e-02	-7.00798e-01	-7.79629e-01	-7.79629e-01	
19	2.256000e-02	-2.88181e+00	-3.20601e+00	-3.20601e+00	
20	2.456000e-02	-3.96208e+00	-4.40781e+00	-4.40781e+00	
21	2.656000e-02	-3.52896e+00	-3.92597e+00	-3.92597e+00	
22	2.856000e-02	-1.74790e+00	-1.94455e+00	-1.94455e+00	
23	3.056000e-02	7.007983e-01	7.796293e-01	7.796293e-01	
24	3.256000e-02	2.881810e+00	3.206006e+00	3.206006e+00	
25	3.456000e-02	3.962075e+00	4.407806e+00	4.407806e+00	
26	3.656000e-02	3.528955e+00	3.925965e+00	3.925965e+00	
27	3.856000e-02	1.747902e+00	1.944548e+00	1.944548e+00	
28	4.056000e-02	-7.00798e-01	-7.79629e-01	-7.79629e-01	
29	4.256000e-02	-2.88181e+00	-3.20601e+00	-3.20601e+00	
30	4.456000e-02	-3.96208e+00	-4.40781e+00	-4.40781e+00	
31	4.656000e-02	-3.52896e+00	-3.92597e+00	-3.92597e+00	
32	4.856000e-02	-1.74790e+00	-1.94455e+00	-1.94455e+00	
33	5.056000e-02	7.007983e-01	7.796293e-01	7.796293e-01	
34	5.256000e-02	2.881810e+00	3.206006e+00	3.206006e+00	
35	5.456000e-02	3.962075e+00	4.407806e+00	4.407806e+00	
36	5.656000e-02	3.528955e+00	3.925965e+00	3.925965e+00	
37	5.856000e-02	1.747902e+00	1.944548e+00	1.944548e+00	
38	6.056000e-02	-7.00798e-01	-7.79629e-01	-7.79629e-01	
39	6.256000e-02	-2.88181e+00	-3.20601e+00	-3.20601e+00	
40	6.456000e-02	-3.96208e+00	-4.40781e+00	-4.40781e+00	
41	6.656000e-02	-3.52896e+00	-3.92597e+00	-3.92597e+00	
42	6.856000e-02	-1.74790e+00	-1.94455e+00	-1.94455e+00	
43	7.056000e-02	7.007984e-01	7.796294e-01	7.796294e-01	
44	7.256000e-02	2.881810e+00	3.206006e+00	3.206006e+00	
45	7.456000e-02	3.962075e+00	4.407806e+00	4.407806e+00	
46	7.656000e-02	3.528955e+00	3.925965e+00	3.925965e+00	
47	7.856000e-02	1.747902e+00	1.944548e+00	1.944548e+00	
48	8.056000e-02	-7.00798e-01	-7.79629e-01	-7.79629e-01	
49	8.256000e-02	-2.88181e+00	-3.20601e+00	-3.20601e+00	
50	8.456000e-02	-3.96208e+00	-4.40781e+00	-4.40781e+00	
51	8.656000e-02	-3.52896e+00	-3.92597e+00	-3.92597e+00	
52	8.856000e-02	-1.74790e+00	-1.94455e+00	-1.94455e+00	
53	9.056000e-02	7.007984e-01	7.796294e-01	7.796294e-01	
54	9.256000e-02	2.881810e+00	3.206006e+00	3.206006e+00	

Index   time            out             x1.1            x1.2            
--------------------------------------------------------------------------------
55	9.456000e-02	3.962075e+00	4.407806e+00	4.407806e+00	
56	9.656000e-02	3.528955e+00	3.925965e+00	3.925965e+00	
57	9.856000e-02	1.747902e+00	1.944548e+00	1.944548e+00	
58	1.000000e-01	-6.72074e-04	-7.39285e-04	-7.39285e-04	

* /home/fossee/downloads/esim-master/examples/inverting_amplifier/inverting_amplifier.cir
Transient Analysis  Fri Oct 16 16:57:07  2015
--------------------------------------------------------------------------------
Index   time            x1.4            
--------------------------------------------------------------------------------
0	0.000000e+00	0.000000e+00	
1	1.000000e-05	-2.35148e+01	
2	2.000000e-05	-2.22238e+01	
3	4.000000e-05	-2.23951e+01	
4	8.000000e-05	-2.22898e+01	
5	1.600000e-04	-2.25442e+01	
6	3.200000e-04	-2.25227e+01	
7	6.400000e-04	-2.28178e+01	
8	1.280000e-03	-2.22583e+01	
9	2.560000e-03	-1.91100e+01	
10	4.560000e-03	-7.64251e+00	
11	6.560000e-03	6.982046e+00	
12	8.560000e-03	1.870152e+01	
13	1.056000e-02	2.351608e+01	
14	1.256000e-02	1.910961e+01	
15	1.456000e-02	7.642856e+00	
16	1.656000e-02	-6.98239e+00	
17	1.856000e-02	-1.87012e+01	
18	2.056000e-02	-2.35164e+01	
19	2.256000e-02	-1.91093e+01	
20	2.456000e-02	-7.64320e+00	
21	2.656000e-02	6.982742e+00	
22	2.856000e-02	1.870082e+01	
23	3.056000e-02	2.351677e+01	
24	3.256000e-02	1.910891e+01	
25	3.456000e-02	7.643555e+00	
26	3.656000e-02	-6.98309e+00	
27	3.856000e-02	-1.87005e+01	
28	4.056000e-02	-2.35171e+01	
29	4.256000e-02	-1.91086e+01	
30	4.456000e-02	-7.64391e+00	
31	4.656000e-02	6.983446e+00	
32	4.856000e-02	1.870012e+01	
33	5.056000e-02	2.351748e+01	
34	5.256000e-02	1.910821e+01	
35	5.456000e-02	7.644261e+00	
36	5.656000e-02	-6.98380e+00	
37	5.856000e-02	-1.86998e+01	
38	6.056000e-02	-2.35178e+01	
39	6.256000e-02	-1.91079e+01	
40	6.456000e-02	-7.64462e+00	
41	6.656000e-02	6.984157e+00	
42	6.856000e-02	1.869941e+01	
43	7.056000e-02	2.351819e+01	
44	7.256000e-02	1.910750e+01	
45	7.456000e-02	7.644975e+00	
46	7.656000e-02	-6.98452e+00	
47	7.856000e-02	-1.86990e+01	
48	8.056000e-02	-2.35186e+01	
49	8.256000e-02	-1.91071e+01	
50	8.456000e-02	-7.64534e+00	
51	8.656000e-02	6.984875e+00	
52	8.856000e-02	1.869869e+01	
53	9.056000e-02	2.351891e+01	
54	9.256000e-02	1.910677e+01	

Index   time            x1.4            
--------------------------------------------------------------------------------
55	9.456000e-02	7.645697e+00	
56	9.656000e-02	-6.98524e+00	
57	9.856000e-02	-1.86983e+01	
58	1.000000e-01	-2.23838e+01	
