                   * /home/fossee/esim-workspace/rlc/rlc.cir
                   Transient Analysis  Thu Mar  3 22:39:44  2016
--------------------------------------------------------------------------------
Index   time            l1#branch       v1#branch       
--------------------------------------------------------------------------------
0	0.000000e+00	0.000000e+00	0.000000e+00	
1	5.000000e-06	1.246852e-07	-1.24685e-07	
2	5.280178e-06	1.320634e-07	-1.32063e-07	
3	5.840535e-06	1.476028e-07	-1.47603e-07	
4	6.961248e-06	1.833769e-07	-1.83377e-07	
5	9.202674e-06	2.736938e-07	-2.73694e-07	
6	1.368553e-05	5.292944e-07	-5.29294e-07	
7	2.194726e-05	1.261510e-06	-1.26151e-06	
8	3.309725e-05	2.784352e-06	-2.78435e-06	
9	5.067770e-05	6.424587e-06	-6.42459e-06	
10	7.587736e-05	1.426097e-05	-1.42610e-05	
11	1.148834e-04	3.237590e-05	-3.23759e-05	
12	1.725767e-04	7.216826e-05	-7.21683e-05	
13	2.611301e-04	1.621561e-04	-1.62156e-04	
14	3.948212e-04	3.596591e-04	-3.59659e-04	
15	5.000000e-04	5.629267e-04	-5.62927e-04	
16	5.207170e-04	6.061485e-04	-6.06149e-04	
17	5.621511e-04	6.911548e-04	-6.91155e-04	
18	6.450192e-04	8.523044e-04	-8.52304e-04	
19	8.107554e-04	1.137162e-03	-1.13716e-03	
20	1.142228e-03	1.548131e-03	-1.54813e-03	
21	1.805173e-03	1.756741e-03	-1.75674e-03	
22	2.654913e-03	1.127431e-03	-1.12743e-03	
23	3.388366e-03	2.317053e-04	-2.31705e-04	
24	4.128785e-03	-5.14398e-04	5.143982e-04	
25	4.865315e-03	-8.37744e-04	8.377443e-04	
26	5.803136e-03	-6.54850e-04	6.548505e-04	
27	6.562563e-03	-2.29095e-04	2.290949e-04	
28	7.307299e-03	1.685116e-04	-1.68512e-04	
29	8.047002e-03	3.831069e-04	-3.83107e-04	
30	8.863450e-03	3.700387e-04	-3.70039e-04	
31	9.692949e-03	1.776432e-04	-1.77643e-04	
32	1.044491e-02	-2.83752e-05	2.837525e-05	
33	1.120165e-02	-1.64572e-04	1.645722e-04	
34	1.194571e-02	-1.91652e-04	1.916518e-04	
35	1.315428e-02	-8.11456e-05	8.114557e-05	
36	1.399830e-02	2.851303e-05	-2.85130e-05	
37	1.472570e-02	8.566113e-05	-8.56611e-05	
38	1.545691e-02	9.243617e-05	-9.24362e-05	
39	1.639911e-02	4.813320e-05	-4.81332e-05	
40	1.717006e-02	-2.22220e-06	2.222197e-06	
41	1.795598e-02	-3.75374e-05	3.753745e-05	
42	1.869340e-02	-4.56103e-05	4.561034e-05	
43	1.983040e-02	-2.27428e-05	2.274282e-05	
44	2.065113e-02	3.044264e-06	-3.04426e-06	
45	2.138550e-02	1.858309e-05	-1.85831e-05	
46	2.211369e-02	2.220465e-05	-2.22046e-05	
47	2.325765e-02	1.081720e-05	-1.08172e-05	
48	2.408176e-02	-1.76689e-06	1.766892e-06	
49	2.481531e-02	-9.19225e-06	9.192253e-06	
50	2.554235e-02	-1.08051e-05	1.080515e-05	
51	2.670586e-02	-5.01696e-06	5.016961e-06	
52	2.753661e-02	1.130777e-06	-1.13078e-06	
53	2.826826e-02	4.607322e-06	-4.60732e-06	
54	2.899257e-02	5.250038e-06	-5.25004e-06	

Index   time            l1#branch       v1#branch       
--------------------------------------------------------------------------------
55	3.004490e-02	2.639137e-06	-2.63914e-06	
56	3.084399e-02	-2.75452e-07	2.754519e-07	
57	3.157887e-02	-2.10870e-06	2.108698e-06	
58	3.230912e-02	-2.56839e-06	2.568394e-06	
59	3.344169e-02	-1.30172e-06	1.301720e-06	
60	3.426136e-02	1.497049e-07	-1.49705e-07	
61	3.499634e-02	1.035243e-06	-1.03524e-06	
62	3.572540e-02	1.250528e-06	-1.25053e-06	
63	3.685635e-02	6.278617e-07	-6.27862e-07	
64	3.767593e-02	-7.85629e-08	7.856290e-08	
65	3.841057e-02	-5.07016e-07	5.070159e-07	
66	3.913921e-02	-6.08891e-07	6.088910e-07	
67	4.027743e-02	-3.00741e-07	3.007411e-07	
68	4.109953e-02	4.386510e-08	-4.38651e-08	
69	4.183359e-02	2.497445e-07	-2.49744e-07	
70	4.256137e-02	2.963873e-07	-2.96387e-07	
71	4.371328e-02	1.416025e-07	-1.41603e-07	
72	4.454012e-02	-2.66604e-08	2.666042e-08	
73	4.527292e-02	-1.24238e-07	1.242377e-07	
74	4.599888e-02	-1.44150e-07	1.441503e-07	
75	4.717900e-02	-6.42054e-08	6.420537e-08	
76	4.801520e-02	1.801739e-08	-1.80174e-08	
77	4.874505e-02	6.287078e-08	-6.28708e-08	
78	4.946683e-02	6.991626e-08	-6.99163e-08	
79	5.046379e-02	3.609285e-08	-3.60928e-08	
80	5.124798e-02	-2.27698e-09	2.276985e-09	
81	5.204920e-02	-2.88044e-08	2.880443e-08	
82	5.278530e-02	-3.41877e-08	3.418771e-08	
83	5.393932e-02	-1.61445e-08	1.614448e-08	
84	5.476595e-02	3.249695e-09	-3.24970e-09	
85	5.549825e-02	1.441819e-08	-1.44182e-08	
86	5.622354e-02	1.662578e-08	-1.66258e-08	
87	5.741306e-02	7.241855e-09	-7.24186e-09	
88	5.825227e-02	-2.25274e-09	2.252742e-09	
89	5.898112e-02	-7.33289e-09	7.332892e-09	
90	5.970413e-02	-8.05103e-09	8.051031e-09	
91	6.067475e-02	-4.19384e-09	4.193835e-09	
92	6.145223e-02	2.042524e-10	-2.04252e-10	
93	6.224608e-02	3.278762e-09	-3.27876e-09	
94	6.298282e-02	3.951512e-09	-3.95151e-09	
95	6.412403e-02	1.938479e-09	-1.93848e-09	
96	6.494636e-02	-2.97731e-10	2.977307e-10	
97	6.568021e-02	-1.62746e-09	1.627459e-09	
98	6.640764e-02	-1.92329e-09	1.923288e-09	
99	6.756501e-02	-9.07167e-10	9.071673e-10	
100	6.839383e-02	1.860557e-10	-1.86056e-10	
101	6.912630e-02	8.127237e-10	-8.12724e-10	
102	6.985169e-02	9.349571e-10	-9.34957e-10	
103	7.104300e-02	4.044757e-10	-4.04476e-10	
104	7.188309e-02	-1.29639e-10	1.296394e-10	
105	7.261196e-02	-4.13828e-10	4.138278e-10	
106	7.333690e-02	-4.52390e-10	4.523905e-10	
107	7.429973e-02	-2.35808e-10	2.358084e-10	
108	7.507590e-02	1.122680e-11	-1.12268e-11	
109	7.586809e-02	1.840805e-10	-1.84080e-10	
110	7.660568e-02	2.222992e-10	-2.22299e-10	
111	7.774523e-02	1.094896e-10	-1.09490e-10	
112	7.856820e-02	-1.64144e-11	1.641443e-11	

Index   time            l1#branch       v1#branch       
--------------------------------------------------------------------------------
113	7.930358e-02	-9.14704e-11	9.147038e-11	
114	8.003261e-02	-1.08169e-10	1.081688e-10	
115	8.118745e-02	-5.11329e-11	5.113286e-11	
116	8.201790e-02	1.045970e-11	-1.04597e-11	
117	8.275333e-02	4.578939e-11	-4.57894e-11	
118	8.348173e-02	5.254234e-11	-5.25423e-11	
119	8.467284e-02	2.254556e-11	-2.25456e-11	
120	8.551782e-02	-7.59314e-12	7.593141e-12	
121	8.625237e-02	-2.34723e-11	2.347229e-11	
122	8.698005e-02	-2.53563e-11	2.535626e-11	
123	8.793781e-02	-1.30270e-11	1.302698e-11	
124	8.872308e-02	9.842751e-13	-9.84275e-13	
125	8.952274e-02	1.057610e-11	-1.05761e-11	
126	9.027227e-02	1.245148e-11	-1.24515e-11	
127	9.142818e-02	5.701134e-12	-5.70113e-12	
128	9.227784e-02	-1.50900e-12	1.508999e-12	
129	9.303547e-02	-5.48907e-12	5.489074e-12	
130	9.378558e-02	-5.98274e-12	5.982744e-12	
131	9.481077e-02	-2.82205e-12	2.822051e-12	
132	9.564777e-02	6.426477e-13	-6.42647e-13	
133	9.649598e-02	2.749097e-12	-2.74910e-12	
134	9.728418e-02	2.838942e-12	-2.83894e-12	
135	9.834546e-02	1.112755e-12	-1.11275e-12	
136	9.923645e-02	-6.04480e-13	6.044809e-13	
137	1.000000e-01	-1.39307e-12	1.393069e-12	
