Title: kicad schematic
Date: Mon Jan 05 15:13:51  2026
Plotname: Transient Analysis
Flags: real
No. Variables: 111
No. Points: 108     
Variables:
	0	time	time
	1	v(net-_d7-pad1_)	voltage
	2	v(net-_q11-pad2_)	voltage
	3	v(net-_q11-pad3_)	voltage
	4	v(net-_q12-pad3_)	voltage
	5	v(net-_r14-pad1_)	voltage
	6	v(net-_q10-pad2_)	voltage
	7	v(net-_r15-pad1_)	voltage
	8	v(net-_d1-pad1_)	voltage
	9	v(net-_d1-pad2_)	voltage
	10	v(net-_d5-pad1_)	voltage
	11	v(net-_q9-pad2_)	voltage
	12	v(net-_q12-pad2_)	voltage
	13	v(net-_r13-pad1_)	voltage
	14	v(net-_d6-pad1_)	voltage
	15	v(net-_q10-pad3_)	voltage
	16	v(net-_d4-pad1_)	voltage
	17	v(net-_q4-pad3_)	voltage
	18	v(net-_d3-pad1_)	voltage
	19	v(net-_q3-pad3_)	voltage
	20	v(net-_q4-pad2_)	voltage
	21	v(net-_q3-pad2_)	voltage
	22	v(net-_r4-pad1_)	voltage
	23	v(net-_d2-pad1_)	voltage
	24	v(net-_q2-pad2_)	voltage
	25	v(net-_q2-pad3_)	voltage
	26	v(net-_r3-pad1_)	voltage
	27	v(net-_q1-pad3_)	voltage
	28	v(net-_q1-pad2_)	voltage
	29	v(net-_r2-pad1_)	voltage
	30	v(net-_r1-pad1_)	voltage
	31	v(a_in)	voltage
	32	v(b_in)	voltage
	33	v(c_in)	voltage
	34	v(d_in)	voltage
	35	v(c)	voltage
	36	v(net-_r27-pad2_)	voltage
	37	v(b)	voltage
	38	v(net-_r28-pad2_)	voltage
	39	v(a)	voltage
	40	v(net-_r29-pad2_)	voltage
	41	v(d)	voltage
	42	v(net-_r26-pad2_)	voltage
	43	v(f)	voltage
	44	v(net-_r24-pad2_)	voltage
	45	v(e)	voltage
	46	v(net-_r25-pad2_)	voltage
	47	v(com)	voltage
	48	v(x1.net-_q10-pad2_)	voltage
	49	v(x1.net-_q10-pad3_)	voltage
	50	v(e_in)	voltage
	51	v(f_in)	voltage
	52	v(x1.net-_q11-pad2_)	voltage
	53	v(x1.net-_q11-pad3_)	voltage
	54	v(g)	voltage
	55	v(x1.net-_q12-pad2_)	voltage
	56	v(g_in)	voltage
	57	v(x1.net-_q9-pad2_)	voltage
	58	v(x1.net-_q3-pad3_)	voltage
	59	v(x1.net-_q4-pad3_)	voltage
	60	v(x1.net-_q2-pad3_)	voltage
	61	v(x1.net-_q1-pad2_)	voltage
	62	v(x1.net-_q1-pad3_)	voltage
	63	v(x1.net-_q2-pad2_)	voltage
	64	v(x1.net-_q3-pad2_)	voltage
	65	v(x1.net-_q4-pad2_)	voltage
	66	v(net-_r22-pad2_)	voltage
	67	v(net-_r23-pad2_)	voltage
	68	v(q.x1.q4#collCX)	voltage
	69	v(q.x1.q3#collCX)	voltage
	70	v(q.x1.q2#collCX)	voltage
	71	v(q.x1.q5#collCX)	voltage
	72	v(q.x1.q1#collCX)	voltage
	73	v(q.x1.q6#collCX)	voltage
	74	v(q.x1.q8#collCX)	voltage
	75	v(q.x1.q7#collCX)	voltage
	76	v(q.x1.q9#collCX)	voltage
	77	v(q.x1.q12#collCX)	voltage
	78	v(q.x1.q11#collCX)	voltage
	79	v(q.x1.q14#collCX)	voltage
	80	v(q.x1.q13#collCX)	voltage
	81	v(q.x1.q10#collCX)	voltage
	82	v(q1#collCX)	voltage
	83	v(q6#collCX)	voltage
	84	v(q5#collCX)	voltage
	85	v(q2#collCX)	voltage
	86	v(q3#collCX)	voltage
	87	v(q4#collCX)	voltage
	88	v(q7#collCX)	voltage
	89	v(q8#collCX)	voltage
	90	v(q10#collCX)	voltage
	91	v(q13#collCX)	voltage
	92	v(q12#collCX)	voltage
	93	v(q9#collCX)	voltage
	94	v(q14#collCX)	voltage
	95	v(q11#collCX)	voltage
	96	i(v_u9)	current
	97	i(v_u8)	current
	98	i(v_u7)	current
	99	i(v_u5)	current
	100	i(v_u6)	current
	101	i(v_u4)	current
	102	i(v_u3)	current
	103	i(v_u2)	current
	104	i(v5)	current
	105	i(v6)	current
	106	i(v7)	current
	107	i(v4)	current
	108	i(v3)	current
	109	i(v2)	current
	110	i(v1)	current
Values:
0		0.000000000000000e+00
	5.117060213862472e-18
	-1.512016905744140e-19
	-1.512017311131831e-19
	-1.512017715136628e-19
	-1.512017975797033e-19
	-1.512017975797033e-19
	-1.512016905744140e-19
	3.555696902506337e-18
	-2.841327270996047e-18
	-1.937742590830893e-18
	-1.512018030920903e-19
	-1.512017883999224e-19
	-1.512018030920903e-19
	-1.750697780986797e-18
	-1.512017849304078e-19
	-1.750697780986797e-18
	-1.512017849304078e-19
	-4.962450678747657e-19
	-1.512017734071589e-19
	-1.512017975797033e-19
	-1.512017758390491e-19
	-1.512017975797033e-19
	-2.737396330178355e-18
	-1.512018136473398e-19
	-1.512017931976952e-19
	-1.512017758390491e-19
	-1.512017418894412e-19
	-1.512017130101165e-19
	-1.512018136473398e-19
	-1.512017130101165e-19
	2.000000000000000e+00
	4.000000000000000e+00
	6.000000000000000e+00
	8.000000000000000e+00
	4.946859171439833e-01
	0.000000000000000e+00
	3.135494330535204e-01
	0.000000000000000e+00
	1.287304752990769e-01
	0.000000000000000e+00
	5.833703914513900e-01
	0.000000000000000e+00
	6.221338955134494e-01
	0.000000000000000e+00
	6.088048309218739e-01
	0.000000000000000e+00
	2.068137128309621e-01
	1.300518343490007e+00
	6.088938932105028e-01
	1.000000000000000e+01
	1.200000000000000e+01
	1.321814988359757e+00
	6.225131695357200e-01
	6.310297879783701e-01
	6.316706047603157e-01
	1.400000000000000e+01
	1.337602158766541e+00
	4.942550195356923e-01
	5.831334389032498e-01
	3.135601808947366e-01
	7.355114564166207e-01
	1.341172484973406e-01
	9.656013476065322e-01
	1.164516950205099e+00
	1.265452082902679e+00
	0.000000000000000e+00
	0.000000000000000e+00
	5.838167329515680e-01
	4.949816484531714e-01
	3.137339031808128e-01
	1.287304752964104e-01
	1.288061970289003e-01
	3.135494304138676e-01
	5.832817531772149e-01
	4.946830627559192e-01
	6.320218606541380e-01
	6.304524824774249e-01
	6.229409215158668e-01
	6.217283355390548e-01
	6.085650691991495e-01
	6.094288362234751e-01
	3.555696902496918e-18
	-2.737396330171231e-18
	3.555696902496918e-18
	-2.737396330171230e-18
	-4.962450678739761e-19
	-1.750697780982330e-18
	-4.962450678739761e-19
	-1.750697780982330e-18
	-1.750697780982330e-18
	-1.750697780982330e-18
	-1.937742590825366e-18
	-1.937742590825366e-18
	5.117060213849517e-18
	5.117060213849518e-18
	7.572380899945696e-05
	1.844408429726590e-04
	2.909917159670490e-04
	3.581204887775729e-04
	3.431590537949353e-04
	3.659611150079114e-04
	3.711939929284530e-04
	1.216551251946836e-04
	-8.285220625247613e-04
	-1.016970001108595e-03
	-1.205942651546044e-03
	-6.413855159140306e-04
	-4.605221952185620e-04
	-2.889903478469970e-04
	-1.204274803412742e-04
1		1.000000000000000e-05
	4.881287683978459e-18
	-1.534415903681321e-19
	-1.522323735628234e-19
	-1.512128036542853e-19
	-1.503213055135964e-19
	-1.503213055135964e-19
	-1.534415903681321e-19
	3.319931227416333e-18
	-2.145475060367197e-18
	-1.843451606545188e-18
	-1.503213027459733e-19
	-1.508049799491714e-19
	-1.503213027459733e-19
	-1.656407356250531e-18
	-1.508049812198561e-19
	-1.656407356250531e-18
	-1.508049812198561e-19
	-4.019583842138819e-19
	-1.508049898264969e-19
	-1.503213055135964e-19
	-1.503213242318507e-19
	-1.503213055135964e-19
	-2.643102963775737e-18
	-1.503212907810457e-19
	-1.508049744449888e-19
	-1.503213242318507e-19
	-1.522323595730741e-19
	-1.534415542870343e-19
	-1.503212907810457e-19
	-1.534415542870343e-19
	2.000000000000000e+00
	4.000000000000000e+00
	6.000000000000000e+00
	8.000000000000000e+00
	4.946859171442686e-01
	0.000000000000000e+00
	3.135494330534490e-01
	0.000000000000000e+00
	1.287304752991040e-01
	0.000000000000000e+00
	5.833703914514108e-01
	0.000000000000000e+00
	6.221338955134448e-01
	0.000000000000000e+00
	6.088048309218975e-01
	0.000000000000000e+00
	2.068137128309735e-01
	1.300518343490030e+00
	6.088938932105264e-01
	1.000000000000000e+01
	1.200000000000000e+01
	1.321814988359753e+00
	6.225131695357152e-01
	6.310297879783788e-01
	6.316706047603243e-01
	1.400000000000000e+01
	1.337602158766549e+00
	4.942550195359764e-01
	5.831334389032702e-01
	3.135601808946656e-01
	7.355114564166477e-01
	1.341172484973668e-01
	9.656013476064631e-01
	1.164516950205382e+00
	1.265452082902699e+00
	0.000000000000000e+00
	0.000000000000000e+00
	5.838167329515886e-01
	4.949816484534567e-01
	3.137339031807415e-01
	1.287304752964376e-01
	1.288061970289275e-01
	3.135494304137962e-01
	5.832817531772356e-01
	4.946830627562046e-01
	6.320218606541468e-01
	6.304524824774335e-01
	6.229409215158621e-01
	6.217283355390502e-01
	6.085650691991729e-01
	6.094288362234986e-01
	3.319931398020461e-18
	-2.643103032370936e-18
	3.319931398903912e-18
	-2.643103032017545e-18
	-4.019584524553414e-19
	-1.656407424492185e-18
	-4.019584528087061e-19
	-1.656407424845564e-18
	-1.656407424492185e-18
	-1.656407424845564e-18
	-1.843451675140254e-18
	-1.843451674786872e-18
	4.881287855466051e-18
	4.881287854582576e-18
	7.572380899947294e-05
	1.844408429726170e-04
	2.909917159672168e-04
	3.581204887775867e-04
	3.431590537949475e-04
	3.659611150079087e-04
	3.711939929284581e-04
	1.216551251946903e-04
	-8.285220625247591e-04
	-1.016970001108595e-03
	-1.205942651546043e-03
	-6.413855159140287e-04
	-4.605221952185351e-04
	-2.889903478470035e-04
	-1.204274803412716e-04
2		2.000000000000001e-05
	4.365385538734104e-18
	-1.539476864771368e-19
	-1.524504047786923e-19
	-1.512115867836287e-19
	-1.507413845475316e-19
	-1.507413845475316e-19
	-1.539476864771368e-19
	3.134180800203720e-18
	-1.101784912994438e-18
	-1.703121808660289e-18
	-1.507413815725506e-19
	-1.510016181195157e-19
	-1.507413815725506e-19
	-1.516078666304536e-18
	-1.510016194600077e-19
	-1.516078666304536e-18
	-1.510016194600077e-19
	-2.616371245303629e-19
	-1.510016283663133e-19
	-1.507413845475316e-19
	-1.507414043456893e-19
	-1.507413845475316e-19
	-2.502768429759334e-18
	-1.507413689867451e-19
	-1.510016124609009e-19
	-1.507414043456893e-19
	-1.510226192792640e-19
	-1.508265465524693e-19
	-1.507413689867451e-19
	-1.508265465524693e-19
	2.000000000000000e+00
	4.000000000000000e+00
	6.000000000000000e+00
	8.000000000000000e+00
	4.946859171440769e-01
	0.000000000000000e+00
	3.135494330534396e-01
	0.000000000000000e+00
	1.287304752990684e-01
	0.000000000000000e+00
	5.833703914513890e-01
	0.000000000000000e+00
	6.221338955134572e-01
	0.000000000000000e+00
	6.088048309218920e-01
	0.000000000000000e+00
	2.068137128309692e-01
	1.300518343490024e+00
	6.088938932105209e-01
	1.000000000000000e+01
	1.200000000000000e+01
	1.321814988359766e+00
	6.225131695357276e-01
	6.310297879783728e-01
	6.316706047603181e-01
	1.400000000000000e+01
	1.337602158766545e+00
	4.942550195357856e-01
	5.831334389032488e-01
	3.135601808946564e-01
	7.355114564166091e-01
	1.341172484973337e-01
	9.656013476064507e-01
	1.164516950205192e+00
	1.265452082902676e+00
	0.000000000000000e+00
	0.000000000000000e+00
	5.838167329515670e-01
	4.949816484532650e-01
	3.137339031807320e-01
	1.287304752964020e-01
	1.288061970288920e-01
	3.135494304137867e-01
	5.832817531772140e-01
	4.946830627560129e-01
	6.320218606541408e-01
	6.304524824774276e-01
	6.229409215158745e-01
	6.217283355390624e-01
	6.085650691991674e-01
	6.094288362234932e-01
	3.134180767204155e-18
	-2.502768463826572e-18
	3.134180765294048e-18
	-2.502768464343198e-18
	-2.616371591138423e-19
	-1.516078700888231e-18
	-2.616371585972418e-19
	-1.516078700371616e-18
	-1.516078700888231e-18
	-1.516078700371616e-18
	-1.703121842727398e-18
	-1.703121843244016e-18
	4.365385743979148e-18
	4.365385744652143e-18
	7.572380899945202e-05
	1.844408429726115e-04
	2.909917159671041e-04
	3.581204887775835e-04
	3.431590537949347e-04
	3.659611150079160e-04
	3.711939929284546e-04
	1.216551251946878e-04
	-8.285220625247596e-04
	-1.016970001108594e-03
	-1.205942651546043e-03
	-6.413855159140309e-04
	-4.605221952185532e-04
	-2.889903478470047e-04
	-1.204274803412753e-04
3		4.000000000000001e-05
	3.312412975124178e-18
	-1.514809693129123e-19
	-1.513209644022800e-19
	-1.512067903932702e-19
	-1.514346730400729e-19
	-1.514346730400729e-19
	-1.514809693129123e-19
	2.735472334037712e-18
	8.115767593962821e-19
	-1.445798234611566e-18
	-1.514346701594289e-19
	-1.513101469490424e-19
	-1.514346701594289e-19
	-1.258757861736974e-18
	-1.513101482562230e-19
	-1.258757861736974e-18
	-1.513101482562230e-19
	-4.334893827156532e-21
	-1.513101570198356e-19
	-1.514346730400729e-19
	-1.514346923493909e-19
	-1.514346730400729e-19
	-2.080363976514062e-18
	-1.498741067608171e-19
	-1.505962557959508e-19
	-1.514346923493909e-19
	-1.512897216607790e-19
	-1.513537808775460e-19
	-1.498741067608171e-19
	-1.513537808775460e-19
	2.000000000000000e+00
	4.000000000000000e+00
	6.000000000000000e+00
	8.000000000000000e+00
	4.946859171442877e-01
	0.000000000000000e+00
	3.135494330534452e-01
	0.000000000000000e+00
	1.287304752991006e-01
	0.000000000000000e+00
	5.833703914513860e-01
	0.000000000000000e+00
	6.221338955134532e-01
	0.000000000000000e+00
	6.088048309218645e-01
	0.000000000000000e+00
	2.068137128309654e-01
	1.300518343489998e+00
	6.088938932104930e-01
	1.000000000000000e+01
	1.200000000000000e+01
	1.321814988359761e+00
	6.225131695357236e-01
	6.310297879783718e-01
	6.316706047603171e-01
	1.400000000000000e+01
	1.337602158766544e+00
	4.942550195359953e-01
	5.831334389032458e-01
	3.135601808946620e-01
	7.355114564166417e-01
	1.341172484973642e-01
	9.656013476064580e-01
	1.164516950205400e+00
	1.265452082902674e+00
	0.000000000000000e+00
	0.000000000000000e+00
	5.838167329515641e-01
	4.949816484534757e-01
	3.137339031807376e-01
	1.287304752964341e-01
	1.288061970289241e-01
	3.135494304137924e-01
	5.832817531772110e-01
	4.946830627562236e-01
	6.320218606541398e-01
	6.304524824774266e-01
	6.229409215158705e-01
	6.217283355390585e-01
	6.085650691991402e-01
	6.094288362234656e-01
	2.735472349698437e-18
	-2.080364079477482e-18
	2.735472351941759e-18
	-2.080364078813554e-18
	-4.334876667489949e-21
	-1.258757844577514e-18
	-4.334876712852019e-21
	-1.258757844622874e-18
	-1.258757844577514e-18
	-1.258757844622874e-18
	-1.445798217497497e-18
	-1.445798217452136e-18
	3.312412991726971e-18
	3.312412993124932e-18
	7.572380899947091e-05
	1.844408429726148e-04
	2.909917159672280e-04
	3.581204887775673e-04
	3.431590537949329e-04
	3.659611150079136e-04
	3.711939929284540e-04
	1.216551251946855e-04
	-8.285220625247621e-04
	-1.016970001108594e-03
	-1.205942651546043e-03
	-6.413855159140311e-04
	-4.605221952185333e-04
	-2.889903478470040e-04
	-1.204274803412722e-04
4		8.000000000000002e-05
	1.203494976867848e-18
	-1.511337118776399e-19
	-1.511577362826461e-19
	-1.511655942980089e-19
	-1.511770012917651e-19
	-1.511770012917651e-19
	-1.511337118776399e-19
	1.939049948903578e-18
	2.693749488589095e-18
	-9.301139466530271e-19
	-1.511769985949700e-19
	-1.511683672493731e-19
	-1.511769985949700e-19
	-7.430801840378214e-19
	-1.511683684752977e-19
	-7.430801840378214e-19
	-1.511683684752977e-19
	5.112984520528305e-19
	-1.511683766965360e-19
	-1.511770012917651e-19
	-1.511770193773523e-19
	-1.511770012917651e-19
	-1.237501675991818e-18
	-1.511446925915564e-19
	-1.511604107171824e-19
	-1.511770193773523e-19
	-1.511675369497429e-19
	-1.511727511731919e-19
	-1.511446925915564e-19
	-1.511727511731919e-19
	2.000000000000000e+00
	4.000000000000000e+00
	6.000000000000000e+00
	8.000000000000000e+00
	4.946859171440134e-01
	0.000000000000000e+00
	3.135494330538036e-01
	0.000000000000000e+00
	1.287304752990744e-01
	0.000000000000000e+00
	5.833703914514359e-01
	0.000000000000000e+00
	6.221338955134426e-01
	0.000000000000000e+00
	6.088048309218668e-01
	0.000000000000000e+00
	2.068137128309664e-01
	1.300518343489999e+00
	6.088938932104953e-01
	1.000000000000000e+01
	1.200000000000000e+01
	1.321814988359751e+00
	6.225131695357131e-01
	6.310297879783779e-01
	6.316706047603236e-01
	1.400000000000000e+01
	1.337602158766551e+00
	4.942550195357222e-01
	5.831334389032953e-01
	3.135601808950177e-01
	7.355114564166164e-01
	1.341172484973393e-01
	9.656013476068116e-01
	1.164516950205129e+00
	1.265452082902725e+00
	0.000000000000000e+00
	0.000000000000000e+00
	5.838167329516137e-01
	4.949816484532015e-01
	3.137339031810961e-01
	1.287304752964079e-01
	1.288061970288979e-01
	3.135494304141508e-01
	5.832817531772606e-01
	4.946830627559494e-01
	6.320218606541460e-01
	6.304524824774326e-01
	6.229409215158600e-01
	6.217283355390479e-01
	6.085650691991425e-01
	6.094288362234679e-01
	1.939049948986049e-18
	-1.237501675781571e-18
	1.939049948774559e-18
	-1.237501676377080e-18
	5.112984522769425e-19
	-7.430801838138250e-19
	5.112984519534975e-19
	-7.430801841372701e-19
	-7.430801838138250e-19
	-7.430801841372701e-19
	-9.301139467524931e-19
	-9.301139464290478e-19
	1.203494977184319e-18
	1.203494976274552e-18
	7.572380899945551e-05
	1.844408429728256e-04
	2.909917159670667e-04
	3.581204887775687e-04
	3.431590537949622e-04
	3.659611150079074e-04
	3.711939929284576e-04
	1.216551251946861e-04
	-8.285220625247620e-04
	-1.016970001108595e-03
	-1.205942651546043e-03
	-6.413855159140262e-04
	-4.605221952185592e-04
	-2.889903478469703e-04
	-1.204274803412746e-04
5		1.600000000000000e-04
	-2.503250101522257e-18
	-1.498945420896201e-19
	-1.505648303243588e-19
	-1.511239689592208e-19
	-1.513270206829622e-19
	-1.513270206829622e-19
	-1.498945420896201e-19
	2.604922554297978e-19
	3.290870116689441e-18
	1.569674663674529e-20
	-1.513270183051754e-19
	-1.512167026409571e-19
	-1.513270183051754e-19
	2.027152784748123e-19
	-1.512167037218240e-19
	2.027152784748123e-19
	-1.512167037218240e-19
	1.457119270834263e-18
	-1.512165653778099e-19
	-1.513270206829622e-19
	-1.513267225474634e-19
	-1.513270206829622e-19
	3.646671625822167e-19
	-1.513372902294494e-19
	-1.512192456537749e-19
	-1.513267225474634e-19
	-1.512170360341589e-19
	-1.513281842902999e-19
	-1.513372902294494e-19
	-1.513281842902999e-19
	2.000000000000000e+00
	4.000000000000000e+00
	6.000000000000000e+00
	8.000000000000000e+00
	4.946859171440400e-01
	0.000000000000000e+00
	3.135494330537272e-01
	0.000000000000000e+00
	1.287304752990820e-01
	0.000000000000000e+00
	5.833703914513790e-01
	0.000000000000000e+00
	6.221338955134413e-01
	0.000000000000000e+00
	6.088048309218697e-01
	0.000000000000000e+00
	2.068137128309589e-01
	1.300518343490002e+00
	6.088938932104986e-01
	1.000000000000000e+01
	1.200000000000000e+01
	1.321814988359752e+00
	6.225131695357119e-01
	6.310297879783697e-01
	6.316706047603153e-01
	1.400000000000000e+01
	1.337602158766541e+00
	4.942550195357486e-01
	5.831334389032388e-01
	3.135601808949420e-01
	7.355114564166286e-01
	1.341172484973457e-01
	9.656013476067359e-01
	1.164516950205155e+00
	1.265452082902666e+00
	0.000000000000000e+00
	0.000000000000000e+00
	5.838167329515570e-01
	4.949816484532281e-01
	3.137339031810197e-01
	1.287304752964156e-01
	1.288061970289055e-01
	3.135494304140744e-01
	5.832817531772039e-01
	4.946830627559759e-01
	6.320218606541377e-01
	6.304524824774245e-01
	6.229409215158588e-01
	6.217283355390467e-01
	6.085650691991453e-01
	6.094288362234708e-01
	2.604922709900627e-19
	3.646671780385576e-19
	2.604922710308947e-19
	3.646671782721766e-19
	1.457119286314521e-18
	2.027152939802029e-19
	1.457119286375396e-18
	2.027152940411081e-19
	2.027152939802029e-19
	2.027152940411081e-19
	1.569676220304796e-20
	1.569676214214277e-20
	-2.503250194819720e-18
	-2.503250194768921e-18
	7.572380899946000e-05
	1.844408429727807e-04
	2.909917159670823e-04
	3.581204887775704e-04
	3.431590537949288e-04
	3.659611150079066e-04
	3.711939929284528e-04
	1.216551251946817e-04
	-8.285220625247618e-04
	-1.016970001108595e-03
	-1.205942651546044e-03
	-6.413855159140318e-04
	-4.605221952185567e-04
	-2.889903478469776e-04
	-1.204274803412735e-04
6		3.200000000000001e-04
	-7.646626802319358e-18
	-1.484207323235825e-19
	-1.499149532183124e-19
	-1.511595638106358e-19
	-1.522535964740024e-19
	-1.522535964740024e-19
	-1.484207323235825e-19
	-1.883760688487956e-18
	1.468265022173626e-18
	2.059106817286659e-18
	-1.509783276176462e-19
	-1.510769078763536e-19
	-1.509783276176462e-19
	1.185562665758479e-18
	-1.516570455393875e-19
	1.185562665758479e-18
	-1.516570455393875e-19
	2.439872408297418e-18
	-1.516571166115848e-19
	-1.522535964740024e-19
	-1.522537519817015e-19
